(1786378649.225516) can0 35D#0055555555555555
(1786378656.324974) can0 33D#0000FFFFFFFFFFFF
(1786378656.344842) can0 39D#A2010001
(1786378656.364693) can0 39D#A3020001
(1786378656.404706) can0 5BD#3840010000000000
(1786378656.424250) can0 39D#A4030001
(1786378656.444654) can0 33D#0000FFFFFFFFFFFF
(1786378656.444944) can0 39D#A5040001
(1786378656.484643) can0 39D#A6050001
(1786378656.524687) can0 33D#0000FFFFFFFFFFFF
(1786378656.544829) can0 39D#A7060001
(1786378656.564665) can0 39D#A8070001
(1786378656.604588) can0 39D#A9080001
(1786378656.644645) can0 33D#0000FFFFFFFFFFFF
(1786378656.644996) can0 39D#AA090001
(1786378656.684697) can0 39D#AB0A0001
(1786378656.724697) can0 33D#0000FFFFFFFFFFFF
(1786378656.744753) can0 39D#AC0B0001
(1786378656.764674) can0 39D#AD0C0001
(1786378656.804636) can0 39D#AE0D0001
(1786378656.844626) can0 33D#0000FFFFFFFFFFFF
(1786378656.845010) can0 39D#AF0E0001
(1786378656.884652) can0 39D#B00F0001
(1786378656.924656) can0 33D#0000FFFFFFFFFFFF
(1786378656.945216) can0 39D#A1000001
(1786378656.964719) can0 39D#B2011001
(1786378657.004723) can0 39D#B3021001
(1786378657.044806) can0 33D#0000FFFFFFFFFFFF
(1786378657.045184) can0 39D#A4030001
(1786378657.084742) can0 39D#B5041001
(1786378657.124690) can0 33D#0000FFFFFFFFFFFF
(1786378657.145122) can0 39D#B6051001
(1786378657.164732) can0 39D#B7061001
(1786378657.204734) can0 39D#B8071001
(1786378657.244801) can0 33D#0000FFFFFFFFFFFF
(1786378657.245224) can0 39D#B9081001
(1786378657.284776) can0 39D#BA091001
(1786378657.324783) can0 35D#0055555555555555
(1786378657.325158) can0 33D#0000FFFFFFFFFFFF
(1786378657.344813) can0 39D#BB0A1001
(1786378657.364795) can0 39D#BC0B1001
(1786378657.405129) can0 39D#BD0C1001
(1786378657.444799) can0 33D#0000FFFFFFFFFFFF
(1786378657.445193) can0 39D#AE0D0001
(1786378657.484737) can0 39D#AF0E0001
(1786378657.524750) can0 33D#0000FFFFFFFFFFFF
(1786378657.545205) can0 39D#B00F0001
(1786378657.564732) can0 39D#A1000001
(1786378657.604767) can0 39D#A2010001
(1786378657.644704) can0 33D#0000FFFFFFFFFFFF
(1786378657.645161) can0 39D#A3020001
(1786378657.684816) can0 39D#A4030001
(1786378657.725088) can0 33D#0000FFFFFFFFFFFF
(1786378657.745232) can0 39D#A5040001
(1786378657.764663) can0 30D#0E0060504D542207
(1786378657.795213) can0 39D#A6050001
(1786378657.805070) can0 39D#A7060001
(1786378657.844813) can0 33D#0000FFFFFFFFFFFF
(1786378657.845163) can0 39D#A8070001
(1786378657.884802) can0 39D#A9080001
(1786378657.924810) can0 33D#0000FFFFFFFFFFFF
(1786378657.945208) can0 39D#AA090001
(1786378657.965010) can0 39D#AB0A0001
(1786378658.004797) can0 39D#AC0B0001
(1786378658.045086) can0 33D#0000FFFFFFFFFFFF
(1786378658.045480) can0 39D#AD0C0001
(1786378658.084761) can0 39D#AE0D0001
(1786378658.124716) can0 33D#0000FFFFFFFFFFFF
(1786378658.145248) can0 39D#AF0E0001
(1786378658.164711) can0 39D#B00F0001
(1786378658.204775) can0 39D#A1000001
(1786378658.244729) can0 33D#0000FFFFFFFFFFFF
(1786378658.245081) can0 39D#A2010001
(1786378658.284778) can0 39D#A3020001
(1786378658.324802) can0 35D#0155555555555555
(1786378658.325184) can0 32D#0A01000000007000
(1786378658.325480) can0 33D#0000FFFFFFFFFFFF
(1786378658.345109) can0 39D#A4030001
(1786378658.364743) can0 39D#A5040001
(1786378658.405036) can0 39D#AE050801
(1786378658.445041) can0 33D#0000FFFFFFFFFFFF
(1786378658.445310) can0 3AD#1500002004000010
(1786378658.455150) can0 39D#AF060801
(1786378658.485036) can0 39D#B0070801
(1786378658.524834) can0 33D#0000FFFFFFFFFFFF
(1786378658.545154) can0 39D#B1080801
(1786378658.564726) can0 39D#B2090801
(1786378658.604782) can0 39D#B30A0801
(1786378658.644782) can0 33D#0000FFFFFFFFFFFF
(1786378658.645198) can0 39D#B40B0801
(1786378658.684862) can0 39D#B50C0801
(1786378658.724745) can0 33D#0000FFFFFFFFFFFF
(1786378658.745209) can0 39D#B60D0801
(1786378658.764770) can0 39D#B70E0801
(1786378658.804717) can0 39D#B80F0801
(1786378658.844659) can0 33D#0000FFFFFFFFFFFF
(1786378658.845100) can0 39D#A9000801
(1786378658.943419) can0 39D#AA010801
(1786378658.943841) can0 33D#0000FFFFFFFFFFFF
(1786378658.945173) can0 39D#AB020801
(1786378658.970030) can0 39D#AC030801
(1786378659.004842) can0 39D#AD040801
(1786378659.044775) can0 33D#0000FFFFFFFFFFFF
(1786378659.045120) can0 39D#AE050801
(1786378659.084759) can0 39D#AF060801
(1786378659.124808) can0 33D#0000FFFFFFFFFFFF
(1786378659.145205) can0 39D#B0070801
(1786378659.164715) can0 39D#B1080801
(1786378659.204770) can0 39D#B2090801
(1786378659.244765) can0 33D#0000FFFFFFFFFFFF
(1786378659.245117) can0 39D#B30A0801
(1786378659.284749) can0 39D#B40B0801
(1786378659.324769) can0 35D#0256555555555555
(1786378659.325090) can0 5BD#B240010000000000
(1786378659.344704) can0 33D#0000FFFFFFFFFFFF
(1786378659.345164) can0 39D#B50C0801
(1786378659.364740) can0 39D#B60D0801
(1786378659.404788) can0 39D#B70E0801
(1786378659.444821) can0 33D#0000FFFFFFFFFFFF
(1786378659.445301) can0 39D#B80F0801
(1786378659.484708) can0 39D#A9000801
(1786378659.524797) can0 5BD#D440010000000000
(1786378659.544722) can0 33D#0000FFFFFFFFFFFF
(1786378659.545167) can0 39D#AA010801
(1786378659.564749) can0 39D#AB020801
(1786378659.604804) can0 39D#AC030801
(1786378659.644739) can0 33D#0000FFFFFFFFFFFF
(1786378659.645112) can0 39D#AD040801
(1786378659.684759) can0 39D#AE050801
(1786378659.724715) can0 5BD#D540010000000000
(1786378659.744770) can0 33D#0000FFFFFFFFFFFF
(1786378659.745237) can0 39D#AF060801
(1786378659.764782) can0 39D#B0070801
(1786378659.804801) can0 39D#B1080801
(1786378659.844729) can0 33D#0000FFFFFFFFFFFF
(1786378659.845140) can0 39D#B2090801
(1786378659.884754) can0 39D#B30A0801
(1786378659.924667) can0 5BD#D640010000000000
(1786378659.944768) can0 33D#0000FFFFFFFFFFFF
(1786378659.945245) can0 39D#C40B1801
(1786378659.964698) can0 39D#B50C0801
(1786378660.004702) can0 39D#B60D0801
(1786378660.044781) can0 33D#0000FFFFFFFFFFFF
(1786378660.045163) can0 39D#B70E0801
(1786378660.084853) can0 39D#B80F0801
(1786378660.124791) can0 33D#0000FFFFFFFFFFFF
(1786378660.144860) can0 39D#A9000801
(1786378660.164795) can0 39D#AA010801
(1786378660.205063) can0 39D#AB020801
(1786378660.244761) can0 33D#0000FFFFFFFFFFFF
(1786378660.245162) can0 39D#AC030801
(1786378660.284815) can0 39D#AD040801
(1786378660.324804) can0 35D#0355555555555555
(1786378660.325179) can0 32D#0B00020101000000
(1786378660.325523) can0 33D#0000FFFFFFFFFFFF
(1786378660.344855) can0 39D#AE050801
(1786378660.364749) can0 39D#AF060801
(1786378660.404727) can0 39D#B0070801
(1786378660.444790) can0 33D#0000FFFFFFFFFFFF
(1786378660.445160) can0 39D#B1080801
(1786378660.484774) can0 39D#B2090801
(1786378660.524739) can0 33D#0000FFFFFFFFFFFF
(1786378660.545174) can0 39D#B30A0801
(1786378660.564722) can0 39D#B40B0801
(1786378660.604717) can0 39D#B50C0801
(1786378660.644735) can0 33D#0000FFFFFFFFFFFF
(1786378660.645168) can0 39D#B60D0801
(1786378660.684826) can0 39D#B70E0801
(1786378660.724736) can0 33D#0000FFFFFFFFFFFF
(1786378660.745171) can0 39D#B80F0801
(1786378660.764753) can0 39D#A9000801
(1786378660.804781) can0 5BD#C140010000000000
(1786378660.844753) can0 39D#AA010801
(1786378660.845032) can0 33D#0000FFFFFFFFFFFF
(1786378660.845260) can0 39D#AB020801
(1786378660.884796) can0 39D#AC030801
(1786378660.924701) can0 33D#0000FFFFFFFFFFFF
(1786378660.945106) can0 39D#AD040801
(1786378660.964754) can0 39D#AE050801
(1786378661.004702) can0 39D#AF060801
(1786378661.044729) can0 33D#0000FFFFFFFFFFFF
(1786378661.045162) can0 39D#B0070801
(1786378661.084821) can0 39D#B1080801
(1786378661.124730) can0 33D#0000FFFFFFFFFFFF
(1786378661.145161) can0 39D#B2090801
(1786378661.164775) can0 39D#B30A0801
(1786378661.204692) can0 39D#B40B0801
(1786378661.244771) can0 33D#0000FFFFFFFFFFFF
(1786378661.245170) can0 39D#B50C0801
(1786378661.284776) can0 39D#B60D0801
(1786378661.324755) can0 35D#0455555555555555
(1786378661.325058) can0 33D#0000FFFFFFFFFFFF
(1786378661.345211) can0 39D#B70E0801
(1786378661.364716) can0 39D#B80F0801
(1786378661.404785) can0 39D#A9000801
(1786378661.444773) can0 33D#0000FFFFFFFFFFFF
(1786378661.445146) can0 39D#AA010801
(1786378661.484824) can0 39D#AB020801
(1786378661.524766) can0 33D#0000FFFFFFFFFFFF
(1786378661.545217) can0 39D#AC030801
(1786378661.564787) can0 39D#AD040801
(1786378661.604735) can0 39D#AE050801
(1786378661.644929) can0 33D#0000FFFFFFFFFFFF
(1786378661.645176) can0 39D#AF060801
(1786378661.684797) can0 39D#B0070801
(1786378661.724717) can0 33D#0000FFFFFFFFFFFF
(1786378661.745156) can0 39D#B1080801
(1786378661.764845) can0 39D#B2090801
(1786378661.804809) can0 39D#B30A0801
(1786378661.844824) can0 33D#0000FFFFFFFFFFFF
(1786378661.845213) can0 39D#B40B0801
(1786378661.884832) can0 39D#B50C0801
(1786378661.925098) can0 33D#0000FFFFFFFFFFFF
(1786378661.945220) can0 39D#B60D0801
(1786378661.964796) can0 39D#B70E0801
(1786378662.004813) can0 39D#B80F0801
(1786378662.044858) can0 33D#0000FFFFFFFFFFFF
(1786378662.045326) can0 39D#A9000801
(1786378662.085069) can0 39D#AA010801
(1786378662.124711) can0 33D#0000FFFFFFFFFFFF
(1786378662.145191) can0 39D#AB020801
(1786378662.164733) can0 39D#AC030801
(1786378662.204750) can0 39D#AD040801
(1786378662.244748) can0 33D#0000FFFFFFFFFFFF
(1786378662.245123) can0 39D#AE050801
(1786378662.284748) can0 39D#AF060801
(1786378662.324701) can0 35D#0555555555555555
(1786378662.324927) can0 32D#0D0000008D792021
(1786378662.325147) can0 33D#0000FFFFFFFFFFFF
(1786378662.345170) can0 39D#B0070801
(1786378662.364785) can0 39D#B1080801
(1786378662.404917) can0 39D#B2090801
(1786378662.444758) can0 33D#0000FFFFFFFFFFFF
(1786378662.445170) can0 39D#B30A0801
(1786378662.484798) can0 39D#B40B0801
(1786378662.524722) can0 33D#0000FFFFFFFFFFFF
(1786378662.545091) can0 39D#B50C0801
(1786378662.565017) can0 39D#B60D0801
(1786378662.604782) can0 39D#B70E0801
(1786378662.644743) can0 33D#0000FFFFFFFFFFFF
(1786378662.645149) can0 39D#B80F0801
(1786378662.684764) can0 39D#A9000801
(1786378662.724690) can0 33D#0000FFFFFFFFFFFF
(1786378662.745275) can0 39D#AA010801
(1786378662.764781) can0 39D#AB020801
(1786378662.804719) can0 39D#AC030801
(1786378662.844721) can0 33D#0000FFFFFFFFFFFF
(1786378662.845149) can0 3AD#4100002004000010
(1786378662.874857) can0 39D#AD040801
(1786378662.884752) can0 39D#AE050801
(1786378662.924618) can0 33D#0000FFFFFFFFFFFF
(1786378662.944823) can0 39D#AF060801
(1786378662.964684) can0 39D#B0070801
(1786378663.004644) can0 39D#B1080801
(1786378663.044644) can0 33D#0000FFFFFFFFFFFF
(1786378663.045004) can0 39D#B2090801
(1786378663.084615) can0 39D#B30A0801
(1786378663.124636) can0 33D#0000FFFFFFFFFFFF
(1786378663.144808) can0 39D#B40B0801
(1786378663.164628) can0 39D#B50C0801
(1786378663.204663) can0 39D#B60D0801
(1786378663.244614) can0 33D#0000FFFFFFFFFFFF
(1786378663.244872) can0 31D#4500300000030200
(1786378663.254821) can0 33D#04000A0053535555
(1786378663.274831) can0 39D#B70E0801
(1786378663.284649) can0 34D#0000280015286400
(1786378663.294804) can0 36D#9D0000000040E785
(1786378663.314908) can0 39D#B80F0801
(1786378663.324746) can0 35D#0655556555555559
(1786378663.325087) can0 37D#87000000005C5700
(1786378663.334905) can0 33D#0000FFFFFFFFFFFF
(1786378663.344802) can0 38D#0000000070050000
(1786378663.354799) can0 39D#A9000801
(1786378663.364717) can0 39D#AA010801
(1786378663.407298) can0 39D#AB020801
(1786378663.444668) can0 33D#0000FFFFFFFFFFFF
(1786378663.445030) can0 39D#AC030801
(1786378663.484651) can0 39D#AD040801
(1786378663.524634) can0 33D#0000FFFFFFFFFFFF
(1786378663.544832) can0 39D#AE050801
(1786378663.564664) can0 39D#AF060801
(1786378663.604753) can0 39D#B0070801
(1786378663.644702) can0 33D#0000FFFFFFFFFFFF
(1786378663.645078) can0 39D#B1080801
(1786378663.684674) can0 39D#B2090801
(1786378663.724620) can0 33D#0000FFFFFFFFFFFF
(1786378663.744854) can0 39D#B30A0801
(1786378663.764679) can0 39D#B40B0801
(1786378663.804821) can0 39D#B50C0801
(1786378663.844742) can0 33D#0000FFFFFFFFFFFF
(1786378663.844989) can0 39D#B60D0801
(1786378663.884665) can0 39D#B70E0801
(1786378663.924653) can0 33D#0000FFFFFFFFFFFF
(1786378663.944771) can0 39D#B80F0801
(1786378663.964646) can0 39D#A9000801
(1786378664.004679) can0 39D#AA010801
(1786378664.044789) can0 33D#0000FFFFFFFFFFFF
(1786378664.045100) can0 39D#AB020801
(1786378664.084728) can0 39D#AC030801
(1786378664.124814) can0 33D#0000FFFFFFFFFFFF
(1786378664.144799) can0 39D#AD040801
(1786378664.164675) can0 39D#AE050801
(1786378664.204720) can0 39D#AF060801
(1786378664.244675) can0 33D#0000FFFFFFFFFFFF
(1786378664.244998) can0 39D#B0070801
(1786378664.284767) can0 39D#B1080801
(1786378664.324671) can0 35D#07555555552A0000
(1786378664.325043) can0 32D#1405000060FCB070
(1786378664.325340) can0 33D#0000FFFFFFFFFFFF
(1786378664.344865) can0 39D#B2090801
(1786378664.364558) can0 39D#B30A0801
(1786378664.404707) can0 39D#B40B0801
(1786378664.444675) can0 33D#0000FFFFFFFFFFFF
(1786378664.444996) can0 39D#B50C0801
(1786378664.484732) can0 39D#B60D0801
(1786378664.524712) can0 33D#0000FFFFFFFFFFFF
(1786378664.544829) can0 39D#B70E0801
(1786378664.564664) can0 39D#B80F0801
(1786378664.604735) can0 39D#A9000801
(1786378664.644614) can0 33D#0000FFFFFFFFFFFF
(1786378664.644858) can0 39D#AA010801
(1786378664.684778) can0 39D#AB020801
(1786378664.724672) can0 33D#0000FFFFFFFFFFFF
(1786378664.744789) can0 39D#AC030801
(1786378664.764679) can0 39D#AD040801
(1786378664.804777) can0 39D#AE050801
(1786378664.844729) can0 33D#0000FFFFFFFFFFFF
(1786378664.845114) can0 39D#AF060801
(1786378664.884796) can0 39D#B0070801
(1786378664.924744) can0 33D#0000FFFFFFFFFFFF
(1786378664.944868) can0 39D#B1080801
(1786378664.964842) can0 39D#B2090801
(1786378665.004689) can0 39D#B30A0801
(1786378665.044738) can0 33D#0000FFFFFFFFFFFF
(1786378665.045085) can0 39D#B40B0801
(1786378665.084732) can0 39D#B50C0801
(1786378665.124837) can0 33D#0000FFFFFFFFFFFF
(1786378665.144893) can0 39D#B60D0801
(1786378665.164737) can0 39D#B70E0801
(1786378665.204704) can0 39D#B80F0801
(1786378665.244753) can0 33D#0000FFFFFFFFFFFF
(1786378665.245095) can0 39D#A9000801
(1786378665.284865) can0 39D#AA010801
(1786378665.324798) can0 35D#0055555555555555
(1786378665.325203) can0 33D#0000FFFFFFFFFFFF
(1786378665.344780) can0 39D#AB020801
(1786378665.364798) can0 39D#AC030801
(1786378665.404701) can0 39D#AD040801
(1786378665.444723) can0 33D#0000FFFFFFFFFFFF
(1786378665.445137) can0 39D#AE050801
(1786378665.484795) can0 39D#AF060801
(1786378665.524823) can0 33D#0000FFFFFFFFFFFF
(1786378665.544843) can0 39D#B0070801
(1786378665.564712) can0 39D#B1080801
(1786378665.604816) can0 39D#B2090801
(1786378665.644740) can0 33D#0000FFFFFFFFFFFF
(1786378665.645067) can0 39D#B30A0801
(1786378665.684735) can0 39D#B40B0801
(1786378665.724596) can0 33D#0000FFFFFFFFFFFF
(1786378665.744788) can0 39D#B50C0801
(1786378665.764697) can0 39D#B60D0801
(1786378665.804763) can0 39D#B70E0801
(1786378665.844796) can0 33D#0000FFFFFFFFFFFF
(1786378665.845162) can0 39D#B80F0801
(1786378665.884822) can0 39D#A9000801
(1786378665.924792) can0 33D#0000FFFFFFFFFFFF
(1786378665.944814) can0 39D#AA010801
(1786378665.964756) can0 39D#AB020801
(1786378666.004762) can0 39D#AC030801
(1786378666.044800) can0 33D#0000FFFFFFFFFFFF
(1786378666.045121) can0 39D#AD040801
(1786378666.084676) can0 39D#AE050801
(1786378666.124900) can0 33D#0000FFFFFFFFFFFF
(1786378666.144889) can0 39D#AF060801
(1786378666.164810) can0 39D#B0070801
(1786378666.204747) can0 39D#B1080801
(1786378666.244671) can0 33D#0000FFFFFFFFFFFF
(1786378666.244991) can0 39D#B2090801
(1786378666.284807) can0 39D#B30A0801
(1786378666.324764) can0 35D#0155555555555555
(1786378666.325058) can0 32D#16000000E4ACA32F
(1786378666.325380) can0 33D#0000FFFFFFFFFFFF
(1786378666.344807) can0 39D#B40B0801
(1786378666.364609) can0 39D#B50C0801
(1786378666.404766) can0 39D#B60D0801
(1786378666.444703) can0 33D#0000FFFFFFFFFFFF
(1786378666.445007) can0 39D#B70E0801
(1786378666.484728) can0 39D#B80F0801
(1786378666.524711) can0 33D#0000FFFFFFFFFFFF
(1786378666.544775) can0 39D#A9000801
(1786378666.564707) can0 39D#AA010801
(1786378666.604702) can0 39D#AB020801
(1786378666.644717) can0 33D#0000FFFFFFFFFFFF
(1786378666.645026) can0 39D#AC030801
(1786378666.684660) can0 39D#AD040801
(1786378666.724917) can0 33D#0000FFFFFFFFFFFF
(1786378666.744815) can0 39D#AE050801
(1786378666.764661) can0 39D#AF060801
(1786378666.804743) can0 39D#B0070801
(1786378666.844725) can0 33D#0000FFFFFFFFFFFF
(1786378666.845030) can0 39D#B1080801
(1786378666.884801) can0 39D#B2090801
(1786378666.924972) can0 33D#0000FFFFFFFFFFFF
(1786378666.944864) can0 39D#B30A0801
(1786378666.964930) can0 39D#B40B0801
(1786378667.004784) can0 39D#B50C0801
(1786378667.044763) can0 33D#0000FFFFFFFFFFFF
(1786378667.045115) can0 39D#B60D0801
(1786378667.084880) can0 39D#B70E0801
(1786378667.124749) can0 33D#0000FFFFFFFFFFFF
(1786378667.144877) can0 39D#B80F0801
(1786378667.164758) can0 39D#A9000801
(1786378667.204786) can0 39D#AA010801
(1786378667.244746) can0 33D#0000FFFFFFFFFFFF
(1786378667.245178) can0 39D#AB020801
(1786378667.284808) can0 39D#AC030801
(1786378667.324708) can0 35D#0256555555555555
(1786378667.324986) can0 33D#0000FFFFFFFFFFFF
(1786378667.344882) can0 39D#AD040801
(1786378667.364773) can0 39D#AE050801
(1786378667.404636) can0 39D#AF060801
(1786378667.444637) can0 33D#0000FFFFFFFFFFFF
(1786378667.445002) can0 39D#B0070801
(1786378667.484793) can0 39D#B1080801
(1786378667.524646) can0 33D#0000FFFFFFFFFFFF
(1786378667.544782) can0 39D#B2090801
(1786378667.564790) can0 39D#B30A0801
(1786378667.604721) can0 39D#B40B0801
(1786378667.644735) can0 33D#0000FFFFFFFFFFFF
(1786378667.645077) can0 39D#B50C0801
(1786378667.684741) can0 39D#B60D0801
(1786378667.724687) can0 33D#0000FFFFFFFFFFFF
(1786378667.744830) can0 39D#B70E0801
(1786378667.764777) can0 39D#B80F0801
(1786378667.804661) can0 39D#A9000801
(1786378667.844779) can0 33D#0000FFFFFFFFFFFF
(1786378667.845132) can0 39D#AA010801
(1786378667.884742) can0 39D#AB020801
(1786378667.924699) can0 33D#0000FFFFFFFFFFFF
(1786378667.944867) can0 39D#AC030801
(1786378667.964743) can0 39D#AD040801
(1786378668.004768) can0 39D#AE050801
(1786378668.044773) can0 33D#0000FFFFFFFFFFFF
(1786378668.045124) can0 39D#AF060801
(1786378668.084651) can0 39D#B0070801
(1786378668.124730) can0 33D#0000FFFFFFFFFFFF
(1786378668.144829) can0 39D#B1080801
(1786378668.164694) can0 39D#B2090801
(1786378668.204740) can0 39D#B30A0801
(1786378668.244711) can0 33D#0000FFFFFFFFFFFF
(1786378668.245020) can0 39D#B40B0801
(1786378668.284760) can0 39D#B50C0801
(1786378668.324701) can0 35D#0355555555555555
(1786378668.325035) can0 32D#0A01000000007000
(1786378668.325295) can0 33D#0000FFFFFFFFFFFF
(1786378668.344842) can0 39D#B60D0801
(1786378668.364789) can0 39D#B70E0801
(1786378668.404675) can0 39D#B80F0801
(1786378668.444701) can0 33D#0000FFFFFFFFFFFF
(1786378668.445124) can0 39D#A9000801
(1786378668.484688) can0 39D#AA010801
(1786378668.524674) can0 33D#0000FFFFFFFFFFFF
(1786378668.544952) can0 39D#AB020801
(1786378668.564694) can0 39D#AC030801
(1786378668.604644) can0 39D#AD040801
(1786378668.644708) can0 33D#0000FFFFFFFFFFFF
(1786378668.645002) can0 39D#AE050801
(1786378668.684754) can0 39D#AF060801
(1786378668.724739) can0 33D#0000FFFFFFFFFFFF
(1786378668.744770) can0 39D#B0070801
(1786378668.764752) can0 39D#B1080801
(1786378668.804754) can0 39D#B2090801
(1786378668.844703) can0 33D#0000FFFFFFFFFFFF
(1786378668.845022) can0 39D#B30A0801
(1786378668.884868) can0 39D#B40B0801
(1786378668.924701) can0 33D#0000FFFFFFFFFFFF
(1786378668.944797) can0 39D#B50C0801
(1786378668.964790) can0 39D#B60D0801
(1786378669.004734) can0 39D#B70E0801
(1786378669.044723) can0 33D#0000FFFFFFFFFFFF
(1786378669.045018) can0 39D#B80F0801
(1786378669.084694) can0 39D#A9000801
(1786378669.124736) can0 33D#0000FFFFFFFFFFFF
(1786378669.144850) can0 39D#AA010801
(1786378669.164800) can0 39D#AB020801
(1786378669.204712) can0 39D#AC030801
(1786378669.244714) can0 33D#0000FFFFFFFFFFFF
(1786378669.245057) can0 39D#AD040801
(1786378669.284732) can0 39D#AE050801
(1786378669.324732) can0 35D#0455555555555555
(1786378669.325044) can0 33D#0000FFFFFFFFFFFF
(1786378669.344878) can0 39D#AF060801
(1786378669.364737) can0 39D#B0070801
(1786378669.404723) can0 39D#B1080801
(1786378669.444884) can0 33D#0000FFFFFFFFFFFF
(1786378669.445335) can0 39D#B2090801
(1786378669.484729) can0 39D#B30A0801
(1786378669.524632) can0 33D#0000FFFFFFFFFFFF
(1786378669.544895) can0 39D#B40B0801
(1786378669.564830) can0 39D#B50C0801
(1786378669.604669) can0 39D#B60D0801
(1786378669.644684) can0 33D#0000FFFFFFFFFFFF
(1786378669.645023) can0 39D#B70E0801
(1786378669.684726) can0 39D#B80F0801
(1786378669.724698) can0 33D#0000FFFFFFFFFFFF
(1786378669.744796) can0 39D#A9000801
(1786378669.764768) can0 39D#AA010801
(1786378669.804785) can0 39D#AB020801
(1786378669.844735) can0 33D#0000FFFFFFFFFFFF
(1786378669.845215) can0 39D#AC030801
(1786378669.884809) can0 39D#AD040801
(1786378669.924665) can0 33D#0000FFFFFFFFFFFF
(1786378669.944872) can0 39D#AE050801
(1786378669.964648) can0 39D#AF060801
(1786378670.004748) can0 39D#B0070801
(1786378670.044751) can0 33D#0000FFFFFFFFFFFF
(1786378670.045064) can0 39D#B1080801
(1786378670.084770) can0 39D#B2090801
(1786378670.124648) can0 33D#0000FFFFFFFFFFFF
(1786378670.144872) can0 39D#B30A0801
(1786378670.164715) can0 39D#B40B0801
(1786378670.204755) can0 39D#B50C0801
(1786378670.244750) can0 33D#0000FFFFFFFFFFFF
(1786378670.245126) can0 39D#B60D0801
(1786378670.284791) can0 39D#B70E0801
(1786378670.324669) can0 35D#0555555555555555
(1786378670.324985) can0 32D#0B00020101000000
(1786378670.325259) can0 33D#0000FFFFFFFFFFFF
(1786378670.344821) can0 39D#B80F0801
(1786378670.364680) can0 39D#A9000801
(1786378670.404817) can0 39D#AA010801
(1786378670.444819) can0 33D#0000FFFFFFFFFFFF
(1786378670.445163) can0 39D#AB020801
(1786378670.484837) can0 39D#AC030801
(1786378670.524818) can0 33D#0000FFFFFFFFFFFF
(1786378670.544849) can0 39D#AD040801
(1786378670.564653) can0 39D#AE050801
(1786378670.604661) can0 39D#AF060801
(1786378670.644739) can0 33D#0000FFFFFFFFFFFF
(1786378670.645178) can0 39D#B0070801
(1786378670.684836) can0 39D#B1080801
(1786378670.724691) can0 33D#0000FFFFFFFFFFFF
(1786378670.744840) can0 39D#B2090801
(1786378670.764691) can0 39D#B30A0801
(1786378670.804737) can0 39D#B40B0801
(1786378670.844738) can0 33D#0000FFFFFFFFFFFF
(1786378670.845105) can0 39D#B50C0801
(1786378670.884639) can0 39D#B60D0801
(1786378670.924809) can0 33D#0000FFFFFFFFFFFF
(1786378670.944844) can0 39D#B70E0801
(1786378670.964686) can0 39D#B80F0801
(1786378671.004708) can0 39D#A9000801
(1786378671.044682) can0 33D#0000FFFFFFFFFFFF
(1786378671.044951) can0 39D#AA010801
(1786378671.084714) can0 39D#AB020801
(1786378671.124663) can0 33D#0000FFFFFFFFFFFF
(1786378671.144825) can0 39D#AC030801
(1786378671.164711) can0 39D#AD040801
(1786378671.204711) can0 39D#AE050801
(1786378671.244651) can0 33D#0000FFFFFFFFFFFF
(1786378671.244902) can0 39D#AF060801
(1786378671.284663) can0 39D#B0070801
(1786378671.324648) can0 35D#0655556555555559
(1786378671.324876) can0 33D#0000FFFFFFFFFFFF
(1786378671.344832) can0 39D#B1080801
(1786378671.364698) can0 39D#B2090801
(1786378671.404702) can0 39D#B30A0801
(1786378671.444668) can0 33D#0000FFFFFFFFFFFF
(1786378671.444984) can0 39D#B40B0801
(1786378671.484759) can0 39D#B50C0801
(1786378671.524725) can0 33D#0000FFFFFFFFFFFF
(1786378671.544902) can0 39D#B60D0801
(1786378671.564770) can0 39D#B70E0801
(1786378671.604758) can0 39D#B80F0801
(1786378671.644724) can0 33D#0000FFFFFFFFFFFF
(1786378671.644986) can0 39D#A9000801
(1786378671.684656) can0 39D#AA010801
(1786378671.724764) can0 33D#0000FFFFFFFFFFFF
(1786378671.744785) can0 39D#AB020801
(1786378671.764705) can0 39D#AC030801
(1786378671.804728) can0 39D#AD040801
(1786378671.844736) can0 33D#0000FFFFFFFFFFFF
(1786378671.845082) can0 39D#AE050801
(1786378671.884748) can0 39D#AF060801
(1786378671.924757) can0 33D#0000FFFFFFFFFFFF
(1786378671.944867) can0 39D#B0070801
(1786378671.964711) can0 39D#B1080801
(1786378672.004736) can0 39D#B2090801
(1786378672.044697) can0 33D#0000FFFFFFFFFFFF
(1786378672.045041) can0 39D#B30A0801
(1786378672.133090) can0 39D#B40B0801
(1786378672.162707) can0 33D#0000FFFFFFFFFFFF
(1786378672.163078) can0 39D#B50C0801
(1786378672.164872) can0 39D#B60D0801
(1786378672.204746) can0 39D#B70E0801
(1786378672.244732) can0 33D#0000FFFFFFFFFFFF
(1786378672.245121) can0 39D#B80F0801
(1786378672.284738) can0 39D#A9000801
(1786378672.324687) can0 35D#07555555552A0000
(1786378672.324976) can0 32D#0D0000008D792021
(1786378672.325208) can0 33D#0000FFFFFFFFFFFF
(1786378672.344858) can0 39D#AA010801
(1786378672.364694) can0 39D#AB020801
(1786378672.404824) can0 39D#AC030801
(1786378672.444694) can0 33D#0000FFFFFFFFFFFF
(1786378672.445131) can0 39D#AD040801
(1786378672.484726) can0 39D#AE050801
(1786378672.524690) can0 33D#0000FFFFFFFFFFFF
(1786378672.544799) can0 39D#AF060801
(1786378672.564702) can0 39D#B0070801
(1786378672.604744) can0 39D#B1080801
(1786378672.644749) can0 33D#0000FFFFFFFFFFFF
(1786378672.645064) can0 39D#B2090801
(1786378672.684733) can0 39D#B30A0801
(1786378672.724751) can0 33D#0000FFFFFFFFFFFF
(1786378672.744884) can0 39D#B40B0801
(1786378672.764737) can0 39D#B50C0801
(1786378672.804722) can0 39D#B60D0801
(1786378672.844775) can0 33D#0000FFFFFFFFFFFF
(1786378672.845102) can0 39D#B70E0801
(1786378672.884776) can0 39D#B80F0801
(1786378672.924728) can0 33D#0000FFFFFFFFFFFF
(1786378672.944835) can0 39D#A9000801
(1786378672.964688) can0 39D#AA010801
(1786378673.004786) can0 39D#AB020801
(1786378673.044803) can0 33D#0000FFFFFFFFFFFF
(1786378673.045191) can0 39D#AC030801
(1786378673.084767) can0 39D#AD040801
(1786378673.124700) can0 33D#0000FFFFFFFFFFFF
(1786378673.144846) can0 39D#AE050801
(1786378673.164714) can0 39D#AF060801
(1786378673.204785) can0 39D#B0070801
(1786378673.244640) can0 33D#0000FFFFFFFFFFFF
(1786378673.244920) can0 39D#B1080801
(1786378673.284803) can0 39D#B2090801
(1786378673.324768) can0 35D#0055555555555555
(1786378673.325189) can0 33D#0000FFFFFFFFFFFF
(1786378673.344864) can0 39D#B30A0801
(1786378673.364731) can0 39D#B40B0801
(1786378673.404740) can0 39D#B50C0801
(1786378673.444778) can0 33D#0000FFFFFFFFFFFF
(1786378673.445155) can0 39D#B60D0801
(1786378673.484854) can0 39D#B70E0801
(1786378673.524743) can0 33D#0000FFFFFFFFFFFF
(1786378673.544867) can0 39D#B80F0801
(1786378673.564742) can0 39D#A9000801
(1786378673.604780) can0 39D#AA010801
(1786378673.644782) can0 33D#0000FFFFFFFFFFFF
(1786378673.645204) can0 39D#AB020801
(1786378673.684725) can0 39D#AC030801
(1786378673.724639) can0 33D#0000FFFFFFFFFFFF
(1786378673.744910) can0 39D#AD040801
(1786378673.764694) can0 39D#AE050801
(1786378673.804727) can0 39D#AF060801
(1786378673.844754) can0 33D#0000FFFFFFFFFFFF
(1786378673.845068) can0 39D#B0070801
(1786378673.884769) can0 39D#B1080801
(1786378673.924780) can0 33D#0000FFFFFFFFFFFF
(1786378673.944866) can0 39D#B2090801
(1786378673.964771) can0 39D#B30A0801
(1786378674.004721) can0 39D#B40B0801
(1786378674.044738) can0 33D#0000FFFFFFFFFFFF
(1786378674.045080) can0 39D#B50C0801
(1786378674.084792) can0 39D#B60D0801
(1786378674.124732) can0 33D#0000FFFFFFFFFFFF
(1786378674.144854) can0 39D#B70E0801
(1786378674.164754) can0 39D#B80F0801
(1786378674.204742) can0 39D#A9000801
(1786378674.244789) can0 33D#0000FFFFFFFFFFFF
(1786378674.245087) can0 39D#AA010801
(1786378674.284747) can0 39D#AB020801
(1786378674.324708) can0 35D#0155555555555555
(1786378674.325026) can0 32D#1405000060FCB070
(1786378674.325386) can0 33D#0000FFFFFFFFFFFF
(1786378674.344853) can0 39D#AC030801
(1786378674.364802) can0 39D#AD040801
(1786378674.404881) can0 39D#AE050801
(1786378674.444808) can0 33D#0000FFFFFFFFFFFF
(1786378674.445137) can0 39D#AF060801
(1786378674.484736) can0 39D#B0070801
(1786378674.524773) can0 33D#0000FFFFFFFFFFFF
(1786378674.544880) can0 39D#B1080801
(1786378674.564728) can0 39D#B2090801
(1786378674.604866) can0 39D#B30A0801
(1786378674.644801) can0 33D#0000FFFFFFFFFFFF
(1786378674.645148) can0 39D#B40B0801
(1786378674.684641) can0 39D#B50C0801
(1786378674.724713) can0 33D#0000FFFFFFFFFFFF
(1786378674.744944) can0 39D#B60D0801
(1786378674.764717) can0 39D#B70E0801
(1786378674.804765) can0 39D#B80F0801
(1786378674.844746) can0 33D#0000FFFFFFFFFFFF
(1786378674.845091) can0 39D#A9000801
(1786378674.884751) can0 39D#AA010801
(1786378674.924765) can0 33D#0000FFFFFFFFFFFF
(1786378674.944896) can0 39D#AB020801
(1786378674.964690) can0 39D#AC030801
(1786378675.004730) can0 39D#AD040801
(1786378675.044821) can0 33D#0000FFFFFFFFFFFF
(1786378675.045197) can0 39D#AE050801
(1786378675.084731) can0 39D#AF060801
(1786378675.124744) can0 33D#0000FFFFFFFFFFFF
(1786378675.144899) can0 39D#B0070801
(1786378675.164794) can0 39D#B1080801
(1786378675.204766) can0 39D#B2090801
(1786378675.244763) can0 33D#0000FFFFFFFFFFFF
(1786378675.245158) can0 39D#B30A0801
(1786378675.284787) can0 39D#B40B0801
(1786378675.324820) can0 35D#0256555555555555
(1786378675.325210) can0 33D#0000FFFFFFFFFFFF
(1786378675.344862) can0 39D#B50C0801
(1786378675.364712) can0 39D#B60D0801
(1786378675.404710) can0 39D#B70E0801
(1786378675.444679) can0 33D#0000FFFFFFFFFFFF
(1786378675.445025) can0 39D#B80F0801
(1786378675.484753) can0 39D#A9000801
(1786378675.524675) can0 33D#0000FFFFFFFFFFFF
(1786378675.544822) can0 39D#AA010801
(1786378675.564800) can0 39D#AB020801
(1786378675.604773) can0 39D#AC030801
(1786378675.644797) can0 33D#0000FFFFFFFFFFFF
(1786378675.645130) can0 39D#AD040801
(1786378675.684780) can0 39D#AE050801
(1786378675.724727) can0 33D#0000FFFFFFFFFFFF
(1786378675.744839) can0 39D#AF060801
(1786378675.764736) can0 39D#B0070801
(1786378675.804744) can0 39D#B1080801
(1786378675.844818) can0 33D#0000FFFFFFFFFFFF
(1786378675.845192) can0 39D#B2090801
(1786378675.884733) can0 39D#B30A0801
(1786378675.924739) can0 33D#0000FFFFFFFFFFFF
(1786378675.944858) can0 39D#B40B0801
(1786378675.964710) can0 39D#B50C0801
(1786378676.004802) can0 39D#B60D0801
(1786378676.044716) can0 33D#0000FFFFFFFFFFFF
(1786378676.045050) can0 39D#B70E0801
(1786378676.084742) can0 39D#B80F0801
(1786378676.124783) can0 33D#0000FFFFFFFFFFFF
(1786378676.144808) can0 39D#A9000801
(1786378676.164762) can0 39D#AA010801
(1786378676.204755) can0 39D#AB020801
(1786378676.244769) can0 33D#0000FFFFFFFFFFFF
(1786378676.245075) can0 39D#AC030801
(1786378676.284734) can0 39D#AD040801
(1786378676.324770) can0 35D#0355555555555555
(1786378676.325074) can0 32D#16000000E4ACA32F
(1786378676.325326) can0 33D#0000FFFFFFFFFFFF
(1786378676.344846) can0 39D#AE050801
(1786378676.364700) can0 39D#AF060801
(1786378676.404739) can0 39D#B0070801
(1786378676.444724) can0 33D#0000FFFFFFFFFFFF
(1786378676.445016) can0 39D#B1080801
(1786378676.484719) can0 39D#B2090801
(1786378676.524762) can0 33D#0000FFFFFFFFFFFF
(1786378676.544973) can0 39D#B30A0801
(1786378676.564761) can0 39D#B40B0801
(1786378676.604727) can0 39D#B50C0801
(1786378676.644837) can0 33D#0000FFFFFFFFFFFF
(1786378676.645240) can0 39D#B60D0801
(1786378676.684660) can0 39D#B70E0801
(1786378676.724731) can0 33D#0000FFFFFFFFFFFF
(1786378676.744834) can0 39D#B80F0801
(1786378676.764787) can0 39D#A9000801
(1786378676.804815) can0 39D#AA010801
(1786378676.844730) can0 33D#0000FFFFFFFFFFFF
(1786378676.844984) can0 39D#AB020801
(1786378676.884769) can0 39D#AC030801
(1786378676.924737) can0 33D#0000FFFFFFFFFFFF
(1786378676.944889) can0 39D#BD041801
(1786378676.964780) can0 39D#BE051801
(1786378677.004816) can0 39D#BF061801
(1786378677.044728) can0 33D#0000FFFFFFFFFFFF
(1786378677.045023) can0 39D#C0071801
(1786378677.084722) can0 39D#C1081801
(1786378677.124669) can0 33D#0000FFFFFFFFFFFF
(1786378677.144858) can0 39D#C2091801
(1786378677.164701) can0 39D#C30A1801
(1786378677.204750) can0 39D#C40B1801
(1786378677.244676) can0 33D#0000FFFFFFFFFFFF
(1786378677.244976) can0 39D#D50C2801
(1786378677.284872) can0 39D#360D8801
(1786378677.325237) can0 35D#0455555555555555
(1786378677.325540) can0 33D#0000FFFFFFFFFFFF
(1786378677.345275) can0 39D#F80E4802
(1786378677.365228) can0 39D#790FC802
(1786378677.405265) can0 39D#9B00F803
(1786378677.444906) can0 33D#0000FFFFFFFFFFFF
(1786378677.445287) can0 39D#2E018805
(1786378677.484886) can0 39D#C1021807
(1786378677.525141) can0 33D#0000FFFFFFFFFFFF
(1786378677.545248) can0 39D#13036808
(1786378677.565228) can0 39D#15046809
(1786378677.605193) can0 39D#2705780A
(1786378677.644867) can0 33D#0000FFFFFFFFFFFF
(1786378677.645233) can0 39D#6906B80B
(1786378677.685121) can0 39D#FC07480D
(1786378677.724873) can0 33D#0000FFFFFFFFFFFF
(1786378677.745327) can0 39D#DF08280F
(1786378677.764969) can0 39D#02094811
(1786378677.805222) can0 39D#350A7813
(1786378677.845218) can0 33D#0000FFFFFFFFFFFF
(1786378677.845579) can0 39D#580B9815
(1786378677.885218) can0 39D#3B0C7817
(1786378677.924978) can0 33D#0000FFFFFFFFFFFF
(1786378677.945467) can0 39D#EE0D2819
(1786378677.965176) can0 39D#600E981A
(1786378678.005221) can0 39D#E30F181C
(1786378678.045384) can0 33D#0000FFFFFFFFFFFF
(1786378678.045704) can0 39D#3500781D
(1786378678.085178) can0 39D#6701A81E
(1786378678.124875) can0 33D#0000FFFFFFFFFFFF
(1786378678.145349) can0 39D#4902881F
(1786378678.165184) can0 39D#0B034820
(1786378678.204933) can0 39D#ED042821
(1786378678.244874) can0 33D#0000FFFFFFFFFFFF
(1786378678.245295) can0 39D#FF053822
(1786378678.284891) can0 39D#01063823
(1786378678.325172) can0 35D#0555555555555555
(1786378678.325539) can0 32D#0A01000000007000
(1786378678.325793) can0 33D#0000FFFFFFFFFFFF
(1786378678.345347) can0 39D#F3072824
(1786378678.365275) can0 39D#F5082825
(1786378678.404895) can0 39D#E7091826
(1786378678.445172) can0 33D#0000FFFFFFFFFFFF
(1786378678.445491) can0 39D#B80AE826
(1786378678.484886) can0 39D#6A0B9827
(1786378678.524934) can0 33D#0000FFFFFFFFFFFF
(1786378678.545303) can0 39D#DC0C0828
(1786378678.564887) can0 39D#0D0D3828
(1786378678.605128) can0 39D#4E0E7828
(1786378678.644889) can0 33D#0000FFFFFFFFFFFF
(1786378678.645287) can0 39D#8F0FB828
(1786378678.685222) can0 39D#F1002829
(1786378678.724844) can0 33D#0000FFFFFFFFFFFF
(1786378678.745397) can0 39D#A201D829
(1786378678.764901) can0 39D#6402982A
(1786378678.805002) can0 39D#E603182B
(1786378678.844908) can0 33D#0000FFFFFFFFFFFF
(1786378678.845303) can0 39D#4704782B
(1786378678.884895) can0 39D#A805D82B
(1786378678.924847) can0 33D#0000FFFFFFFFFFFF
(1786378678.945278) can0 39D#2A06582C
(1786378678.964917) can0 39D#AB07D82C
(1786378679.005137) can0 39D#5D08882D
(1786378679.045252) can0 33D#0000FFFFFFFFFFFF
(1786378679.045598) can0 39D#0F09382E
(1786378679.085273) can0 39D#A00AC82E
(1786378679.125237) can0 33D#0000FFFFFFFFFFFF
(1786378679.145299) can0 39D#F20B182F
(1786378679.164916) can0 39D#430C682F
(1786378679.204846) can0 39D#A40DC82F
(1786378679.245215) can0 33D#0000FFFFFFFFFFFF
(1786378679.245500) can0 39D#060E2830
(1786378679.285284) can0 39D#770F9830
(1786378679.324891) can0 35D#0655556555555559
(1786378679.325183) can0 33D#0000FFFFFFFFFFFF
(1786378679.345343) can0 39D#F9002831
(1786378679.364899) can0 39D#AA01D831
(1786378679.405154) can0 39D#7A02A632
(1786378679.444879) can0 33D#0000FFFFFFFFFFFF
(1786378679.445280) can0 3AD#E700001804000010
(1786378679.455313) can0 39D#4C037633
(1786378679.484854) can0 39D#2E045634
(1786378679.525183) can0 5BD#CF40010000000000
(1786378679.544888) can0 33D#0000FFFFFFFFFFFF
(1786378679.545349) can0 39D#F0051635
(1786378679.565209) can0 39D#40066634
(1786378679.605191) can0 39D#02072635
(1786378679.644927) can0 33D#0000FFFFFFFFFFFF
(1786378679.645322) can0 39D#62088634
(1786378679.685215) can0 39D#04092635
(1786378679.725178) can0 33D#0000FFFFFFFFFFFF
(1786378679.745252) can0 39D#C40AE634
(1786378679.765326) can0 39D#350B5634
(1786378679.805218) can0 39D#E60C0634
(1786378679.844887) can0 33D#0000FFFFFFFFFFFF
(1786378679.845280) can0 39D#550D7632
(1786378679.884914) can0 39D#760E9830
(1786378679.924922) can0 33D#0000FFFFFFFFFFFF
(1786378679.945348) can0 3AD#EC00002004000010
(1786378679.955336) can0 39D#050F282E
(1786378679.964987) can0 39D#1300482B
(1786378680.004910) can0 39D#31016828
(1786378680.045196) can0 33D#0000FFFFFFFFFFFF
(1786378680.045527) can0 39D#5F029825
(1786378680.085183) can0 39D#9D03D822
(1786378680.124928) can0 33D#0000FFFFFFFFFFFF
(1786378680.145317) can0 39D#9B04D81F
(1786378680.165273) can0 39D#A905E81C
(1786378680.205184) can0 39D#B706F819
(1786378680.245183) can0 33D#0000FFFFFFFFFFFF
(1786378680.245397) can0 39D#D6071817
(1786378680.284915) can0 39D#D4081814
(1786378680.325215) can0 35D#07555595552A0000
(1786378680.325511) can0 32D#0B00020101000000
(1786378680.325793) can0 33D#0000FFFFFFFFFFFF
(1786378680.345315) can0 39D#C2090811
(1786378680.365154) can0 39D#C00A080E
(1786378680.405212) can0 39D#CE0B180B
(1786378680.444900) can0 33D#0000FFFFFFFFFFFF
(1786378680.445353) can0 39D#1C0C6808
(1786378680.484954) can0 39D#CB0D1806
(1786378680.524854) can0 33D#0000FFFFFFFFFFFF
(1786378680.545320) can0 39D#1A0E6804
(1786378680.564877) can0 39D#2A0F7803
(1786378680.604828) can0 39D#6A00C802
(1786378680.644856) can0 33D#0000FFFFFFFFFFFF
(1786378680.645244) can0 39D#EB014802
(1786378680.684843) can0 39D#1B027801
(1786378680.724865) can0 33D#0000FFFFFFFFFFFF
(1786378680.745327) can0 39D#CC032801
(1786378680.765214) can0 39D#BD041801
(1786378680.805195) can0 39D#BE051801
(1786378680.845184) can0 33D#0000FFFFFFFFFFFF
(1786378680.845487) can0 39D#AF060801
(1786378680.935991) can0 39D#B0070801
(1786378680.942063) can0 33D#0000FFFFFFFFFFFF
(1786378680.945304) can0 39D#B1080801
(1786378680.970612) can0 39D#B2090801
(1786378681.005122) can0 39D#B30A0801
(1786378681.044867) can0 33D#0000FFFFFFFFFFFF
(1786378681.045290) can0 39D#B40B0801
(1786378681.084959) can0 39D#B50C0801
(1786378681.124901) can0 33D#0000FFFFFFFFFFFF
(1786378681.145311) can0 39D#B60D0801
(1786378681.164824) can0 39D#B70E0801
(1786378681.204889) can0 39D#B80F0801
(1786378681.244864) can0 33D#0000FFFFFFFFFFFF
(1786378681.245281) can0 39D#A9000801
(1786378681.284851) can0 39D#AA010801
(1786378681.324729) can0 35D#0055555555555555
(1786378681.324979) can0 3AD#FA00002004200010
(1786378681.335227) can0 33D#0000FFFFFFFFFFFF
(1786378681.344962) can0 39D#AB020801
(1786378681.364751) can0 39D#AC030801
(1786378681.404771) can0 39D#AD040801
(1786378681.444876) can0 33D#0000FFFFFFFFFFFF
(1786378681.445266) can0 39D#AE050801
(1786378681.484820) can0 39D#AF060801
(1786378681.524769) can0 33D#0000FFFFFFFFFFFF
(1786378681.544897) can0 31D#FC00200000030005
(1786378681.554992) can0 39D#B0070801
(1786378681.564783) can0 33D#1600000055525753
(1786378681.574924) can0 34D#2A00280108263000
(1786378681.594920) can0 39D#B1080801
(1786378681.604759) can0 36D#6104000000AAC195
(1786378681.615275) can0 37D#6A0000000058D801
(1786378681.634866) can0 39D#B2090801
(1786378681.644728) can0 33D#0000FFFFFFFFFFFF
(1786378681.645039) can0 38D#00000000701D1500
(1786378681.654946) can0 39D#B30A0801
(1786378681.684804) can0 39D#B40B0801
(1786378681.724748) can0 33D#0000FFFFFFFFFFFF
(1786378681.744872) can0 39D#B50C0801
(1786378681.764911) can0 39D#B60D0801
(1786378681.804854) can0 39D#B70E0801
(1786378681.844747) can0 33D#0000FFFFFFFFFFFF
(1786378681.845030) can0 39D#B80F0801
(1786378681.884766) can0 39D#A9000801
(1786378681.924782) can0 33D#0000FFFFFFFFFFFF
(1786378681.944941) can0 39D#AA010801
(1786378681.964799) can0 39D#AB020801
(1786378682.004825) can0 39D#AC030801
(1786378682.044827) can0 33D#0000FFFFFFFFFFFF
(1786378682.045106) can0 39D#AD040801
(1786378682.084796) can0 39D#AE050801
(1786378682.124884) can0 33D#0000FFFFFFFFFFFF
(1786378682.145041) can0 39D#AF060801
(1786378682.164707) can0 39D#B0070801
(1786378682.204797) can0 39D#B1080801
(1786378682.244796) can0 33D#0000FFFFFFFFFFFF
(1786378682.245109) can0 39D#B2090801
(1786378682.284759) can0 39D#B30A0801
(1786378682.324701) can0 35D#0155555555555555
(1786378682.324953) can0 32D#0D0000008D792021
(1786378682.325232) can0 33D#0000FFFFFFFFFFFF
(1786378682.345009) can0 39D#B40B0801
(1786378682.364742) can0 39D#B50C0801
(1786378682.404874) can0 39D#B60D0801
(1786378682.444823) can0 33D#0000FFFFFFFFFFFF
(1786378682.445125) can0 39D#B70E0801
(1786378682.484813) can0 39D#B80F0801
(1786378682.524784) can0 33D#0000FFFFFFFFFFFF
(1786378682.544930) can0 39D#A9000801
(1786378682.564869) can0 39D#AA010801
(1786378682.604832) can0 39D#AB020801
(1786378682.644794) can0 33D#0000FFFFFFFFFFFF
(1786378682.645100) can0 39D#AC030801
(1786378682.684821) can0 39D#AD040801
(1786378682.724822) can0 33D#0000FFFFFFFFFFFF
(1786378682.744961) can0 39D#AE050801
(1786378682.764770) can0 39D#AF060801
(1786378682.804784) can0 39D#B0070801
(1786378682.844813) can0 33D#0000FFFFFFFFFFFF
(1786378682.845129) can0 39D#B1080801
(1786378682.884745) can0 39D#B2090801
(1786378682.924716) can0 33D#0000FFFFFFFFFFFF
(1786378682.944904) can0 39D#B30A0801
(1786378682.964821) can0 39D#B40B0801
(1786378683.004822) can0 39D#B50C0801
(1786378683.044821) can0 33D#0000FFFFFFFFFFFF
(1786378683.045122) can0 39D#B60D0801
(1786378683.084783) can0 39D#B70E0801
(1786378683.124810) can0 33D#0000FFFFFFFFFFFF
(1786378683.144947) can0 39D#C80F1801
(1786378683.164836) can0 39D#B9001801
(1786378683.204845) can0 39D#CA012801
(1786378683.244970) can0 33D#0000FFFFFFFFFFFF
(1786378683.245298) can0 39D#5B02B801
(1786378683.284888) can0 39D#AD030802
(1786378683.325201) can0 35D#0256555555555555
(1786378683.325527) can0 33D#0000FFFFFFFFFFFF
(1786378683.345385) can0 39D#FE045802
(1786378683.364881) can0 39D#5F05B802
(1786378683.404976) can0 39D#D1062803
(1786378683.444910) can0 33D#0000FFFFFFFFFFFF
(1786378683.445344) can0 39D#5207A803
(1786378683.485171) can0 39D#F4084804
(1786378683.525171) can0 33D#0000FFFFFFFFFFFF
(1786378683.545354) can0 39D#9509E804
(1786378683.564877) can0 39D#F70A4805
(1786378683.605215) can0 39D#F80B4805
(1786378683.645225) can0 33D#0000FFFFFFFFFFFF
(1786378683.645528) can0 39D#090C5805
(1786378683.684936) can0 39D#5A0DA805
(1786378683.724951) can0 33D#0000FFFFFFFFFFFF
(1786378683.745391) can0 39D#CC0E1806
(1786378683.765195) can0 39D#6D0FB806
(1786378683.805405) can0 39D#EF004807
(1786378683.845243) can0 33D#0000FFFFFFFFFFFF
(1786378683.845545) can0 39D#40019807
(1786378683.884917) can0 39D#6102B807
(1786378683.924938) can0 33D#0000FFFFFFFFFFFF
(1786378683.945345) can0 39D#8203D807
(1786378683.964996) can0 39D#9304E807
(1786378684.004916) can0 39D#C5051808
(1786378684.044911) can0 33D#0000FFFFFFFFFFFF
(1786378684.045337) can0 39D#16066808
(1786378684.084915) can0 39D#7707C808
(1786378684.124876) can0 33D#0000FFFFFFFFFFFF
(1786378684.145406) can0 39D#D9082809
(1786378684.165206) can0 39D#5A09A809
(1786378684.205323) can0 39D#CC0A180A
(1786378684.245269) can0 33D#0000FFFFFFFFFFFF
(1786378684.245604) can0 39D#6D0BB80A
(1786378684.285301) can0 39D#2F0C780B
(1786378684.324899) can0 35D#0355555555555555
(1786378684.325168) can0 32D#1405000060FCB070
(1786378684.325452) can0 33D#0000FFFFFFFFFFFF
(1786378684.345390) can0 39D#210D680C
(1786378684.364906) can0 39D#530E980D
(1786378684.405267) can0 39D#850FC80E
(1786378684.445306) can0 33D#0000FFFFFFFFFFFF
(1786378684.445673) can0 39D#B8000810
(1786378684.484962) can0 39D#EA013811
(1786378684.525214) can0 33D#0000FFFFFFFFFFFF
(1786378684.545386) can0 39D#1C026812
(1786378684.565221) can0 39D#6E03B813
(1786378684.605195) can0 39D#B004F814
(1786378684.644998) can0 33D#0000FFFFFFFFFFFF
(1786378684.645348) can0 39D#03054816
(1786378684.685308) can0 39D#35067817
(1786378684.725264) can0 33D#0000FFFFFFFFFFFF
(1786378684.745419) can0 39D#57079818
(1786378684.765581) can0 39D#59089819
(1786378684.805296) can0 39D#DB09181A
(1786378684.845284) can0 33D#0000FFFFFFFFFFFF
(1786378684.845626) can0 39D#EC0A281A
(1786378684.884994) can0 39D#ED0B281A
(1786378684.925276) can0 33D#0000FFFFFFFFFFFF
(1786378684.945341) can0 39D#EE0C281A
(1786378684.964962) can0 39D#EF0D281A
(1786378685.004924) can0 39D#100E481A
(1786378685.045019) can0 33D#0000FFFFFFFFFFFF
(1786378685.045420) can0 39D#610F981A
(1786378685.084960) can0 39D#8200C81A
(1786378685.125018) can0 33D#0000FFFFFFFFFFFF
(1786378685.145514) can0 39D#A301E81A
(1786378685.164946) can0 39D#D502181B
(1786378685.205307) can0 39D#F603381B
(1786378685.245265) can0 33D#0000FFFFFFFFFFFF
(1786378685.245565) can0 39D#0704481B
(1786378685.284932) can0 39D#3805781B
(1786378685.325282) can0 35D#0455555555555555
(1786378685.325618) can0 33D#0000FFFFFFFFFFFF
(1786378685.345355) can0 39D#6906A81B
(1786378685.365258) can0 39D#AA07E81B
(1786378685.405255) can0 39D#FC08381C
(1786378685.445021) can0 33D#0000FFFFFFFFFFFF
(1786378685.445345) can0 39D#5D09981C
(1786378685.485263) can0 39D#BE0AF81C
(1786378685.525243) can0 33D#0000FFFFFFFFFFFF
(1786378685.545447) can0 39D#200B581D
(1786378685.565221) can0 39D#910CC81D
(1786378685.604935) can0 39D#030D381E
(1786378685.645321) can0 33D#0000FFFFFFFFFFFF
(1786378685.645649) can0 39D#940EC81E
(1786378685.685316) can0 39D#460F781F
(1786378685.724867) can0 33D#0000FFFFFFFFFFFF
(1786378685.745391) can0 39D#F8003820
(1786378685.764916) can0 39D#B901F820
(1786378685.804941) can0 39D#7B02B821
(1786378685.844947) can0 33D#0000FFFFFFFFFFFF
(1786378685.845311) can0 39D#5D039822
(1786378685.885268) can0 39D#5F049823
(1786378685.925359) can0 33D#0000FFFFFFFFFFFF
(1786378685.945335) can0 39D#7105A824
(1786378685.965331) can0 39D#7306A825
(1786378686.005264) can0 39D#8507B826
(1786378686.044967) can0 33D#0000FFFFFFFFFFFF
(1786378686.045331) can0 39D#67089827
(1786378686.084922) can0 39D#49097828
(1786378686.125264) can0 33D#0000FFFFFFFFFFFF
(1786378686.145389) can0 39D#1B0A4829
(1786378686.165287) can0 39D#DD0B082A
(1786378686.205301) can0 39D#8E0CB82A
(1786378686.245053) can0 33D#0000FFFFFFFFFFFF
(1786378686.245422) can0 39D#400D682B
(1786378686.285283) can0 39D#D10EF82B
(1786378686.324969) can0 35D#0555555555555555
(1786378686.325408) can0 32D#16000000E4ACA32F
(1786378686.325808) can0 33D#0000FFFFFFFFFFFF
(1786378686.345390) can0 39D#730F982C
(1786378686.365116) can0 39D#F500282D
(1786378686.405251) can0 39D#8601B82D
(1786378686.445223) can0 33D#0000FFFFFFFFFFFF
(1786378686.445539) can0 39D#2802582E
(1786378686.485438) can0 39D#B903E82E
(1786378686.524944) can0 33D#0000FFFFFFFFFFFF
(1786378686.545278) can0 39D#4B04782F
(1786378686.565221) can0 39D#BC05E82F
(1786378686.605264) can0 39D#2E065830
(1786378686.645246) can0 33D#0000FFFFFFFFFFFF
(1786378686.645567) can0 39D#9F07C830
(1786378686.685210) can0 39D#01082831
(1786378686.724919) can0 33D#0000FFFFFFFFFFFF
(1786378686.745366) can0 39D#72099831
(1786378686.764916) can0 39D#F40A1832
(1786378686.804922) can0 3AD#3101001804200010
(1786378686.835520) can0 39D#730B9632
(1786378686.844973) can0 33D#0000FFFFFFFFFFFF
(1786378686.845417) can0 39D#F50C1633
(1786378686.885023) can0 39D#660D8633
(1786378686.925305) can0 33D#0000FFFFFFFFFFFF
(1786378686.945358) can0 39D#D70EF633
(1786378686.965258) can0 39D#590F7634
(1786378687.004930) can0 39D#AA00D634
(1786378687.045253) can0 33D#0000FFFFFFFFFFFF
(1786378687.045575) can0 39D#5B018634
(1786378687.085022) can0 39D#CC02F634
(1786378687.124986) can0 33D#0000FFFFFFFFFFFF
(1786378687.145352) can0 39D#2D035634
(1786378687.165233) can0 39D#3E046634
(1786378687.205254) can0 39D#0F053634
(1786378687.244933) can0 33D#0000FFFFFFFFFFFF
(1786378687.245405) can0 39D#F0061634
(1786378687.285298) can0 39D#F1071634
(1786378687.325004) can0 35D#0655556555555559
(1786378687.325476) can0 33D#0000FFFFFFFFFFFF
(1786378687.345349) can0 39D#E2080634
(1786378687.365120) can0 39D#E3090634
(1786378687.404962) can0 39D#D30AF633
(1786378687.444881) can0 33D#0000FFFFFFFFFFFF
(1786378687.445345) can0 39D#C40BE633
(1786378687.485020) can0 39D#950CB633
(1786378687.525051) can0 33D#0000FFFFFFFFFFFF
(1786378687.545401) can0 39D#560D7633
(1786378687.564971) can0 39D#070E2633
(1786378687.605263) can0 39D#B70FD632
(1786378687.645319) can0 33D#0000FFFFFFFFFFFF
(1786378687.645730) can0 39D#48007632
(1786378687.685271) can0 39D#D9010632
(1786378687.725292) can0 33D#0000FFFFFFFFFFFF
(1786378687.745385) can0 39D#49027631
(1786378687.765053) can0 3AD#3A01002004200010
(1786378687.795381) can0 39D#AB03D830
(1786378687.804928) can0 39D#EC041830
(1786378687.845250) can0 33D#0000FFFFFFFFFFFF
(1786378687.845586) can0 39D#1C05482F
(1786378687.885357) can0 39D#4C06782E
(1786378687.925031) can0 33D#0000FFFFFFFFFFFF
(1786378687.945357) can0 39D#8C07B82D
(1786378687.965001) can0 39D#DD08082D
(1786378688.005253) can0 39D#2D09582C
(1786378688.045026) can0 33D#0000FFFFFFFFFFFF
(1786378688.045417) can0 39D#7D0AA82B
(1786378688.084968) can0 39D#CD0BF82A
(1786378688.125050) can0 33D#0000FFFFFFFFFFFF
(1786378688.145437) can0 39D#1E0C482A
(1786378688.165135) can0 39D#8E0DB829
(1786378688.205371) can0 39D#FF0E2829
(1786378688.244987) can0 33D#0000FFFFFFFFFFFF
(1786378688.245319) can0 39D#7F0FA828
(1786378688.285237) can0 39D#F0002828
(1786378688.325101) can0 35D#07555595552A0000
(1786378688.325585) can0 32D#0A01000000007000
(1786378688.326091) can0 33D#0000FFFFFFFFFFFF
(1786378688.345338) can0 39D#60019827
(1786378688.365591) can0 39D#E1021827
(1786378688.405352) can0 39D#51038826
(1786378688.444972) can0 33D#0000FFFFFFFFFFFF
(1786378688.445385) can0 39D#C104F825
(1786378688.485036) can0 39D#32056825
(1786378688.524940) can0 33D#0000FFFFFFFFFFFF
(1786378688.545399) can0 39D#A206D824
(1786378688.565061) can0 39D#13074824
(1786378688.604991) can0 39D#8308B823
(1786378688.645038) can0 33D#0000FFFFFFFFFFFF
(1786378688.645519) can0 39D#D4090823
(1786378688.685278) can0 39D#040A3822
(1786378688.725015) can0 33D#0000FFFFFFFFFFFF
(1786378688.745443) can0 39D#140B4821
(1786378688.765573) can0 39D#140C4820
(1786378688.805276) can0 39D#F40D281F
(1786378688.844976) can0 33D#0000FFFFFFFFFFFF
(1786378688.845389) can0 39D#F40E281E
(1786378688.885057) can0 39D#540F881D
(1786378688.925298) can0 33D#0000FFFFFFFFFFFF
(1786378688.945325) can0 39D#E500281D
(1786378688.965024) can0 39D#B501F81C
(1786378689.005241) can0 39D#6602A81C
(1786378689.044942) can0 33D#0000FFFFFFFFFFFF
(1786378689.045339) can0 39D#2703681C
(1786378689.085027) can0 39D#D804181C
(1786378689.124921) can0 33D#0000FFFFFFFFFFFF
(1786378689.145375) can0 39D#8805C81B
(1786378689.164946) can0 39D#4906881B
(1786378689.205065) can0 39D#FA07381B
(1786378689.244927) can0 33D#0000FFFFFFFFFFFF
(1786378689.245413) can0 39D#AA08E81A
(1786378689.285043) can0 39D#5B09981A
(1786378689.325259) can0 35D#0055555555555555
(1786378689.325597) can0 33D#0000FFFFFFFFFFFF
(1786378689.345380) can0 39D#0C0A481A
(1786378689.365361) can0 39D#BC0BF819
(1786378689.405418) can0 39D#6D0CA819
(1786378689.445308) can0 33D#0000FFFFFFFFFFFF
(1786378689.445630) can0 39D#1E0D5819
(1786378689.484954) can0 39D#BE0EF818
(1786378689.525039) can0 33D#0000FFFFFFFFFFFF
(1786378689.545430) can0 39D#6F0FA818
(1786378689.565285) can0 39D#10005818
(1786378689.605393) can0 39D#C1010818
(1786378689.645032) can0 33D#0000FFFFFFFFFFFF
(1786378689.645418) can0 39D#7102B817
(1786378689.685101) can0 39D#32037817
(1786378689.725313) can0 33D#0000FFFFFFFFFFFF
(1786378689.745426) can0 39D#E3042817
(1786378689.765033) can0 39D#9305D816
(1786378689.805087) can0 39D#54069816
(1786378689.845320) can0 33D#0000FFFFFFFFFFFF
(1786378689.845618) can0 39D#05074816
(1786378689.885305) can0 39D#B508F815
(1786378689.925346) can0 33D#0000FFFFFFFFFFFF
(1786378689.945416) can0 39D#56099815
(1786378689.965254) can0 39D#F70A3815
(1786378690.005368) can0 39D#970BD814
(1786378690.045037) can0 33D#0000FFFFFFFFFFFF
(1786378690.045456) can0 39D#380C7814
(1786378690.085369) can0 39D#B80DF813
(1786378690.125278) can0 33D#0000FFFFFFFFFFFF
(1786378690.145422) can0 39D#390E7813
(1786378690.164945) can0 39D#990FD812
(1786378690.205004) can0 39D#DA002812
(1786378690.245125) can0 33D#0000FFFFFFFFFFFF
(1786378690.245495) can0 39D#1A016811
(1786378690.284998) can0 39D#2A027810
(1786378690.324970) can0 35D#0155555555555555
(1786378690.325376) can0 32D#0B00020101000000
(1786378690.325712) can0 33D#0000FFFFFFFFFFFF
(1786378690.345363) can0 39D#1A03680F
(1786378690.365278) can0 39D#FA04480E
(1786378690.405314) can0 39D#CA05180D
(1786378690.445023) can0 33D#0000FFFFFFFFFFFF
(1786378690.445457) can0 39D#9906E80B
(1786378690.485288) can0 39D#7907C80A
(1786378690.525029) can0 33D#0000FFFFFFFFFFFF
(1786378690.545345) can0 39D#8908D809
(1786378690.565259) can0 39D#BA090809
(1786378690.605002) can0 39D#FA0A4808
(1786378690.645260) can0 33D#0000FFFFFFFFFFFF
(1786378690.645554) can0 39D#2A0B7807
(1786378690.685053) can0 39D#7A0CC806
(1786378690.725027) can0 33D#0000FFFFFFFFFFFF
(1786378690.745405) can0 39D#EB0D3806
(1786378690.765036) can0 39D#8B0ED805
(1786378690.805258) can0 39D#3C0F8805
(1786378690.845024) can0 33D#0000FFFFFFFFFFFF
(1786378690.845502) can0 39D#CD002805
(1786378690.884978) can0 39D#5D01B804
(1786378690.924998) can0 33D#0000FFFFFFFFFFFF
(1786378690.945442) can0 39D#EE024804
(1786378690.965134) can0 39D#9E03F803
(1786378691.004971) can0 39D#5F04B803
(1786378691.045000) can0 33D#0000FFFFFFFFFFFF
(1786378691.045390) can0 39D#10056803
(1786378691.085260) can0 39D#B1060803
(1786378691.125323) can0 33D#0000FFFFFFFFFFFF
(1786378691.145376) can0 39D#31078802
(1786378691.165412) can0 39D#A108F801
(1786378691.204933) can0 39D#22097801
(1786378691.244973) can0 33D#0000FFFFFFFFFFFF
(1786378691.245405) can0 39D#D30A2801
(1786378691.284997) can0 39D#C40B1801
(1786378691.325264) can0 35D#0256555555555555
(1786378691.325749) can0 33D#0000FFFFFFFFFFFF
(1786378691.345421) can0 39D#C50C1801
(1786378691.364981) can0 39D#C60D1801
(1786378691.405086) can0 39D#C70E1801
(1786378691.445037) can0 33D#0000FFFFFFFFFFFF
(1786378691.445465) can0 39D#C80F1801
(1786378691.485044) can0 39D#B9001801
(1786378691.524940) can0 33D#0000FFFFFFFFFFFF
(1786378691.545448) can0 39D#BA011801
(1786378691.565165) can0 39D#BB021801
(1786378691.604989) can0 39D#BC031801
(1786378691.645002) can0 33D#0000FFFFFFFFFFFF
(1786378691.645351) can0 39D#AD040801
(1786378691.684937) can0 3AD#61010020041F0010
(1786378691.695331) can0 39D#AE050801
(1786378691.724941) can0 33D#0000FFFFFFFFFFFF
(1786378691.744922) can0 39D#AF060801
(1786378691.764911) can0 39D#B0070801
(1786378691.805018) can0 39D#B1080801
(1786378691.844892) can0 33D#0000FFFFFFFFFFFF
(1786378691.845313) can0 39D#B2090801
(1786378691.884913) can0 39D#B30A0801
(1786378691.925075) can0 33D#0000FFFFFFFFFFFF
(1786378691.945074) can0 39D#B40B0801
(1786378691.964839) can0 39D#B50C0801
(1786378692.004909) can0 39D#B60D0801
(1786378692.044820) can0 33D#0000FFFFFFFFFFFF
(1786378692.045155) can0 31D#6501400000020105
(1786378692.075296) can0 39D#B70E0801
(1786378692.084951) can0 33D#1600000058535A55
(1786378692.094999) can0 34D#0000280313260000
(1786378692.115025) can0 39D#B80F0801
(1786378692.124932) can0 36D#210A0000002AD685
(1786378692.135011) can0 33D#0000FFFFFFFFFFFF
(1786378692.145056) can0 37D#DD00000000585701
(1786378692.155076) can0 39D#A9000801
(1786378692.164886) can0 38D#0000000070911400
(1786378692.174966) can0 39D#AA010801
(1786378692.205050) can0 39D#AB020801
(1786378692.244897) can0 33D#0000FFFFFFFFFFFF
(1786378692.245204) can0 39D#AC030801
(1786378692.284994) can0 39D#AD040801
(1786378692.324816) can0 35D#0355555555555555
(1786378692.325181) can0 32D#0D0000008D792021
(1786378692.325501) can0 33D#0000FFFFFFFFFFFF
(1786378692.344943) can0 39D#AE050801
(1786378692.364920) can0 39D#AF060801
(1786378692.404965) can0 39D#B0070801
(1786378692.444930) can0 33D#0000FFFFFFFFFFFF
(1786378692.445286) can0 39D#B1080801
(1786378692.484869) can0 39D#B2090801
(1786378692.524882) can0 33D#0000FFFFFFFFFFFF
(1786378692.545020) can0 39D#B30A0801
(1786378692.565053) can0 39D#B40B0801
(1786378692.604878) can0 39D#B50C0801
(1786378692.644907) can0 33D#0000FFFFFFFFFFFF
(1786378692.645271) can0 39D#B60D0801
(1786378692.684900) can0 39D#B70E0801
(1786378692.724917) can0 33D#0000FFFFFFFFFFFF
(1786378692.744961) can0 39D#B80F0801
(1786378692.764917) can0 39D#A9000801
(1786378692.804854) can0 39D#AA010801
(1786378692.844861) can0 33D#0000FFFFFFFFFFFF
(1786378692.845231) can0 39D#AB020801
(1786378692.884871) can0 39D#AC030801
(1786378692.924778) can0 33D#0000FFFFFFFFFFFF
(1786378692.944985) can0 39D#AD040801
(1786378692.964824) can0 39D#AE050801
(1786378693.004914) can0 39D#AF060801
(1786378693.044985) can0 33D#0000FFFFFFFFFFFF
(1786378693.045323) can0 39D#B0070801
(1786378693.084812) can0 39D#B1080801
(1786378693.124960) can0 33D#0000FFFFFFFFFFFF
(1786378693.145033) can0 39D#B2090801
(1786378693.164840) can0 39D#B30A0801
(1786378693.204865) can0 39D#B40B0801
(1786378693.244946) can0 33D#0000FFFFFFFFFFFF
(1786378693.245348) can0 39D#B50C0801
(1786378693.284888) can0 39D#B60D0801
(1786378693.324799) can0 35D#0455555555555555
(1786378693.325098) can0 33D#0000FFFFFFFFFFFF
(1786378693.344925) can0 39D#B70E0801
(1786378693.364902) can0 39D#B80F0801
(1786378693.404861) can0 39D#A9000801
(1786378693.444883) can0 33D#0000FFFFFFFFFFFF
(1786378693.445124) can0 39D#AA010801
(1786378693.484951) can0 39D#AB020801
(1786378693.524991) can0 33D#0000FFFFFFFFFFFF
(1786378693.544942) can0 39D#AC030801
(1786378693.564920) can0 39D#AD040801
(1786378693.604917) can0 39D#AE050801
(1786378693.644885) can0 33D#0000FFFFFFFFFFFF
(1786378693.645243) can0 39D#AF060801
(1786378693.684880) can0 39D#B0070801
(1786378693.724897) can0 33D#0000FFFFFFFFFFFF
(1786378693.745076) can0 39D#B1080801
(1786378693.764909) can0 39D#B2090801
(1786378693.804961) can0 39D#B30A0801
(1786378693.845001) can0 33D#0000FFFFFFFFFFFF
(1786378693.845476) can0 39D#B40B0801
(1786378693.884869) can0 39D#B50C0801
(1786378693.925010) can0 33D#0000FFFFFFFFFFFF
(1786378693.944979) can0 39D#B60D0801
(1786378693.964914) can0 39D#B70E0801
(1786378694.005124) can0 39D#B80F0801
(1786378694.044991) can0 33D#0000FFFFFFFFFFFF
(1786378694.045304) can0 39D#A9000801
(1786378694.084969) can0 39D#AA010801
(1786378694.124884) can0 33D#0000FFFFFFFFFFFF
(1786378694.144964) can0 39D#AB020801
(1786378694.164961) can0 39D#AC030801
(1786378694.204930) can0 39D#AD040801
(1786378694.244902) can0 33D#0000FFFFFFFFFFFF
(1786378694.245345) can0 39D#AE050801
(1786378694.284946) can0 39D#AF060801
(1786378694.325032) can0 35D#0555555555555555
(1786378694.325432) can0 32D#1405000060FCB070
(1786378694.325864) can0 33D#0000FFFFFFFFFFFF
(1786378694.345056) can0 39D#B0070801
(1786378694.364886) can0 39D#B1080801
(1786378694.404889) can0 39D#B2090801
(1786378694.444965) can0 33D#0000FFFFFFFFFFFF
(1786378694.445401) can0 39D#B30A0801
(1786378694.484913) can0 39D#B40B0801
(1786378694.524943) can0 33D#0000FFFFFFFFFFFF
(1786378694.544961) can0 39D#B50C0801
(1786378694.564953) can0 39D#B60D0801
(1786378694.604926) can0 39D#B70E0801
(1786378694.644926) can0 33D#0000FFFFFFFFFFFF
(1786378694.645277) can0 39D#B80F0801
(1786378694.684859) can0 39D#A9000801
(1786378694.724933) can0 33D#0000FFFFFFFFFFFF
(1786378694.744965) can0 39D#AA010801
(1786378694.764934) can0 39D#AB020801
(1786378694.804850) can0 39D#AC030801
(1786378694.844913) can0 33D#0000FFFFFFFFFFFF
(1786378694.845262) can0 39D#AD040801
(1786378694.884855) can0 39D#AE050801
(1786378694.924889) can0 33D#0000FFFFFFFFFFFF
(1786378694.945035) can0 39D#AF060801
(1786378694.964814) can0 39D#B0070801
(1786378695.004910) can0 39D#B1080801
(1786378695.044934) can0 33D#0000FFFFFFFFFFFF
(1786378695.045270) can0 39D#B2090801
(1786378695.084885) can0 39D#B30A0801
(1786378695.124865) can0 33D#0000FFFFFFFFFFFF
(1786378695.145031) can0 39D#B40B0801
(1786378695.164852) can0 39D#B50C0801
(1786378695.204850) can0 39D#B60D0801
(1786378695.244929) can0 33D#0000FFFFFFFFFFFF
(1786378695.245317) can0 39D#B70E0801
(1786378695.284901) can0 39D#B80F0801
(1786378695.324794) can0 35D#0655556555555559
(1786378695.325128) can0 33D#0000FFFFFFFFFFFF
(1786378695.345025) can0 39D#A9000801
(1786378695.364866) can0 39D#AA010801
(1786378695.404782) can0 39D#AB020801
(1786378695.444851) can0 33D#0000FFFFFFFFFFFF
(1786378695.445155) can0 39D#AC030801
(1786378695.484820) can0 39D#AD040801
(1786378695.524816) can0 33D#0000FFFFFFFFFFFF
(1786378695.544988) can0 39D#AE050801
(1786378695.564893) can0 39D#AF060801
(1786378695.604819) can0 39D#B0070801
(1786378695.644863) can0 33D#0000FFFFFFFFFFFF
(1786378695.645142) can0 39D#B1080801
(1786378695.684862) can0 39D#B2090801
(1786378695.724928) can0 33D#0000FFFFFFFFFFFF
(1786378695.744976) can0 39D#B30A0801
(1786378695.764892) can0 39D#B40B0801
(1786378695.804903) can0 39D#B50C0801
(1786378695.844887) can0 33D#0000FFFFFFFFFFFF
(1786378695.845203) can0 39D#B60D0801
(1786378695.884898) can0 39D#B70E0801
(1786378695.924808) can0 33D#0000FFFFFFFFFFFF
(1786378695.945078) can0 39D#B80F0801
(1786378695.964873) can0 39D#A9000801
(1786378696.004878) can0 39D#AA010801
(1786378696.044885) can0 33D#0000FFFFFFFFFFFF
(1786378696.045213) can0 39D#AB020801
(1786378696.084916) can0 39D#AC030801
(1786378696.124936) can0 33D#0000FFFFFFFFFFFF
(1786378696.145069) can0 39D#AD040801
(1786378696.164876) can0 39D#AE050801
(1786378696.204889) can0 39D#AF060801
(1786378696.244929) can0 33D#0000FFFFFFFFFFFF
(1786378696.245293) can0 39D#B0070801
(1786378696.285026) can0 39D#B1080801
(1786378696.324944) can0 35D#07555595552A0000
(1786378696.325349) can0 32D#16000000E4ACA32F
(1786378696.325712) can0 33D#0000FFFFFFFFFFFF
(1786378696.344938) can0 39D#B2090801
(1786378696.364815) can0 39D#B30A0801
(1786378696.404857) can0 39D#B40B0801
(1786378696.444975) can0 33D#0000FFFFFFFFFFFF
(1786378696.445334) can0 39D#B50C0801
(1786378696.484971) can0 39D#B60D0801
(1786378696.524793) can0 33D#0000FFFFFFFFFFFF
(1786378696.545045) can0 39D#B70E0801
(1786378696.564828) can0 39D#B80F0801
(1786378696.604917) can0 39D#A9000801
(1786378696.644878) can0 33D#0000FFFFFFFFFFFF
(1786378696.645243) can0 39D#AA010801
(1786378696.684895) can0 39D#AB020801
(1786378696.724875) can0 33D#0000FFFFFFFFFFFF
(1786378696.745064) can0 39D#AC030801
(1786378696.764891) can0 39D#AD040801
(1786378696.804935) can0 39D#AE050801
(1786378696.844889) can0 33D#0000FFFFFFFFFFFF
(1786378696.845194) can0 39D#AF060801
(1786378696.885017) can0 39D#B0070801
(1786378696.924909) can0 33D#0000FFFFFFFFFFFF
(1786378696.945101) can0 39D#B1080801
(1786378696.964973) can0 39D#B2090801
(1786378697.004870) can0 39D#B30A0801
(1786378697.044869) can0 33D#0000FFFFFFFFFFFF
(1786378697.045222) can0 39D#B40B0801
(1786378697.084941) can0 39D#B50C0801
(1786378697.124801) can0 33D#0000FFFFFFFFFFFF
(1786378697.145032) can0 39D#B60D0801
(1786378697.164887) can0 39D#B70E0801
(1786378697.204834) can0 39D#B80F0801
(1786378697.244979) can0 33D#0000FFFFFFFFFFFF
(1786378697.245413) can0 39D#A9000801
(1786378697.284927) can0 39D#AA010801
(1786378697.324841) can0 35D#0055555555555555
(1786378697.325249) can0 33D#0000FFFFFFFFFFFF
(1786378697.345115) can0 39D#AB020801
(1786378697.364924) can0 39D#AC030801
(1786378697.404878) can0 39D#AD040801
(1786378697.444882) can0 33D#0000FFFFFFFFFFFF
(1786378697.445200) can0 39D#AE050801
(1786378697.484868) can0 39D#AF060801
(1786378697.524845) can0 33D#0000FFFFFFFFFFFF
(1786378697.545082) can0 39D#B0070801
(1786378697.564902) can0 39D#B1080801
(1786378697.604936) can0 39D#B2090801
(1786378697.645060) can0 33D#0000FFFFFFFFFFFF
(1786378697.645448) can0 39D#B30A0801
(1786378697.684917) can0 39D#B40B0801
(1786378697.724863) can0 33D#0000FFFFFFFFFFFF
(1786378697.745058) can0 39D#B50C0801
(1786378697.764889) can0 39D#B60D0801
(1786378697.804898) can0 39D#B70E0801
(1786378697.844982) can0 33D#0000FFFFFFFFFFFF
(1786378697.845397) can0 39D#B80F0801
(1786378697.884853) can0 39D#A9000801
(1786378697.924873) can0 33D#0000FFFFFFFFFFFF
(1786378697.945100) can0 39D#AA010801
(1786378697.964890) can0 39D#AB020801
(1786378698.004867) can0 39D#AC030801
(1786378698.044962) can0 33D#0000FFFFFFFFFFFF
(1786378698.045372) can0 39D#AD040801
(1786378698.084875) can0 39D#AE050801
(1786378698.124865) can0 33D#0000FFFFFFFFFFFF
(1786378698.145092) can0 39D#AF060801
(1786378698.164880) can0 39D#B0070801
(1786378698.204907) can0 39D#B1080801
(1786378698.244860) can0 33D#0000FFFFFFFFFFFF
(1786378698.245162) can0 39D#B2090801
(1786378698.284927) can0 39D#B30A0801
(1786378698.324870) can0 35D#0155555555555555
(1786378698.325192) can0 32D#0A01000000007000
(1786378698.325492) can0 33D#0000FFFFFFFFFFFF
(1786378698.345109) can0 39D#B40B0801
(1786378698.364874) can0 39D#B50C0801
(1786378698.404874) can0 39D#B60D0801
(1786378698.444874) can0 33D#0000FFFFFFFFFFFF
(1786378698.445214) can0 39D#B70E0801
(1786378698.484904) can0 39D#B80F0801
(1786378698.524896) can0 33D#0000FFFFFFFFFFFF
(1786378698.545065) can0 39D#A9000801
(1786378698.564889) can0 39D#AA010801
(1786378698.604919) can0 39D#AB020801
(1786378698.644855) can0 33D#0000FFFFFFFFFFFF
(1786378698.645147) can0 39D#AC030801
(1786378698.684900) can0 39D#AD040801
(1786378698.724911) can0 33D#0000FFFFFFFFFFFF
(1786378698.744938) can0 39D#AE050801
(1786378698.764799) can0 39D#AF060801
(1786378698.804859) can0 39D#B0070801
(1786378698.844805) can0 33D#0000FFFFFFFFFFFF
(1786378698.845059) can0 39D#B1080801
(1786378698.884810) can0 39D#B2090801
(1786378698.924778) can0 33D#0000FFFFFFFFFFFF
(1786378698.944938) can0 39D#B30A0801
(1786378698.964905) can0 39D#B40B0801
(1786378699.004946) can0 39D#B50C0801
(1786378699.044782) can0 33D#0000FFFFFFFFFFFF
(1786378699.045023) can0 39D#B60D0801
(1786378699.084862) can0 39D#B70E0801
(1786378699.124850) can0 33D#0000FFFFFFFFFFFF
(1786378699.144942) can0 39D#B80F0801
(1786378699.164867) can0 39D#A9000801
(1786378699.204845) can0 39D#AA010801
(1786378699.244853) can0 33D#0000FFFFFFFFFFFF
(1786378699.245091) can0 39D#AB020801
(1786378699.284855) can0 39D#AC030801
(1786378699.324864) can0 35D#0256555555555555
(1786378699.325102) can0 33D#0000FFFFFFFFFFFF
(1786378699.344975) can0 39D#AD040801
(1786378699.364875) can0 39D#AE050801
(1786378699.404830) can0 39D#AF060801
(1786378699.444838) can0 33D#0000FFFFFFFFFFFF
(1786378699.445082) can0 39D#B0070801
(1786378699.484806) can0 39D#B1080801
(1786378699.524864) can0 33D#0000FFFFFFFFFFFF
(1786378699.545034) can0 39D#B2090801
(1786378699.564818) can0 39D#B30A0801
(1786378699.604865) can0 39D#B40B0801
(1786378699.644873) can0 33D#0000FFFFFFFFFFFF
(1786378699.645116) can0 39D#B50C0801
(1786378699.684885) can0 39D#B60D0801
(1786378699.724847) can0 33D#0000FFFFFFFFFFFF
(1786378699.744961) can0 39D#B70E0801
(1786378699.764882) can0 39D#B80F0801
(1786378699.804869) can0 39D#A9000801
(1786378699.844818) can0 33D#0000FFFFFFFFFFFF
(1786378699.845066) can0 39D#AA010801
(1786378699.884870) can0 39D#AB020801
(1786378699.924905) can0 33D#0000FFFFFFFFFFFF
(1786378699.944994) can0 39D#AC030801
(1786378699.964857) can0 39D#AD040801
(1786378700.004862) can0 39D#AE050801
(1786378700.044862) can0 33D#0000FFFFFFFFFFFF
(1786378700.045121) can0 39D#AF060801
(1786378700.084860) can0 39D#B0070801
(1786378700.124808) can0 33D#0000FFFFFFFFFFFF
(1786378700.145039) can0 39D#B1080801
(1786378700.164853) can0 39D#B2090801
(1786378700.204870) can0 39D#B30A0801
(1786378700.244855) can0 33D#0000FFFFFFFFFFFF
(1786378700.245112) can0 39D#B40B0801
(1786378700.284882) can0 39D#B50C0801
(1786378700.324859) can0 35D#0355555555555555
(1786378700.325062) can0 32D#0B00020101000000
(1786378700.325285) can0 33D#0000FFFFFFFFFFFF
(1786378700.344956) can0 39D#B60D0801
(1786378700.364879) can0 39D#B70E0801
(1786378700.404943) can0 39D#B80F0801
(1786378700.444922) can0 33D#0000FFFFFFFFFFFF
(1786378700.445194) can0 39D#A9000801
(1786378700.484835) can0 39D#AA010801
(1786378700.524866) can0 33D#0000FFFFFFFFFFFF
(1786378700.544983) can0 39D#AB020801
(1786378700.564789) can0 39D#AC030801
(1786378700.604847) can0 39D#AD040801
(1786378700.644858) can0 33D#0000FFFFFFFFFFFF
(1786378700.645130) can0 39D#AE050801
(1786378700.684847) can0 39D#AF060801
(1786378700.724845) can0 33D#0000FFFFFFFFFFFF
(1786378700.745009) can0 39D#B0070801
(1786378700.764816) can0 39D#B1080801
(1786378700.804897) can0 39D#B2090801
(1786378700.844852) can0 33D#0000FFFFFFFFFFFF
(1786378700.845214) can0 39D#B30A0801
(1786378700.884848) can0 39D#B40B0801
(1786378700.924825) can0 33D#0000FFFFFFFFFFFF
(1786378700.944961) can0 39D#B50C0801
(1786378700.964876) can0 39D#B60D0801
(1786378701.004899) can0 39D#B70E0801
(1786378701.044871) can0 33D#0000FFFFFFFFFFFF
(1786378701.045209) can0 39D#B80F0801
(1786378701.084848) can0 39D#A9000801
(1786378701.124815) can0 33D#0000FFFFFFFFFFFF
(1786378701.144989) can0 39D#AA010801
(1786378701.164848) can0 39D#AB020801
(1786378701.204825) can0 39D#AC030801
(1786378701.244805) can0 33D#0000FFFFFFFFFFFF
(1786378701.245069) can0 39D#AD040801
(1786378701.284896) can0 39D#AE050801
(1786378701.324878) can0 35D#0455555555555555
(1786378701.325156) can0 33D#0000FFFFFFFFFFFF
(1786378701.345026) can0 39D#AF060801
(1786378701.364906) can0 39D#B0070801
(1786378701.404966) can0 39D#B1080801
(1786378701.444926) can0 33D#0000FFFFFFFFFFFF
(1786378701.445303) can0 39D#B2090801
(1786378701.484937) can0 39D#B30A0801
(1786378701.524836) can0 33D#0000FFFFFFFFFFFF
(1786378701.544987) can0 39D#B40B0801
(1786378701.564836) can0 39D#B50C0801
(1786378701.604943) can0 39D#B60D0801
(1786378701.644888) can0 33D#0000FFFFFFFFFFFF
(1786378701.645308) can0 39D#B70E0801
(1786378701.684830) can0 39D#B80F0801
(1786378701.724872) can0 33D#0000FFFFFFFFFFFF
(1786378701.744989) can0 39D#A9000801
(1786378701.764860) can0 39D#AA010801
(1786378701.804854) can0 39D#AB020801
(1786378701.844876) can0 33D#0000FFFFFFFFFFFF
(1786378701.845174) can0 39D#AC030801
(1786378701.884915) can0 39D#AD040801
(1786378701.924909) can0 33D#0000FFFFFFFFFFFF
(1786378701.944964) can0 39D#AE050801
(1786378701.964909) can0 39D#AF060801
(1786378702.004857) can0 39D#B0070801
(1786378702.044882) can0 33D#0000FFFFFFFFFFFF
(1786378702.045116) can0 39D#B1080801
(1786378702.084883) can0 39D#B2090801
(1786378702.124882) can0 33D#0000FFFFFFFFFFFF
(1786378702.145008) can0 39D#B30A0801
(1786378702.164865) can0 39D#B40B0801
(1786378702.204842) can0 39D#B50C0801
(1786378702.244861) can0 33D#0000FFFFFFFFFFFF
(1786378702.245122) can0 39D#B60D0801
(1786378702.284811) can0 39D#B70E0801
(1786378702.324873) can0 35D#0555555555555555
(1786378702.325149) can0 32D#0D0000008D792021
(1786378702.325396) can0 33D#0000FFFFFFFFFFFF
(1786378702.345032) can0 39D#B80F0801
(1786378702.364865) can0 39D#A9000801
(1786378702.404883) can0 39D#AA010801
(1786378702.444916) can0 33D#0000FFFFFFFFFFFF
(1786378702.445235) can0 39D#AB020801
(1786378702.484823) can0 39D#AC030801
(1786378702.524949) can0 33D#0000FFFFFFFFFFFF
(1786378702.545042) can0 39D#AD040801
(1786378702.564881) can0 39D#AE050801
(1786378702.604887) can0 39D#AF060801
(1786378702.644889) can0 33D#0000FFFFFFFFFFFF
(1786378702.645152) can0 39D#B0070801
(1786378702.684882) can0 39D#B1080801
(1786378702.724834) can0 33D#0000FFFFFFFFFFFF
(1786378702.745022) can0 39D#B2090801
(1786378702.764888) can0 39D#B30A0801
(1786378702.804870) can0 39D#B40B0801
(1786378702.844870) can0 33D#0000FFFFFFFFFFFF
(1786378702.845109) can0 39D#B50C0801
(1786378702.884850) can0 39D#B60D0801
(1786378702.924818) can0 33D#0000FFFFFFFFFFFF
(1786378702.944988) can0 39D#B70E0801
(1786378702.964901) can0 39D#B80F0801
(1786378703.004871) can0 39D#A9000801
(1786378703.044817) can0 33D#0000FFFFFFFFFFFF
(1786378703.045071) can0 39D#AA010801
(1786378703.084935) can0 39D#AB020801
(1786378703.124866) can0 33D#0000FFFFFFFFFFFF
(1786378703.144941) can0 39D#AC030801
(1786378703.164887) can0 39D#AD040801
(1786378703.204923) can0 39D#AE050801
(1786378703.244832) can0 33D#0000FFFFFFFFFFFF
(1786378703.245186) can0 39D#AF060801
(1786378703.284840) can0 39D#B0070801
(1786378703.324874) can0 35D#0655556555555559
(1786378703.325100) can0 33D#0000FFFFFFFFFFFF
(1786378703.344948) can0 39D#B1080801
(1786378703.364894) can0 39D#B2090801
(1786378703.404869) can0 39D#B30A0801
(1786378703.444885) can0 33D#0000FFFFFFFFFFFF
(1786378703.445266) can0 39D#B40B0801
(1786378703.484893) can0 39D#B50C0801
(1786378703.524835) can0 33D#0000FFFFFFFFFFFF
(1786378703.545017) can0 39D#B60D0801
(1786378703.564799) can0 39D#B70E0801
(1786378703.604922) can0 39D#B80F0801
(1786378703.644888) can0 33D#0000FFFFFFFFFFFF
(1786378703.645139) can0 39D#A9000801
(1786378703.684917) can0 39D#AA010801
(1786378703.724860) can0 33D#0000FFFFFFFFFFFF
(1786378703.745004) can0 39D#AB020801
(1786378703.764878) can0 39D#AC030801
(1786378703.804902) can0 39D#AD040801
(1786378703.844944) can0 33D#0000FFFFFFFFFFFF
(1786378703.845306) can0 39D#AE050801
(1786378703.884863) can0 39D#AF060801
(1786378703.924814) can0 33D#0000FFFFFFFFFFFF
(1786378703.945030) can0 39D#B0070801
(1786378703.964858) can0 39D#B1080801
(1786378704.004867) can0 39D#B2090801
(1786378704.044839) can0 33D#0000FFFFFFFFFFFF
(1786378704.045072) can0 39D#B30A0801
(1786378704.084906) can0 39D#B40B0801
(1786378704.124879) can0 33D#0000FFFFFFFFFFFF
(1786378704.144964) can0 39D#B50C0801
(1786378704.164913) can0 39D#B60D0801
(1786378704.204814) can0 39D#B70E0801
(1786378704.244923) can0 33D#0000FFFFFFFFFFFF
(1786378704.245375) can0 39D#B80F0801
(1786378704.284875) can0 39D#A9000801
(1786378704.324824) can0 35D#07555595552A0000
(1786378704.325058) can0 32D#1405000060FCB070
(1786378704.325278) can0 33D#0000FFFFFFFFFFFF
(1786378704.345053) can0 39D#AA010801
(1786378704.364876) can0 39D#AB020801
(1786378704.404965) can0 39D#AC030801
(1786378704.444865) can0 33D#0000FFFFFFFFFFFF
(1786378704.445112) can0 39D#AD040801
(1786378704.484980) can0 39D#AE050801
(1786378704.524833) can0 33D#0000FFFFFFFFFFFF
(1786378704.545057) can0 39D#AF060801
(1786378704.564876) can0 39D#B0070801
(1786378704.604931) can0 39D#B1080801
(1786378704.644848) can0 33D#0000FFFFFFFFFFFF
(1786378704.645103) can0 39D#B2090801
(1786378704.684835) can0 39D#B30A0801
(1786378704.724877) can0 33D#0000FFFFFFFFFFFF
(1786378704.745099) can0 39D#B40B0801
(1786378704.764895) can0 39D#B50C0801
(1786378704.804952) can0 39D#B60D0801
(1786378704.844935) can0 33D#0000FFFFFFFFFFFF
(1786378704.845356) can0 39D#B70E0801
(1786378704.884916) can0 39D#B80F0801
(1786378704.924969) can0 33D#0000FFFFFFFFFFFF
(1786378704.945058) can0 39D#A9000801
(1786378704.964869) can0 39D#AA010801
(1786378705.004887) can0 39D#AB020801
(1786378705.044887) can0 33D#0000FFFFFFFFFFFF
(1786378705.045228) can0 39D#AC030801
(1786378705.084922) can0 39D#AD040801
(1786378705.124860) can0 33D#0000FFFFFFFFFFFF
(1786378705.145105) can0 39D#AE050801
(1786378705.164933) can0 39D#AF060801
(1786378705.204919) can0 39D#B0070801
(1786378705.244915) can0 33D#0000FFFFFFFFFFFF
(1786378705.245270) can0 39D#B1080801
(1786378705.284824) can0 39D#B2090801
(1786378705.324878) can0 35D#0055555555555555
(1786378705.325113) can0 33D#0000FFFFFFFFFFFF
(1786378705.345115) can0 39D#B30A0801
(1786378705.364932) can0 39D#B40B0801
(1786378705.404914) can0 39D#B50C0801
(1786378705.444869) can0 33D#0000FFFFFFFFFFFF
(1786378705.445110) can0 39D#B60D0801
(1786378705.484887) can0 39D#B70E0801
(1786378705.524911) can0 33D#0000FFFFFFFFFFFF
(1786378705.545030) can0 39D#B80F0801
(1786378705.564921) can0 39D#A9000801
(1786378705.604891) can0 39D#AA010801
(1786378705.644861) can0 33D#0000FFFFFFFFFFFF
(1786378705.645147) can0 39D#AB020801
(1786378705.684922) can0 39D#AC030801
(1786378705.724809) can0 33D#0000FFFFFFFFFFFF
(1786378705.745063) can0 39D#AD040801
(1786378705.764880) can0 39D#AE050801
(1786378705.804985) can0 39D#AF060801
(1786378705.844894) can0 33D#0000FFFFFFFFFFFF
(1786378705.845176) can0 39D#B0070801
(1786378705.884894) can0 39D#B1080801
(1786378705.924806) can0 33D#0000FFFFFFFFFFFF
(1786378705.945064) can0 39D#B2090801
