(1786376126.496498) can0 38E#F822004011000000
(1786376126.571860) can0 38F#5629E25302000000
(1786376126.572179) can0 38E#A523004011000000
(1786376126.581793) can0 38E#2B24004011000000
(1786376126.591699) can0 38F#B12AE25302000000
(1786376126.592010) can0 38E#7625004011000000
(1786376126.601926) can0 38E#9126004011000000
(1786376126.611896) can0 38F#EC2BE25302000000
(1786376126.612237) can0 38E#CC27004011000000
(1786376126.621826) can0 38E#9028004011000000
(1786376126.631956) can0 38F#622CE25302000000
(1786376126.632647) can0 38E#CD29004011000000
(1786376126.641825) can0 38E#2A2A004011000000
(1786376126.651883) can0 38F#3F2DE25302000000
(1786376126.652262) can0 38E#772B004011000000
(1786376126.661825) can0 38E#F92C004011000000
(1786376126.671825) can0 38F#D82EE25302000000
(1786376126.672236) can0 38E#A42D004011000000
(1786376126.681782) can0 38E#432E004011000000
(1786376126.691831) can0 38F#852FE25302000000
(1786376126.692112) can0 38E#1E2F004011000000
(1786376126.701783) can0 38E#4220004011000000
(1786376126.711758) can0 38F#D920E25302000000
(1786376126.712090) can0 38E#1F21004011000000
(1786376126.721871) can0 38E#F822004011000000
(1786376126.731815) can0 38F#8421E25302000000
(1786376126.732143) can0 38E#A523004011000000
(1786376126.741863) can0 38E#2B24004011000000
(1786376126.751755) can0 38F#6322E25302000000
(1786376126.752135) can0 38E#7625004011000000
(1786376126.761849) can0 38E#9126004011000000
(1786376126.771849) can0 38F#3E23E25302000000
(1786376126.772123) can0 38E#CC27004011000000
(1786376126.781734) can0 38E#9028004011000000
(1786376126.791767) can0 38F#B024E25302000000
(1786376126.792011) can0 38E#CD29004011000000
(1786376126.801765) can0 38E#2A2A004011000000
(1786376126.811781) can0 38F#ED25E25302000000
(1786376126.812057) can0 38E#772B004011000000
(1786376126.821762) can0 38E#F92C004011000000
(1786376126.831709) can0 38F#0A26E25302000000
(1786376126.832054) can0 38E#A42D004011000000
(1786376126.841814) can0 38E#432E004011000000
(1786376126.851406) can0 38F#5727E25302000000
(1786376126.851706) can0 38E#1E2F004011000000
(1786376126.861726) can0 38E#4220004011000000
(1786376126.871778) can0 38F#0B28E25302000000
(1786376126.872065) can0 38E#1F21004011000000
(1786376126.881733) can0 38E#F822004011000000
(1786376126.891746) can0 38F#5629E25302000000
(1786376126.892085) can0 38E#A523004011000000
(1786376126.901778) can0 38E#2B24004011000000
(1786376126.911798) can0 38F#B12AE25302000000
(1786376126.912096) can0 38E#7625004011000000
(1786376126.921722) can0 38E#9126004011000000
(1786376126.931701) can0 38F#EC2BE25302000000
(1786376126.931927) can0 38E#CC27004011000000
(1786376126.941726) can0 38E#9028004011000000
(1786376126.951729) can0 38F#622CE25302000000
(1786376126.951998) can0 38E#CD29004011000000
(1786376126.961712) can0 38E#2A2A004011000000
(1786376126.971735) can0 38F#3F2DE25302000000
(1786376126.971982) can0 38E#772B004011000000
(1786376126.981701) can0 38E#F92C004011000000
(1786376126.991838) can0 38F#D82EE25302000000
(1786376126.992074) can0 38E#A42D004011000000
(1786376127.001817) can0 38E#432E004011000000
(1786376127.011726) can0 38F#852FE25302000000
(1786376127.012023) can0 38E#1E2F004011000000
(1786376127.021779) can0 38E#4220004011000000
(1786376127.031710) can0 38F#D920E25302000000
(1786376127.031977) can0 38E#1F21004011000000
(1786376127.041796) can0 38E#F822004011000000
(1786376127.051761) can0 38F#8421E25302000000
(1786376127.052033) can0 38E#A523004011000000
(1786376127.061704) can0 38E#2B24004011000000
(1786376127.071749) can0 38F#6322E25302000000
(1786376127.072002) can0 38E#7625004011000000
(1786376127.081778) can0 38E#9126004011000000
(1786376127.091820) can0 38F#3E23E25302000000
(1786376127.092169) can0 38E#CC27004011000000
(1786376127.101800) can0 38E#9028004011000000
(1786376127.111765) can0 38F#B024E25302000000
(1786376127.112095) can0 38E#CD29004011000000
(1786376127.121867) can0 38E#2A2A004011000000
(1786376127.131837) can0 38F#ED25E25302000000
(1786376127.132239) can0 38E#772B004011000000
(1786376127.141805) can0 38E#F92C004011000000
(1786376127.151831) can0 38F#0A26E25302000000
(1786376127.152137) can0 38E#A42D004011000000
(1786376127.161854) can0 38E#432E004011000000
(1786376127.171879) can0 38F#5727E25302000000
(1786376127.172175) can0 38E#1E2F004011000000
(1786376127.181774) can0 38E#4220004011000000
(1786376127.191763) can0 38F#0B28E25302000000
(1786376127.192035) can0 38E#1F21004011000000
(1786376127.201868) can0 38E#F822004011000000
(1786376127.211768) can0 38F#5629E25302000000
(1786376127.212012) can0 38E#A523004011000000
(1786376127.221758) can0 38E#2B24004011000000
(1786376127.231731) can0 38F#B12AE25302000000
(1786376127.231976) can0 38E#7625004011000000
(1786376127.241751) can0 38E#9126004011000000
(1786376127.251786) can0 38F#EC2BE25302000000
(1786376127.252054) can0 38E#CC27004011000000
(1786376127.261823) can0 38E#9028004011000000
(1786376127.271771) can0 38F#622CE25302000000
(1786376127.272014) can0 38E#CD29004011000000
(1786376127.281737) can0 38E#2A2A004011000000
(1786376127.291721) can0 38F#3F2DE25302000000
(1786376127.291975) can0 38E#772B004011000000
(1786376127.301810) can0 38E#F92C004011000000
(1786376127.311788) can0 38F#D82EE25302000000
(1786376127.312171) can0 38E#A42D004011000000
(1786376127.321871) can0 38E#432E004011000000
(1786376127.331835) can0 38F#852FE25302000000
(1786376127.332179) can0 38E#1E2F004011000000
(1786376127.341947) can0 38E#4220004011000000
(1786376127.351754) can0 38F#D920E25302000000
(1786376127.352087) can0 38E#1F21004011000000
(1786376127.361723) can0 38E#F822004011000000
(1786376127.371893) can0 38F#8421E25302000000
(1786376127.372283) can0 38E#A523004011000000
(1786376127.381854) can0 38E#2B24004011000000
(1786376127.391770) can0 38F#6322E25302000000
(1786376127.392193) can0 38E#7625004011000000
(1786376127.401820) can0 38E#9126004011000000
(1786376127.411886) can0 38F#3E23E25302000000
(1786376127.412233) can0 38E#CC27004011000000
(1786376127.421878) can0 38E#9028004011000000
(1786376127.431898) can0 38F#B024E25302000000
(1786376127.432328) can0 38E#CD29004011000000
(1786376127.441761) can0 38E#2A2A004011000000
(1786376127.451752) can0 38F#ED25E25302000000
(1786376127.452041) can0 38E#772B004011000000
(1786376127.461745) can0 38E#F92C004011000000
(1786376127.471769) can0 38F#0A26E25302000000
(1786376127.472007) can0 38E#A42D004011000000
(1786376127.481709) can0 38E#432E004011000000
(1786376127.491772) can0 38F#5727E25302000000
(1786376127.492026) can0 38E#1E2F004011000000
(1786376127.501738) can0 38E#4220004011000000
(1786376127.511879) can0 38F#0B28E25302000000
(1786376127.512117) can0 38E#1F21004011000000
(1786376127.521765) can0 38E#F822004011000000
(1786376127.531950) can0 38F#5629E25302000000
(1786376127.532434) can0 38E#A523004011000000
(1786376127.541863) can0 38E#2B24004011000000
(1786376127.551859) can0 38F#B12AE25302000000
(1786376127.552199) can0 38E#7625004011000000
(1786376127.561512) can0 38E#9126004011000000
(1786376127.571649) can0 38F#EC2BE25302000000
(1786376127.572115) can0 38E#CC27004011000000
(1786376127.582005) can0 38E#9028004011000000
(1786376127.591959) can0 38F#622CE25302000000
(1786376127.592457) can0 38E#CD29004011000000
(1786376127.601859) can0 38E#2A2A004011000000
(1786376127.611809) can0 38F#3F2DE25302000000
(1786376127.612210) can0 38E#772B004011000000
(1786376127.621788) can0 38E#F92C004011000000
(1786376127.631934) can0 38F#D82EE25302000000
(1786376127.632415) can0 38E#A42D004011000000
(1786376127.641833) can0 38E#432E004011000000
(1786376127.651793) can0 38F#852FE25302000000
(1786376127.652133) can0 38E#1E2F004011000000
(1786376127.661820) can0 38E#4220004011000000
(1786376127.671796) can0 38F#D920E25302000000
(1786376127.672099) can0 38E#1F21004011000000
(1786376127.681883) can0 38E#F822004011000000
(1786376127.691912) can0 38F#8421E25302000000
(1786376127.692322) can0 38E#A523004011000000
(1786376127.701873) can0 38E#2B24004011000000
(1786376127.711517) can0 38F#6322E25302000000
(1786376127.711885) can0 38E#7625004011000000
(1786376127.721808) can0 38E#9126004011000000
(1786376127.731824) can0 38F#3E23E25302000000
(1786376127.732188) can0 38E#CC27004011000000
(1786376127.741771) can0 38E#9028004011000000
(1786376127.751782) can0 38F#B024E25302000000
(1786376127.752452) can0 38E#CD29004011000000
(1786376127.761822) can0 38E#2A2A004011000000
(1786376127.771986) can0 38F#ED25E25302000000
(1786376127.772342) can0 38E#772B004011000000
(1786376127.781884) can0 38E#F92C004011000000
(1786376127.791848) can0 38F#0A26E25302000000
(1786376127.792180) can0 38E#A42D004011000000
(1786376127.801839) can0 38E#432E004011000000
(1786376127.811874) can0 38F#5727E25302000000
(1786376127.812229) can0 38E#1E2F004011000000
(1786376127.821840) can0 38E#4220004011000000
(1786376127.831710) can0 38F#0B28E25302000000
(1786376127.832025) can0 38E#1F21004011000000
(1786376127.841828) can0 38E#F822004011000000
(1786376127.851829) can0 38F#5629E25302000000
(1786376127.852105) can0 38E#A523004011000000
(1786376127.861906) can0 38E#2B24004011000000
(1786376127.871722) can0 38F#B12AE25302000000
(1786376127.872086) can0 38E#7625004011000000
(1786376127.881835) can0 38E#9126004011000000
(1786376127.891834) can0 38F#EC2BE25302000000
(1786376127.892139) can0 38E#CC27004011000000
(1786376127.901860) can0 38E#9028004011000000
(1786376127.911757) can0 38F#622CE25302000000
(1786376127.912172) can0 38E#CD29004011000000
(1786376127.921791) can0 38E#2A2A004011000000
(1786376127.931736) can0 38F#3F2DE25302000000
(1786376127.931982) can0 38E#772B004011000000
(1786376127.941768) can0 38E#F92C004011000000
(1786376127.951752) can0 38F#D82EE25302000000
(1786376127.952053) can0 38E#A42D004011000000
(1786376127.961699) can0 38E#432E004011000000
(1786376127.971892) can0 38F#852FE25302000000
(1786376127.972162) can0 38E#1E2F004011000000
(1786376127.981855) can0 38E#4220004011000000
(1786376127.991452) can0 38F#D920E25302000000
(1786376127.991730) can0 38E#1F21004011000000
(1786376128.001736) can0 38E#F822004011000000
(1786376128.011750) can0 38F#8421E25302000000
(1786376128.011969) can0 38E#A523004011000000
(1786376128.021738) can0 38E#2B24004011000000
(1786376128.031780) can0 38F#6322E25302000000
(1786376128.031988) can0 38E#7625004011000000
(1786376128.041759) can0 38E#9126004011000000
(1786376128.051723) can0 38F#3E23E25302000000
(1786376128.051956) can0 38E#CC27004011000000
(1786376128.061723) can0 38E#9028004011000000
(1786376128.071837) can0 38F#B024E25302000000
(1786376128.072232) can0 38E#CD29004011000000
(1786376128.081846) can0 38E#2A2A004011000000
(1786376128.091961) can0 38F#ED25E25302000000
(1786376128.092510) can0 38E#772B004011000000
(1786376128.101791) can0 38E#F92C004011000000
(1786376128.111802) can0 38F#0A26E25302000000
(1786376128.112216) can0 38E#A42D004011000000
(1786376128.121851) can0 38E#432E004011000000
(1786376128.131992) can0 38F#5727E25302000000
(1786376128.132472) can0 38E#1E2F004011000000
(1786376128.141540) can0 38E#4220004011000000
(1786376128.151771) can0 38F#0B28E25302000000
(1786376128.152067) can0 38E#1F21004011000000
(1786376128.161903) can0 38E#F822004011000000
(1786376128.171912) can0 38F#5629E25302000000
(1786376128.172245) can0 38E#A523004011000000
(1786376128.181851) can0 38E#2B24004011000000
(1786376128.191843) can0 38F#B12AE25302000000
(1786376128.192109) can0 38E#7625004011000000
(1786376128.201847) can0 38E#9126004011000000
(1786376128.211716) can0 38F#EC2BE25302000000
(1786376128.212084) can0 38E#CC27004011000000
(1786376128.221838) can0 38E#9028004011000000
(1786376128.231824) can0 38F#622CE25302000000
(1786376128.232279) can0 38E#CD29004011000000
(1786376128.241834) can0 38E#2A2A004011000000
(1786376128.251768) can0 38F#3F2DE25302000000
(1786376128.252048) can0 38E#772B004011000000
(1786376128.261724) can0 38E#F92C004011000000
(1786376128.271923) can0 38F#D82EE25302000000
(1786376128.272307) can0 38E#A42D004011000000
(1786376128.281937) can0 38E#432E004011000000
(1786376128.291862) can0 38F#852FE25302000000
(1786376128.292225) can0 38E#1E2F004011000000
(1786376128.301793) can0 38E#4220004011000000
(1786376128.311714) can0 38F#D920E25302000000
(1786376128.312028) can0 38E#1F21004011000000
(1786376128.321847) can0 38E#F822004011000000
(1786376128.331930) can0 38F#8421E25302000000
(1786376128.332403) can0 38E#A523004011000000
(1786376128.341794) can0 38E#2B24004011000000
(1786376128.351756) can0 38F#6322E25302000000
(1786376128.352011) can0 38E#7625004011000000
(1786376128.361714) can0 38E#9126004011000000
(1786376128.371768) can0 38F#3E23E25302000000
(1786376128.372065) can0 38E#CC27004011000000
(1786376128.381738) can0 38E#9028004011000000
(1786376128.391760) can0 38F#B024E25302000000
(1786376128.392014) can0 38E#CD29004011000000
(1786376128.401828) can0 38E#2A2A004011000000
(1786376128.411842) can0 38F#ED25E25302000000
(1786376128.412156) can0 38E#772B004011000000
(1786376128.421410) can0 38E#F92C004011000000
(1786376128.431740) can0 38F#0A26E25302000000
(1786376128.431962) can0 38E#A42D004011000000
(1786376128.441787) can0 38E#432E004011000000
(1786376128.451745) can0 38F#5727E25302000000
(1786376128.451968) can0 38E#1E2F004011000000
(1786376128.461882) can0 38E#4220004011000000
(1786376128.471717) can0 38F#0B28E25302000000
(1786376128.472066) can0 38E#1F21004011000000
(1786376128.481804) can0 38E#F822004011000000
(1786376128.491849) can0 38F#5629E25302000000
(1786376128.492157) can0 38E#A523004011000000
(1786376128.501776) can0 38E#2B24004011000000
(1786376128.511895) can0 38F#B12AE25302000000
(1786376128.512260) can0 38E#7625004011000000
(1786376128.521881) can0 38E#9126004011000000
(1786376128.532016) can0 38F#EC2BE25302000000
(1786376128.532486) can0 38E#CC27004011000000
(1786376128.541833) can0 38E#9028004011000000
(1786376128.551803) can0 38F#622CE25302000000
(1786376128.552165) can0 38E#CD29004011000000
(1786376128.561880) can0 38E#2A2A004011000000
(1786376128.571432) can0 38F#3F2DE25302000000
(1786376128.571704) can0 38E#772B004011000000
(1786376128.581743) can0 38E#F92C004011000000
(1786376128.591748) can0 38F#D82EE25302000000
(1786376128.591961) can0 38E#A42D004011000000
(1786376128.601746) can0 38E#432E004011000000
(1786376128.611722) can0 38F#852FE25302000000
(1786376128.611977) can0 38E#1E2F004011000000
(1786376128.621764) can0 38E#4220004011000000
(1786376128.631769) can0 38F#D920E25302000000
(1786376128.631981) can0 38E#1F21004011000000
(1786376128.641773) can0 38E#F822004011000000
(1786376128.651469) can0 38F#8421E25302000000
(1786376128.651749) can0 38E#A523004011000000
(1786376128.661769) can0 38E#2B24004011000000
(1786376128.671994) can0 38F#6322E25302000000
(1786376128.672372) can0 38E#7625004011000000
(1786376128.681903) can0 38E#9126004011000000
(1786376128.691851) can0 38F#3E23E25302000000
(1786376128.692237) can0 38E#CC27004011000000
(1786376128.701811) can0 38E#9028004011000000
(1786376128.711818) can0 38F#B024E25302000000
(1786376128.712154) can0 38E#CD29004011000000
(1786376128.721930) can0 38E#2A2A004011000000
(1786376128.731986) can0 38F#ED25E25302000000
(1786376128.732419) can0 38E#772B004011000000
(1786376128.741857) can0 38E#F92C004011000000
(1786376128.751834) can0 38F#0A26E25302000000
(1786376128.752132) can0 38E#A42D004011000000
(1786376128.761863) can0 38E#432E004011000000
(1786376128.771812) can0 38F#5727E25302000000
(1786376128.772105) can0 38E#1E2F004011000000
(1786376128.781771) can0 38E#4220004011000000
(1786376128.791707) can0 38F#0B28E25302000000
(1786376128.791960) can0 38E#1F21004011000000
(1786376128.801829) can0 38E#F822004011000000
(1786376128.811794) can0 38F#5629E25302000000
(1786376128.812015) can0 38E#A523004011000000
(1786376128.821714) can0 38E#2B24004011000000
(1786376128.831788) can0 38F#B12AE25302000000
(1786376128.832023) can0 38E#7625004011000000
(1786376128.841770) can0 38E#9126004011000000
(1786376128.851424) can0 38F#EC2BE25302000000
(1786376128.851675) can0 38E#CC27004011000000
(1786376128.861716) can0 38E#9028004011000000
(1786376128.871751) can0 38F#622CE25302000000
(1786376128.871995) can0 38E#CD29004011000000
(1786376128.881733) can0 38E#2A2A004011000000
(1786376128.891758) can0 38F#3F2DE25302000000
(1786376128.891996) can0 38E#772B004011000000
(1786376128.901720) can0 38E#F92C004011000000
(1786376128.911719) can0 38F#D82EE25302000000
(1786376128.912003) can0 38E#A42D004011000000
(1786376128.921790) can0 38E#432E004011000000
(1786376128.931729) can0 38F#852FE25302000000
(1786376128.931949) can0 38E#1E2F004011000000
(1786376128.941804) can0 38E#4220004011000000
(1786376128.951740) can0 38F#D920E25302000000
(1786376128.951964) can0 38E#1F21004011000000
(1786376128.961724) can0 38E#F822004011000000
(1786376128.971769) can0 38F#8421E25302000000
(1786376128.972015) can0 38E#A523004011000000
(1786376128.981712) can0 38E#2B24004011000000
(1786376128.991755) can0 38F#6322E25302000000
(1786376128.992032) can0 38E#7625004011000000
(1786376129.001741) can0 38E#9126004011000000
(1786376129.011749) can0 38F#3E23E25302000000
(1786376129.012018) can0 38E#CC27004011000000
(1786376129.021797) can0 38E#9028004011000000
(1786376129.031751) can0 38F#B024E25302000000
(1786376129.032007) can0 38E#CD29004011000000
(1786376129.041747) can0 38E#2A2A004011000000
(1786376129.051768) can0 38F#ED25E25302000000
(1786376129.052020) can0 38E#772B004011000000
(1786376129.061808) can0 38E#F92C004011000000
(1786376129.071709) can0 38F#0A26E25302000000
(1786376129.072010) can0 38E#A42D004011000000
(1786376129.081763) can0 38E#432E004011000000
(1786376129.091776) can0 38F#5727E25302000000
(1786376129.092025) can0 38E#1E2F004011000000
(1786376129.101768) can0 38E#4220004011000000
(1786376129.111756) can0 38F#0B28E25302000000
(1786376129.111992) can0 38E#1F21004011000000
(1786376129.121747) can0 38E#F822004011000000
(1786376129.131772) can0 38F#5629E25302000000
(1786376129.132026) can0 38E#A523004011000000
(1786376129.141815) can0 38E#2B24004011000000
(1786376129.151717) can0 38F#B12AE25302000000
(1786376129.151965) can0 38E#7625004011000000
(1786376129.161755) can0 38E#9126004011000000
(1786376129.171712) can0 38F#EC2BE25302000000
(1786376129.171958) can0 38E#CC27004011000000
(1786376129.181725) can0 38E#9028004011000000
(1786376129.191805) can0 38F#622CE25302000000
(1786376129.192071) can0 38E#CD29004011000000
(1786376129.201747) can0 38E#2A2A004011000000
(1786376129.211816) can0 38F#3F2DE25302000000
(1786376129.212091) can0 38E#772B004011000000
(1786376129.221742) can0 38E#F92C004011000000
(1786376129.231765) can0 38F#D82EE25302000000
(1786376129.232025) can0 38E#A42D004011000000
(1786376129.241805) can0 38E#432E004011000000
(1786376129.251763) can0 38F#852FE25302000000
(1786376129.252073) can0 38E#1E2F004011000000
(1786376129.261785) can0 38E#4220004011000000
(1786376129.271800) can0 38F#D920E25302000000
(1786376129.272119) can0 38E#1F21004011000000
(1786376129.281433) can0 38E#F822004011000000
(1786376129.291769) can0 38F#8421E25302000000
(1786376129.292067) can0 38E#A523004011000000
(1786376129.301851) can0 38E#2B24004011000000
(1786376129.311793) can0 38F#6322E25302000000
(1786376129.312055) can0 38E#7625004011000000
(1786376129.321782) can0 38E#9126004011000000
(1786376129.331739) can0 38F#3E23E25302000000
(1786376129.332078) can0 38E#CC27004011000000
(1786376129.341738) can0 38E#9028004011000000
(1786376129.351770) can0 38F#B024E25302000000
(1786376129.352041) can0 38E#CD29004011000000
(1786376129.361801) can0 38E#2A2A004011000000
(1786376129.371791) can0 38F#ED25E25302000000
(1786376129.372048) can0 38E#772B004011000000
(1786376129.381979) can0 38E#F92C004011000000
(1786376129.392062) can0 38F#0A26E25302000000
(1786376129.392573) can0 38E#A42D004011000000
(1786376129.401832) can0 38E#432E004011000000
(1786376129.411749) can0 38F#5727E25302000000
(1786376129.412047) can0 38E#1E2F004011000000
(1786376129.421936) can0 38E#4220004011000000
(1786376129.431734) can0 38F#0B28E25302000000
(1786376129.432096) can0 38E#1F21004011000000
(1786376129.441858) can0 38E#F822004011000000
(1786376129.451850) can0 38F#5629E25302000000
(1786376129.452153) can0 38E#A523004011000000
(1786376129.461805) can0 38E#2B24004011000000
(1786376129.471788) can0 38F#B12AE25302000000
(1786376129.472081) can0 38E#7625004011000000
(1786376129.481764) can0 38E#9126004011000000
(1786376129.491819) can0 38F#EC2BE25302000000
(1786376129.492109) can0 38E#CC27004011000000
(1786376129.501755) can0 38E#9028004011000000
(1786376129.511741) can0 38F#622CE25302000000
(1786376129.512030) can0 38E#CD29004011000000
(1786376129.521762) can0 38E#2A2A004011000000
(1786376129.531800) can0 38F#3F2DE25302000000
(1786376129.532029) can0 38E#772B004011000000
(1786376129.541772) can0 38E#F92C004011000000
(1786376129.551774) can0 38F#D82EE25302000000
(1786376129.552063) can0 38E#A42D004011000000
(1786376129.561754) can0 38E#432E004011000000
(1786376129.571829) can0 38F#852FE25302000000
(1786376129.572095) can0 38E#1E2F004011000000
(1786376129.581797) can0 38E#4220004011000000
(1786376129.591730) can0 38F#D920E25302000000
(1786376129.591994) can0 38E#1F21004011000000
(1786376129.601793) can0 38E#F822004011000000
(1786376129.611751) can0 38F#8421E25302000000
(1786376129.612023) can0 38E#A523004011000000
(1786376129.621822) can0 38E#2B24004011000000
(1786376129.631764) can0 38F#6322E25302000000
(1786376129.632022) can0 38E#7625004011000000
(1786376129.641866) can0 38E#9126004011000000
(1786376129.651843) can0 38F#3E23E25302000000
(1786376129.652152) can0 38E#CC27004011000000
(1786376129.661794) can0 38E#9028004011000000
(1786376129.671805) can0 38F#B024E25302000000
(1786376129.672181) can0 38E#CD29004011000000
(1786376129.681800) can0 38E#2A2A004011000000
(1786376129.691826) can0 38F#ED25E25302000000
(1786376129.692171) can0 38E#772B004011000000
(1786376129.701802) can0 38E#F92C004011000000
(1786376129.711528) can0 38F#0A26E25302000000
(1786376129.711972) can0 38E#A42D004011000000
(1786376129.721955) can0 38E#432E004011000000
(1786376129.731949) can0 38F#5727E25302000000
(1786376129.732286) can0 38E#1E2F004011000000
(1786376129.741845) can0 38E#4220004011000000
(1786376129.751848) can0 38F#0B28E25302000000
(1786376129.752172) can0 38E#1F21004011000000
(1786376129.761820) can0 38E#F822004011000000
(1786376129.771774) can0 38F#5629E25302000000
(1786376129.772045) can0 38E#A523004011000000
(1786376129.781839) can0 38E#2B24004011000000
(1786376129.791817) can0 38F#B12AE25302000000
(1786376129.792318) can0 38E#7625004011000000
(1786376129.801822) can0 38E#9126004011000000
(1786376129.811790) can0 38F#EC2BE25302000000
(1786376129.812080) can0 38E#CC27004011000000
(1786376129.821824) can0 38E#9028004011000000
(1786376129.831804) can0 38F#622CE25302000000
(1786376129.832053) can0 38E#CD29004011000000
(1786376129.841726) can0 38E#2A2A004011000000
(1786376129.851791) can0 38F#3F2DE25302000000
(1786376129.852062) can0 38E#772B004011000000
(1786376129.861748) can0 38E#F92C004011000000
(1786376129.871715) can0 38F#D82EE25302000000
(1786376129.872037) can0 38E#A42D004011000000
(1786376129.881814) can0 38E#432E004011000000
(1786376129.891720) can0 38F#852FE25302000000
(1786376129.891968) can0 38E#1E2F004011000000
(1786376129.901753) can0 38E#4220004011000000
(1786376129.911847) can0 38F#D920E25302000000
(1786376129.912405) can0 38E#1F21004011000000
(1786376129.921924) can0 38E#F822004011000000
(1786376129.931771) can0 38F#8421E25302000000
(1786376129.932077) can0 38E#A523004011000000
(1786376129.941882) can0 38E#2B24004011000000
(1786376129.951870) can0 38F#6322E25302000000
(1786376129.952241) can0 38E#7625004011000000
(1786376129.961901) can0 38E#9126004011000000
(1786376129.971844) can0 38F#3E23E25302000000
(1786376129.972195) can0 38E#CC27004011000000
(1786376129.981806) can0 38E#9028004011000000
(1786376129.991774) can0 38F#B024E25302000000
(1786376129.992083) can0 38E#CD29004011000000
(1786376130.001819) can0 38E#2A2A004011000000
(1786376130.011737) can0 38F#ED25E25302000000
(1786376130.012018) can0 38E#772B004011000000
(1786376130.021800) can0 38E#F92C004011000000
(1786376130.031771) can0 38F#0A26E25302000000
(1786376130.032145) can0 38E#A42D004011000000
(1786376130.041800) can0 38E#432E004011000000
(1786376130.051849) can0 38F#5727E25302000000
(1786376130.052158) can0 38E#1E2F004011000000
(1786376130.061759) can0 38E#4220004011000000
(1786376130.071718) can0 38F#0B28E25302000000
(1786376130.071956) can0 38E#1F21004011000000
(1786376130.081727) can0 38E#F822004011000000
(1786376130.091754) can0 38F#5629E25302000000
(1786376130.092010) can0 38E#A523004011000000
(1786376130.101776) can0 38E#2B24004011000000
(1786376130.111722) can0 38F#B12AE25302000000
(1786376130.111956) can0 38E#7625004011000000
(1786376130.121810) can0 38E#9126004011000000
(1786376130.131787) can0 38F#EC2BE25302000000
(1786376130.132002) can0 38E#CC27004011000000
(1786376130.141696) can0 38E#9028004011000000
(1786376130.151678) can0 38F#622CE25302000000
(1786376130.151932) can0 38E#CD29004011000000
(1786376130.161811) can0 38E#2A2A004011000000
(1786376130.171838) can0 38F#3F2DE25302000000
(1786376130.172164) can0 38E#772B004011000000
