(1786376126.496713) can0 39D#AC030801
(1786376126.511743) can0 39D#AE050801
(1786376126.591699) can0 39D#AF060801
(1786376126.631947) can0 39D#B0070801
(1786376126.671824) can0 33D#0000FFFFFFFFFFFF
(1786376126.672232) can0 39D#B1080801
(1786376126.711671) can0 39D#B2090801
(1786376126.751764) can0 33D#0000FFFFFFFFFFFF
(1786376126.771868) can0 39D#B30A0801
(1786376126.791712) can0 39D#B40B0801
(1786376126.831709) can0 39D#B50C0801
(1786376126.871731) can0 33D#0000FFFFFFFFFFFF
(1786376126.871973) can0 39D#B60D0801
(1786376126.911798) can0 39D#B70E0801
(1786376126.951729) can0 33D#0000FFFFFFFFFFFF
(1786376126.971840) can0 39D#B80F0801
(1786376126.991775) can0 39D#A9000801
(1786376127.031710) can0 39D#AA010801
(1786376127.071733) can0 33D#0000FFFFFFFFFFFF
(1786376127.072144) can0 39D#AB020801
(1786376127.111765) can0 39D#AC030801
(1786376127.151848) can0 33D#0000FFFFFFFFFFFF
(1786376127.171939) can0 39D#AD040801
(1786376127.191707) can0 39D#AE050801
(1786376127.231732) can0 39D#AF060801
(1786376127.271737) can0 33D#0000FFFFFFFFFFFF
(1786376127.272012) can0 39D#B0070801
(1786376127.311774) can0 39D#B1080801
(1786376127.351754) can0 35D#0755556555150000
(1786376127.352084) can0 32D#0B00020101000000
(1786376127.352353) can0 33D#0000FFFFFFFFFFFF
(1786376127.371893) can0 39D#B2090801
(1786376127.391770) can0 39D#B30A0801
(1786376127.431899) can0 39D#B40B0801
(1786376127.471738) can0 33D#0000FFFFFFFFFFFF
(1786376127.472005) can0 39D#B50C0801
(1786376127.511708) can0 39D#B60D0801
(1786376127.551963) can0 33D#0000FFFFFFFFFFFF
(1786376127.571897) can0 39D#B70E0801
(1786376127.591959) can0 39D#B80F0801
(1786376127.631934) can0 39D#A9000801
(1786376127.671796) can0 33D#0000FFFFFFFFFFFF
(1786376127.672240) can0 39D#AA010801
(1786376127.711718) can0 39D#AB020801
(1786376127.751782) can0 33D#0000FFFFFFFFFFFF
(1786376127.771990) can0 39D#AC030801
(1786376127.791848) can0 39D#AD040801
(1786376127.831725) can0 39D#AE050801
(1786376127.871722) can0 33D#0000FFFFFFFFFFFF
(1786376127.872108) can0 39D#AF060801
(1786376127.911731) can0 39D#B0070801
(1786376127.951752) can0 33D#0000FFFFFFFFFFFF
(1786376127.971891) can0 39D#B1080801
(1786376127.991655) can0 39D#B2090801
(1786376128.031738) can0 39D#B30A0801
(1786376128.071838) can0 33D#0000FFFFFFFFFFFF
(1786376128.072201) can0 39D#B40B0801
(1786376128.111765) can0 39D#B50C0801
(1786376128.151772) can0 33D#0000FFFFFFFFFFFF
(1786376128.171912) can0 39D#B60D0801
(1786376128.191774) can0 39D#B70E0801
(1786376128.231825) can0 39D#B80F0801
(1786376128.271923) can0 33D#0000FFFFFFFFFFFF
(1786376128.272313) can0 39D#A9000801
(1786376128.311677) can0 39D#AA010801
(1786376128.351722) can0 35D#0055555555555555
(1786376128.351996) can0 33D#0000FFFFFFFFFFFF
(1786376128.371870) can0 39D#AB020801
(1786376128.391711) can0 39D#AC030801
(1786376128.431685) can0 39D#AD040801
(1786376128.471718) can0 33D#0000FFFFFFFFFFFF
(1786376128.472060) can0 39D#AE050801
(1786376128.511755) can0 39D#AF060801
(1786376128.551901) can0 33D#0000FFFFFFFFFFFF
(1786376128.571797) can0 39D#B0070801
(1786376128.591704) can0 39D#B1080801
(1786376128.631708) can0 39D#B2090801
(1786376128.671996) can0 33D#0000FFFFFFFFFFFF
(1786376128.672380) can0 39D#B30A0801
(1786376128.711817) can0 39D#B40B0801
(1786376128.751739) can0 33D#0000FFFFFFFFFFFF
(1786376128.771869) can0 39D#B50C0801
(1786376128.791708) can0 39D#B60D0801
(1786376128.831737) can0 39D#B70E0801
(1786376128.871751) can0 33D#0000FFFFFFFFFFFF
(1786376128.872135) can0 39D#B80F0801
(1786376128.911719) can0 39D#A9000801
(1786376128.951704) can0 33D#0000FFFFFFFFFFFF
(1786376128.971882) can0 39D#AA010801
(1786376128.991755) can0 39D#AB020801
(1786376129.031697) can0 39D#AC030801
(1786376129.071709) can0 33D#0000FFFFFFFFFFFF
(1786376129.071989) can0 39D#AD040801
(1786376129.111712) can0 39D#AE050801
(1786376129.151712) can0 33D#0000FFFFFFFFFFFF
(1786376129.171808) can0 39D#AF060801
(1786376129.191758) can0 39D#B0070801
(1786376129.231704) can0 39D#B1080801
(1786376129.271735) can0 33D#0000FFFFFFFFFFFF
(1786376129.272046) can0 39D#B2090801
(1786376129.311729) can0 39D#B30A0801
(1786376129.351770) can0 35D#0155555555555555
(1786376129.352108) can0 32D#0D0000008D792021
(1786376129.352319) can0 33D#0000FFFFFFFFFFFF
(1786376129.371816) can0 39D#B40B0801
(1786376129.392058) can0 39D#B50C0801
(1786376129.431683) can0 39D#B60D0801
(1786376129.471736) can0 33D#0000FFFFFFFFFFFF
(1786376129.472005) can0 39D#B70E0801
(1786376129.511661) can0 39D#B80F0801
(1786376129.551766) can0 33D#0000FFFFFFFFFFFF
(1786376129.571966) can0 39D#A9000801
(1786376129.591704) can0 39D#AA010801
(1786376129.631710) can0 39D#AB020801
(1786376129.671806) can0 33D#0000FFFFFFFFFFFF
(1786376129.672303) can0 39D#AC030801
(1786376129.711744) can0 39D#AD040801
(1786376129.751849) can0 33D#0000FFFFFFFFFFFF
(1786376129.771818) can0 39D#AE050801
(1786376129.791776) can0 39D#AF060801
(1786376129.831720) can0 39D#B0070801
(1786376129.871716) can0 33D#0000FFFFFFFFFFFF
(1786376129.872027) can0 39D#B1080801
(1786376129.911848) can0 39D#B2090801
(1786376129.951885) can0 33D#0000FFFFFFFFFFFF
(1786376129.971865) can0 39D#B30A0801
(1786376129.991775) can0 39D#B40B0801
(1786376130.031749) can0 39D#B50C0801
(1786376130.071685) can0 33D#0000FFFFFFFFFFFF
(1786376130.071966) can0 39D#B60D0801
(1786376130.111649) can0 39D#B70E0801
(1786376130.151678) can0 33D#0000FFFFFFFFFFFF
(1786376130.171838) can0 39D#B80F0801
(1786376130.191816) can0 39D#A9000801
(1786376130.231843) can0 39D#AA010801
(1786376130.271718) can0 33D#0000FFFFFFFFFFFF
(1786376130.272089) can0 39D#AB020801
(1786376130.311745) can0 39D#AC030801
(1786376130.351750) can0 35D#0256555555555555
(1786376130.352008) can0 33D#0000FFFFFFFFFFFF
(1786376130.371824) can0 39D#AD040801
(1786376130.391789) can0 39D#AE050801
(1786376130.431768) can0 39D#AF060801
(1786376130.471680) can0 33D#0000FFFFFFFFFFFF
(1786376130.471981) can0 39D#B0070801
(1786376130.511664) can0 39D#B1080801
(1786376130.551794) can0 33D#0000FFFFFFFFFFFF
(1786376130.571866) can0 39D#B2090801
(1786376130.591797) can0 39D#B30A0801
(1786376130.631799) can0 39D#B40B0801
(1786376130.671681) can0 33D#0000FFFFFFFFFFFF
(1786376130.671967) can0 39D#B50C0801
(1786376130.711774) can0 39D#B60D0801
(1786376130.751811) can0 33D#0000FFFFFFFFFFFF
(1786376130.771888) can0 39D#B70E0801
(1786376130.791730) can0 39D#B80F0801
(1786376130.831749) can0 39D#A9000801
(1786376130.871780) can0 33D#0000FFFFFFFFFFFF
(1786376130.872098) can0 39D#AA010801
(1786376130.911873) can0 39D#AB020801
(1786376130.951783) can0 33D#0000FFFFFFFFFFFF
(1786376130.971918) can0 39D#AC030801
(1786376130.991740) can0 39D#AD040801
(1786376131.031752) can0 39D#AE050801
(1786376131.071766) can0 33D#0000FFFFFFFFFFFF
(1786376131.072185) can0 39D#AF060801
(1786376131.111829) can0 39D#B0070801
(1786376131.151798) can0 33D#0000FFFFFFFFFFFF
(1786376131.171898) can0 39D#B1080801
(1786376131.191801) can0 39D#B2090801
(1786376131.231756) can0 39D#B30A0801
(1786376131.271982) can0 33D#0000FFFFFFFFFFFF
(1786376131.272458) can0 39D#B40B0801
(1786376131.311799) can0 39D#B50C0801
(1786376131.351767) can0 35D#0355555555555555
(1786376131.352141) can0 32D#1405000060FCB070
(1786376131.352459) can0 33D#0000FFFFFFFFFFFF
(1786376131.371917) can0 39D#B60D0801
(1786376131.391872) can0 39D#B70E0801
(1786376131.431858) can0 39D#B80F0801
(1786376131.472093) can0 33D#0000FFFFFFFFFFFF
(1786376131.472586) can0 39D#A9000801
(1786376131.511768) can0 39D#AA010801
(1786376131.551804) can0 33D#0000FFFFFFFFFFFF
(1786376131.571981) can0 39D#AB020801
(1786376131.591895) can0 39D#AC030801
(1786376131.631987) can0 39D#AD040801
(1786376131.671825) can0 33D#0000FFFFFFFFFFFF
(1786376131.672197) can0 39D#AE050801
(1786376131.711827) can0 39D#AF060801
(1786376131.751758) can0 33D#0000FFFFFFFFFFFF
(1786376131.771935) can0 39D#B0070801
(1786376131.791824) can0 39D#B1080801
(1786376131.831811) can0 39D#B2090801
(1786376131.871749) can0 33D#0000FFFFFFFFFFFF
(1786376131.872094) can0 39D#B30A0801
(1786376131.911792) can0 39D#B40B0801
(1786376131.951835) can0 33D#0000FFFFFFFFFFFF
(1786376131.971924) can0 39D#B50C0801
(1786376131.991910) can0 39D#B60D0801
(1786376132.031854) can0 39D#B70E0801
(1786376132.071750) can0 33D#0000FFFFFFFFFFFF
(1786376132.072060) can0 39D#B80F0801
(1786376132.112189) can0 39D#A9000801
(1786376132.151825) can0 33D#0000FFFFFFFFFFFF
(1786376132.171858) can0 39D#AA010801
(1786376132.191884) can0 39D#AB020801
(1786376132.231833) can0 39D#AC030801
(1786376132.271761) can0 33D#0000FFFFFFFFFFFF
(1786376132.272143) can0 39D#AD040801
(1786376132.311830) can0 39D#AE050801
(1786376132.351775) can0 35D#0455555555555555
(1786376132.352047) can0 33D#0000FFFFFFFFFFFF
(1786376132.371804) can0 39D#AF060801
(1786376132.391724) can0 39D#B0070801
(1786376132.431763) can0 39D#B1080801
(1786376132.471720) can0 33D#0000FFFFFFFFFFFF
(1786376132.471998) can0 39D#B2090801
(1786376132.511790) can0 39D#B30A0801
(1786376132.551807) can0 33D#0000FFFFFFFFFFFF
(1786376132.572065) can0 39D#B40B0801
(1786376132.591844) can0 39D#B50C0801
(1786376132.631778) can0 39D#B60D0801
(1786376132.671744) can0 33D#0000FFFFFFFFFFFF
(1786376132.672070) can0 39D#B70E0801
(1786376132.711797) can0 39D#B80F0801
(1786376132.751811) can0 33D#0000FFFFFFFFFFFF
(1786376132.771814) can0 39D#A9000801
(1786376132.791798) can0 39D#AA010801
(1786376132.831724) can0 39D#AB020801
(1786376132.871902) can0 33D#0000FFFFFFFFFFFF
(1786376132.872351) can0 39D#AC030801
(1786376132.911849) can0 39D#AD040801
(1786376132.951704) can0 33D#0000FFFFFFFFFFFF
(1786376132.971871) can0 39D#AE050801
(1786376132.991699) can0 39D#AF060801
(1786376133.031889) can0 39D#B0070801
(1786376133.071942) can0 33D#0000FFFFFFFFFFFF
(1786376133.072347) can0 39D#B1080801
(1786376133.111791) can0 39D#B2090801
(1786376133.151667) can0 33D#0000FFFFFFFFFFFF
(1786376133.171899) can0 39D#B30A0801
(1786376133.191880) can0 39D#B40B0801
(1786376133.231899) can0 39D#B50C0801
(1786376133.271725) can0 33D#0000FFFFFFFFFFFF
(1786376133.272009) can0 39D#B60D0801
(1786376133.311771) can0 39D#B70E0801
(1786376133.351806) can0 35D#0555555555555555
(1786376133.352128) can0 32D#16000000E4ACA32F
(1786376133.352450) can0 33D#0000FFFFFFFFFFFF
(1786376133.371890) can0 39D#B80F0801
(1786376133.391911) can0 39D#A9000801
(1786376133.431798) can0 39D#AA010801
(1786376133.471725) can0 33D#0000FFFFFFFFFFFF
(1786376133.472094) can0 39D#AB020801
(1786376133.511759) can0 39D#AC030801
(1786376133.551802) can0 33D#0000FFFFFFFFFFFF
(1786376133.571915) can0 39D#AD040801
(1786376133.591865) can0 39D#AE050801
(1786376133.631745) can0 39D#AF060801
(1786376133.671840) can0 33D#0000FFFFFFFFFFFF
(1786376133.672284) can0 39D#B0070801
(1786376133.711698) can0 39D#B1080801
(1786376133.751820) can0 33D#0000FFFFFFFFFFFF
(1786376133.771866) can0 39D#B2090801
(1786376133.791763) can0 39D#B30A0801
(1786376133.831738) can0 39D#B40B0801
(1786376133.871896) can0 33D#0000FFFFFFFFFFFF
(1786376133.872251) can0 39D#B50C0801
(1786376133.911732) can0 39D#B60D0801
(1786376133.951696) can0 33D#0000FFFFFFFFFFFF
(1786376133.971890) can0 39D#B70E0801
(1786376133.991859) can0 39D#B80F0801
(1786376134.031873) can0 39D#A9000801
(1786376134.072018) can0 33D#0000FFFFFFFFFFFF
(1786376134.072524) can0 39D#AA010801
(1786376134.111815) can0 39D#AB020801
(1786376134.151764) can0 33D#0000FFFFFFFFFFFF
(1786376134.171840) can0 39D#AC030801
(1786376134.191723) can0 39D#AD040801
(1786376134.231650) can0 39D#AE050801
(1786376134.271779) can0 33D#0000FFFFFFFFFFFF
(1786376134.272129) can0 39D#AF060801
(1786376134.311743) can0 39D#B0070801
(1786376134.351862) can0 35D#0655555555555559
(1786376134.352257) can0 33D#0000FFFFFFFFFFFF
(1786376134.371913) can0 39D#B1080801
(1786376134.391771) can0 39D#B2090801
(1786376134.431838) can0 39D#B30A0801
(1786376134.471851) can0 33D#0000FFFFFFFFFFFF
(1786376134.472210) can0 39D#B40B0801
(1786376134.511793) can0 39D#B50C0801
(1786376134.551794) can0 33D#0000FFFFFFFFFFFF
(1786376134.571852) can0 39D#B60D0801
(1786376134.591710) can0 39D#B70E0801
(1786376134.631899) can0 39D#B80F0801
(1786376134.671802) can0 33D#0000FFFFFFFFFFFF
(1786376134.672208) can0 39D#A9000801
(1786376134.711823) can0 39D#AA010801
(1786376134.751682) can0 33D#0000FFFFFFFFFFFF
(1786376134.771831) can0 39D#AB020801
(1786376134.791769) can0 39D#AC030801
(1786376134.831747) can0 39D#AD040801
(1786376134.871670) can0 33D#0000FFFFFFFFFFFF
(1786376134.871982) can0 39D#AE050801
(1786376134.911873) can0 39D#AF060801
(1786376134.951829) can0 33D#0000FFFFFFFFFFFF
(1786376134.971909) can0 39D#B0070801
(1786376134.991968) can0 39D#B1080801
(1786376135.031835) can0 39D#B2090801
(1786376135.071861) can0 33D#0000FFFFFFFFFFFF
(1786376135.072213) can0 39D#B30A0801
(1786376135.111834) can0 39D#B40B0801
(1786376135.151879) can0 33D#0000FFFFFFFFFFFF
(1786376135.171936) can0 39D#B50C0801
(1786376135.191781) can0 39D#B60D0801
(1786376135.231791) can0 39D#B70E0801
(1786376135.271733) can0 33D#0000FFFFFFFFFFFF
(1786376135.272062) can0 39D#B80F0801
(1786376135.311781) can0 39D#A9000801
(1786376135.351731) can0 35D#0755556555150000
(1786376135.352167) can0 32D#0A01000000007000
(1786376135.352502) can0 33D#0000FFFFFFFFFFFF
(1786376135.371970) can0 39D#AA010801
(1786376135.391790) can0 39D#AB020801
(1786376135.431826) can0 39D#AC030801
(1786376135.471871) can0 33D#0000FFFFFFFFFFFF
(1786376135.472285) can0 39D#AD040801
(1786376135.511836) can0 39D#AE050801
(1786376135.551823) can0 33D#0000FFFFFFFFFFFF
(1786376135.571942) can0 39D#AF060801
(1786376135.591851) can0 39D#B0070801
(1786376135.631994) can0 39D#B1080801
(1786376135.671779) can0 33D#0000FFFFFFFFFFFF
(1786376135.672179) can0 39D#B2090801
(1786376135.711841) can0 39D#B30A0801
(1786376135.751831) can0 33D#0000FFFFFFFFFFFF
(1786376135.772022) can0 39D#B40B0801
(1786376135.791795) can0 39D#B50C0801
(1786376135.831934) can0 39D#B60D0801
(1786376135.871849) can0 33D#0000FFFFFFFFFFFF
(1786376135.872283) can0 39D#B70E0801
(1786376135.911834) can0 39D#B80F0801
(1786376135.951718) can0 33D#0000FFFFFFFFFFFF
(1786376135.972002) can0 39D#A9000801
(1786376135.991874) can0 39D#AA010801
(1786376136.031906) can0 39D#AB020801
(1786376136.071844) can0 33D#0000FFFFFFFFFFFF
(1786376136.072252) can0 39D#AC030801
(1786376136.111824) can0 39D#AD040801
(1786376136.151835) can0 33D#0000FFFFFFFFFFFF
(1786376136.171853) can0 39D#AE050801
(1786376136.191908) can0 39D#AF060801
(1786376136.231918) can0 39D#B0070801
(1786376136.271824) can0 33D#0000FFFFFFFFFFFF
(1786376136.272193) can0 39D#B1080801
(1786376136.311802) can0 39D#B2090801
(1786376136.351815) can0 35D#0055555555555555
(1786376136.352161) can0 33D#0000FFFFFFFFFFFF
(1786376136.371932) can0 39D#B30A0801
(1786376136.391763) can0 39D#B40B0801
(1786376136.432029) can0 39D#B50C0801
(1786376136.471964) can0 33D#0000FFFFFFFFFFFF
(1786376136.472454) can0 39D#B60D0801
(1786376136.511865) can0 39D#B70E0801
(1786376136.551800) can0 33D#0000FFFFFFFFFFFF
(1786376136.571965) can0 39D#B80F0801
(1786376136.591801) can0 39D#A9000801
(1786376136.631840) can0 39D#AA010801
(1786376136.671886) can0 33D#0000FFFFFFFFFFFF
(1786376136.672366) can0 39D#AB020801
(1786376136.711858) can0 39D#AC030801
(1786376136.751780) can0 33D#0000FFFFFFFFFFFF
(1786376136.771868) can0 39D#AD040801
(1786376136.791822) can0 39D#AE050801
(1786376136.831788) can0 39D#AF060801
(1786376136.871962) can0 33D#0000FFFFFFFFFFFF
(1786376136.872395) can0 39D#B0070801
(1786376136.911806) can0 39D#B1080801
(1786376136.951804) can0 33D#0000FFFFFFFFFFFF
(1786376136.971914) can0 39D#B2090801
(1786376136.991885) can0 39D#B30A0801
(1786376137.031767) can0 39D#B40B0801
(1786376137.071826) can0 33D#0000FFFFFFFFFFFF
(1786376137.072257) can0 39D#B50C0801
(1786376137.111804) can0 39D#B60D0801
(1786376137.151797) can0 33D#0000FFFFFFFFFFFF
(1786376137.171829) can0 39D#B70E0801
(1786376137.191978) can0 39D#B80F0801
(1786376137.231864) can0 39D#A9000801
(1786376137.271866) can0 33D#0000FFFFFFFFFFFF
(1786376137.272254) can0 39D#AA010801
(1786376137.311862) can0 39D#AB020801
(1786376137.351754) can0 35D#0155555555555555
(1786376137.352172) can0 32D#0B00020101000000
(1786376137.352460) can0 33D#0000FFFFFFFFFFFF
(1786376137.371970) can0 39D#AC030801
(1786376137.391812) can0 39D#AD040801
(1786376137.431886) can0 39D#AE050801
(1786376137.471974) can0 33D#0000FFFFFFFFFFFF
(1786376137.472418) can0 39D#AF060801
(1786376137.511774) can0 39D#B0070801
(1786376137.551757) can0 33D#0000FFFFFFFFFFFF
(1786376137.571976) can0 39D#B1080801
(1786376137.591980) can0 39D#B2090801
(1786376137.631979) can0 39D#B30A0801
(1786376137.671915) can0 33D#0000FFFFFFFFFFFF
(1786376137.672307) can0 39D#B40B0801
(1786376137.711825) can0 39D#B50C0801
(1786376137.751837) can0 33D#0000FFFFFFFFFFFF
(1786376137.771851) can0 39D#B60D0801
(1786376137.791771) can0 39D#B70E0801
(1786376137.831762) can0 39D#B80F0801
(1786376137.871745) can0 33D#0000FFFFFFFFFFFF
(1786376137.872066) can0 39D#A9000801
(1786376137.911833) can0 39D#AA010801
(1786376137.951824) can0 33D#0000FFFFFFFFFFFF
(1786376137.971909) can0 39D#AB020801
(1786376137.991795) can0 39D#AC030801
(1786376138.031907) can0 39D#AD040801
(1786376138.071853) can0 33D#0000FFFFFFFFFFFF
(1786376138.072258) can0 39D#AE050801
(1786376138.111729) can0 39D#AF060801
(1786376138.151741) can0 33D#0000FFFFFFFFFFFF
(1786376138.171946) can0 39D#B0070801
(1786376138.197253) can0 39D#B1080801
(1786376138.263396) can0 39D#B2090801
(1786376138.271806) can0 33D#0000FFFFFFFFFFFF
(1786376138.272167) can0 39D#B30A0801
(1786376138.311696) can0 39D#B40B0801
(1786376138.351828) can0 35D#0256555555555555
(1786376138.352292) can0 33D#0000FFFFFFFFFFFF
(1786376138.371888) can0 39D#B50C0801
(1786376138.392025) can0 39D#B60D0801
(1786376138.431753) can0 39D#B70E0801
(1786376138.471669) can0 33D#0000FFFFFFFFFFFF
(1786376138.471909) can0 39D#B80F0801
(1786376138.511734) can0 39D#A9000801
(1786376138.551766) can0 33D#0000FFFFFFFFFFFF
(1786376138.571881) can0 39D#AA010801
(1786376138.592087) can0 39D#AB020801
(1786376138.631861) can0 39D#AC030801
(1786376138.671874) can0 33D#0000FFFFFFFFFFFF
(1786376138.672353) can0 39D#AD040801
(1786376138.711842) can0 39D#AE050801
(1786376138.751814) can0 33D#0000FFFFFFFFFFFF
(1786376138.771878) can0 39D#AF060801
(1786376138.791633) can0 39D#B0070801
(1786376138.831740) can0 39D#B1080801
(1786376138.871847) can0 33D#0000FFFFFFFFFFFF
(1786376138.872189) can0 39D#B2090801
(1786376138.911833) can0 39D#B30A0801
(1786376138.951808) can0 33D#0000FFFFFFFFFFFF
(1786376138.971901) can0 39D#B40B0801
(1786376138.991815) can0 39D#B50C0801
(1786376139.031911) can0 39D#B60D0801
(1786376139.071989) can0 33D#0000FFFFFFFFFFFF
(1786376139.072411) can0 39D#B70E0801
(1786376139.111806) can0 39D#B80F0801
(1786376139.151796) can0 33D#0000FFFFFFFFFFFF
(1786376139.171861) can0 39D#A9000801
(1786376139.191988) can0 39D#AA010801
(1786376139.231968) can0 39D#AB020801
(1786376139.271858) can0 33D#0000FFFFFFFFFFFF
(1786376139.272216) can0 39D#AC030801
(1786376139.311810) can0 39D#AD040801
(1786376139.351755) can0 35D#0355555555555555
(1786376139.352172) can0 32D#0D0000008D792021
(1786376139.352517) can0 33D#0000FFFFFFFFFFFF
(1786376139.371979) can0 39D#AE050801
(1786376139.391799) can0 39D#AF060801
(1786376139.431811) can0 39D#B0070801
(1786376139.471842) can0 33D#0000FFFFFFFFFFFF
(1786376139.472294) can0 39D#B1080801
(1786376139.511798) can0 39D#B2090801
(1786376139.551739) can0 33D#0000FFFFFFFFFFFF
(1786376139.571855) can0 39D#B30A0801
(1786376139.591918) can0 39D#B40B0801
(1786376139.631866) can0 39D#B50C0801
(1786376139.671964) can0 33D#0000FFFFFFFFFFFF
(1786376139.672405) can0 39D#B60D0801
(1786376139.711861) can0 39D#B70E0801
(1786376139.751732) can0 33D#0000FFFFFFFFFFFF
(1786376139.772001) can0 39D#B80F0801
(1786376139.791837) can0 39D#A9000801
(1786376139.831810) can0 39D#AA010801
(1786376139.871743) can0 33D#0000FFFFFFFFFFFF
(1786376139.872082) can0 39D#AB020801
(1786376139.911709) can0 39D#AC030801
(1786376139.951761) can0 33D#0000FFFFFFFFFFFF
(1786376139.971831) can0 39D#AD040801
(1786376139.991765) can0 39D#AE050801
(1786376140.031667) can0 39D#AF060801
(1786376140.071779) can0 33D#0000FFFFFFFFFFFF
(1786376140.072064) can0 39D#B0070801
(1786376140.111853) can0 39D#B1080801
(1786376140.151795) can0 33D#0000FFFFFFFFFFFF
(1786376140.171880) can0 39D#B2090801
(1786376140.191906) can0 39D#B30A0801
(1786376140.231986) can0 39D#B40B0801
(1786376140.271818) can0 33D#0000FFFFFFFFFFFF
(1786376140.272164) can0 39D#B50C0801
(1786376140.311790) can0 39D#B60D0801
(1786376140.351712) can0 35D#0455555555555555
(1786376140.352090) can0 33D#0000FFFFFFFFFFFF
(1786376140.371931) can0 39D#B70E0801
(1786376140.391759) can0 39D#B80F0801
(1786376140.431838) can0 39D#A9000801
(1786376140.471716) can0 33D#0000FFFFFFFFFFFF
(1786376140.472099) can0 39D#AA010801
(1786376140.511720) can0 39D#AB020801
(1786376140.551783) can0 33D#0000FFFFFFFFFFFF
(1786376140.571895) can0 39D#AC030801
(1786376140.591700) can0 39D#AD040801
(1786376140.631751) can0 39D#AE050801
(1786376140.671910) can0 33D#0000FFFFFFFFFFFF
(1786376140.672285) can0 39D#AF060801
(1786376140.711947) can0 39D#B0070801
(1786376140.751850) can0 33D#0000FFFFFFFFFFFF
(1786376140.771890) can0 39D#B1080801
(1786376140.791866) can0 39D#B2090801
(1786376140.831748) can0 39D#B30A0801
(1786376140.871751) can0 33D#0000FFFFFFFFFFFF
(1786376140.872019) can0 39D#B40B0801
(1786376140.911791) can0 39D#B50C0801
(1786376140.951759) can0 33D#0000FFFFFFFFFFFF
(1786376140.971868) can0 39D#B60D0801
(1786376140.991753) can0 39D#B70E0801
(1786376141.031834) can0 39D#B80F0801
(1786376141.071823) can0 33D#0000FFFFFFFFFFFF
(1786376141.072249) can0 39D#A9000801
(1786376141.111813) can0 39D#AA010801
(1786376141.151795) can0 33D#0000FFFFFFFFFFFF
(1786376141.171991) can0 39D#AB020801
(1786376141.192001) can0 39D#AC030801
(1786376141.231899) can0 39D#AD040801
(1786376141.271846) can0 33D#0000FFFFFFFFFFFF
(1786376141.272214) can0 39D#AE050801
(1786376141.311842) can0 39D#AF060801
(1786376141.351782) can0 35D#0555555555555555
(1786376141.352179) can0 32D#1405000060FCB070
(1786376141.352536) can0 33D#0000FFFFFFFFFFFF
(1786376141.371887) can0 39D#B0070801
(1786376141.391945) can0 39D#B1080801
(1786376141.432002) can0 39D#B2090801
(1786376141.471648) can0 33D#0000FFFFFFFFFFFF
(1786376141.471948) can0 39D#B30A0801
(1786376141.511763) can0 39D#B40B0801
(1786376141.551757) can0 33D#0000FFFFFFFFFFFF
(1786376141.572050) can0 39D#B50C0801
(1786376141.591809) can0 39D#B60D0801
(1786376141.631691) can0 39D#B70E0801
(1786376141.671848) can0 33D#0000FFFFFFFFFFFF
(1786376141.672260) can0 39D#B80F0801
(1786376141.711881) can0 39D#A9000801
(1786376141.751832) can0 33D#0000FFFFFFFFFFFF
(1786376141.771984) can0 39D#AA010801
(1786376141.791851) can0 39D#AB020801
(1786376141.831729) can0 39D#AC030801
(1786376141.871725) can0 33D#0000FFFFFFFFFFFF
(1786376141.872029) can0 39D#AD040801
(1786376141.911706) can0 39D#AE050801
(1786376141.951777) can0 33D#0000FFFFFFFFFFFF
(1786376141.971805) can0 39D#AF060801
(1786376141.991747) can0 39D#B0070801
(1786376142.031847) can0 39D#B1080801
(1786376142.071762) can0 33D#0000FFFFFFFFFFFF
(1786376142.072097) can0 39D#B2090801
(1786376142.111844) can0 39D#B30A0801
(1786376142.151756) can0 33D#0000FFFFFFFFFFFF
(1786376142.171857) can0 39D#B40B0801
(1786376142.191657) can0 39D#B50C0801
(1786376142.231666) can0 39D#B60D0801
(1786376142.271675) can0 33D#0000FFFFFFFFFFFF
(1786376142.272006) can0 39D#B70E0801
(1786376142.311699) can0 39D#B80F0801
(1786376142.351715) can0 35D#0655555555555559
(1786376142.351976) can0 33D#0000FFFFFFFFFFFF
(1786376142.371882) can0 39D#A9000801
(1786376142.391850) can0 39D#AA010801
(1786376142.431825) can0 39D#AB020801
(1786376142.471799) can0 33D#0000FFFFFFFFFFFF
(1786376142.472159) can0 39D#AC030801
(1786376142.511778) can0 39D#AD040801
(1786376142.551787) can0 33D#0000FFFFFFFFFFFF
(1786376142.571936) can0 39D#AE050801
(1786376142.591781) can0 39D#AF060801
(1786376142.631846) can0 39D#B0070801
(1786376142.671936) can0 33D#0000FFFFFFFFFFFF
(1786376142.672423) can0 39D#B1080801
(1786376142.711762) can0 39D#B2090801
(1786376142.751728) can0 33D#0000FFFFFFFFFFFF
(1786376142.771930) can0 39D#B30A0801
(1786376142.791743) can0 39D#B40B0801
(1786376142.831751) can0 39D#B50C0801
(1786376142.871823) can0 33D#0000FFFFFFFFFFFF
(1786376142.872276) can0 39D#B60D0801
(1786376142.911823) can0 39D#B70E0801
(1786376142.951908) can0 33D#0000FFFFFFFFFFFF
(1786376142.971903) can0 39D#B80F0801
(1786376142.991978) can0 39D#A9000801
(1786376143.031792) can0 39D#AA010801
(1786376143.071792) can0 33D#0000FFFFFFFFFFFF
(1786376143.072127) can0 39D#AB020801
(1786376143.111890) can0 39D#AC030801
(1786376143.151872) can0 33D#0000FFFFFFFFFFFF
(1786376143.171973) can0 39D#AD040801
(1786376143.192029) can0 39D#AE050801
(1786376143.231843) can0 39D#AF060801
(1786376143.271798) can0 33D#0000FFFFFFFFFFFF
(1786376143.272214) can0 39D#B0070801
(1786376143.311796) can0 39D#B1080801
(1786376143.351800) can0 35D#0755556555150000
(1786376143.352163) can0 32D#16000000E4ACA32F
(1786376143.352466) can0 33D#0000FFFFFFFFFFFF
(1786376143.371917) can0 39D#B2090801
(1786376143.391918) can0 39D#B30A0801
