(1786376515.110572) can0 33D#0000FFFFFFFFFFFF
(1786376515.201395) can0 39D#A2010001
(1786376515.220886) can0 39D#A3020001
(1786376515.260982) can0 5BD#3840010000000000
(1786376515.280536) can0 39D#A4030001
(1786376515.300919) can0 33D#0000FFFFFFFFFFFF
(1786376515.301226) can0 39D#A5040001
(1786376515.340850) can0 39D#A6050001
(1786376515.380922) can0 33D#0000FFFFFFFFFFFF
(1786376515.401095) can0 39D#A7060001
(1786376515.420955) can0 39D#A8070001
(1786376515.460892) can0 39D#A9080001
(1786376515.500903) can0 33D#0000FFFFFFFFFFFF
(1786376515.501211) can0 39D#AA090001
(1786376515.540996) can0 39D#AB0A0001
(1786376515.580910) can0 33D#0000FFFFFFFFFFFF
(1786376515.601050) can0 39D#AC0B0001
(1786376515.620911) can0 39D#AD0C0001
(1786376515.660871) can0 39D#AE0D0001
(1786376515.700915) can0 33D#0000FFFFFFFFFFFF
(1786376515.701216) can0 39D#AF0E0001
(1786376515.819711) can0 39D#B00F0001
(1786376515.820106) can0 33D#0000FFFFFFFFFFFF
(1786376515.820464) can0 39D#A1000001
(1786376515.820918) can0 39D#A2010001
(1786376515.861006) can0 39D#A3020001
(1786376515.901040) can0 33D#0000FFFFFFFFFFFF
(1786376515.901452) can0 39D#A4030001
(1786376515.941022) can0 39D#B5041001
(1786376515.980931) can0 33D#0000FFFFFFFFFFFF
(1786376516.001382) can0 39D#B6051001
(1786376516.020999) can0 39D#B7061001
(1786376516.061046) can0 39D#B8071001
(1786376516.101139) can0 33D#0000FFFFFFFFFFFF
(1786376516.101518) can0 39D#B9081001
(1786376516.140979) can0 39D#BA091001
(1786376516.180991) can0 35D#0055555555555555
(1786376516.181281) can0 33D#0000FFFFFFFFFFFF
(1786376516.201135) can0 39D#BB0A1001
(1786376516.221007) can0 39D#BC0B1001
(1786376516.261290) can0 39D#AD0C0001
(1786376516.300952) can0 33D#0000FFFFFFFFFFFF
(1786376516.301421) can0 39D#AE0D0001
(1786376516.340935) can0 39D#AF0E0001
(1786376516.380971) can0 33D#0000FFFFFFFFFFFF
(1786376516.401393) can0 39D#B00F0001
(1786376516.420989) can0 39D#A1000001
(1786376516.461027) can0 39D#A2010001
(1786376516.501034) can0 33D#0000FFFFFFFFFFFF
(1786376516.501416) can0 39D#A3020001
(1786376516.541065) can0 39D#A4030001
(1786376516.581030) can0 33D#0000FFFFFFFFFFFF
(1786376516.601452) can0 39D#A5040001
(1786376516.620903) can0 30D#0E0060504D542207
(1786376516.651398) can0 39D#A6050001
(1786376516.661227) can0 39D#A7060001
(1786376516.701243) can0 33D#0000FFFFFFFFFFFF
(1786376516.701504) can0 39D#A8070001
(1786376516.741324) can0 39D#A9080001
(1786376516.780966) can0 33D#0000FFFFFFFFFFFF
(1786376516.801411) can0 39D#AA090001
(1786376516.821298) can0 39D#AB0A0001
(1786376516.861008) can0 39D#AC0B0001
(1786376516.901363) can0 33D#0000FFFFFFFFFFFF
(1786376516.901794) can0 39D#AD0C0001
(1786376516.940982) can0 39D#AE0D0001
(1786376516.980951) can0 33D#0000FFFFFFFFFFFF
(1786376517.001422) can0 39D#AF0E0001
(1786376517.021009) can0 39D#B00F0001
(1786376517.061064) can0 39D#A1000001
(1786376517.101005) can0 33D#0000FFFFFFFFFFFF
(1786376517.101359) can0 39D#A2010001
(1786376517.140963) can0 39D#A3020001
(1786376517.180936) can0 35D#0155555555555555
(1786376517.181255) can0 32D#0A01000000007000
(1786376517.181488) can0 33D#0000FFFFFFFFFFFF
(1786376517.201343) can0 39D#A4030001
(1786376517.221044) can0 39D#A5040001
(1786376517.261380) can0 39D#AE050801
(1786376517.300987) can0 33D#0000FFFFFFFFFFFF
(1786376517.301426) can0 3AD#1500002004000010
(1786376517.311412) can0 39D#AF060801
(1786376517.341353) can0 39D#B0070801
(1786376517.381315) can0 33D#0000FFFFFFFFFFFF
(1786376517.401467) can0 39D#B1080801
(1786376517.421031) can0 39D#B2090801
(1786376517.461263) can0 39D#B30A0801
(1786376517.501075) can0 33D#0000FFFFFFFFFFFF
(1786376517.501429) can0 39D#B40B0801
(1786376517.541001) can0 39D#B50C0801
(1786376517.581029) can0 33D#0000FFFFFFFFFFFF
(1786376517.601389) can0 39D#B60D0801
(1786376517.621018) can0 39D#B70E0801
(1786376517.661018) can0 39D#B80F0801
(1786376517.700941) can0 33D#0000FFFFFFFFFFFF
(1786376517.701358) can0 39D#A9000801
(1786376517.741076) can0 39D#AA010801
(1786376517.781021) can0 33D#0000FFFFFFFFFFFF
(1786376517.801375) can0 39D#AB020801
(1786376517.821144) can0 39D#AC030801
(1786376517.861019) can0 39D#AD040801
(1786376517.901037) can0 33D#0000FFFFFFFFFFFF
(1786376517.901400) can0 39D#AE050801
(1786376517.940957) can0 39D#AF060801
(1786376517.981343) can0 33D#0000FFFFFFFFFFFF
(1786376518.001356) can0 39D#B0070801
(1786376518.021020) can0 39D#B1080801
(1786376518.060991) can0 39D#B2090801
(1786376518.101001) can0 33D#0000FFFFFFFFFFFF
(1786376518.101388) can0 39D#B30A0801
(1786376518.140947) can0 39D#B40B0801
(1786376518.181041) can0 35D#0256555555555555
(1786376518.181418) can0 5BD#B240010000000000
(1786376518.200964) can0 33D#0000FFFFFFFFFFFF
(1786376518.201403) can0 39D#B50C0801
(1786376518.221091) can0 39D#B60D0801
(1786376518.260990) can0 39D#B70E0801
(1786376518.301063) can0 33D#0000FFFFFFFFFFFF
(1786376518.301439) can0 39D#B80F0801
(1786376518.340951) can0 39D#A9000801
(1786376518.381219) can0 5BD#D440010000000000
(1786376518.400927) can0 33D#0000FFFFFFFFFFFF
(1786376518.401353) can0 39D#AA010801
(1786376518.421001) can0 39D#AB020801
(1786376518.460995) can0 39D#AC030801
(1786376518.500969) can0 33D#0000FFFFFFFFFFFF
(1786376518.501328) can0 39D#AD040801
(1786376518.541049) can0 39D#AE050801
(1786376518.581016) can0 5BD#D540010000000000
(1786376518.600995) can0 33D#0000FFFFFFFFFFFF
(1786376518.601529) can0 39D#AF060801
(1786376518.621002) can0 39D#B0070801
(1786376518.660994) can0 39D#B1080801
(1786376518.700942) can0 33D#0000FFFFFFFFFFFF
(1786376518.701320) can0 39D#B2090801
(1786376518.740996) can0 39D#B30A0801
(1786376518.781148) can0 5BD#D640010000000000
(1786376518.800971) can0 33D#0000FFFFFFFFFFFF
(1786376518.801414) can0 39D#B40B0801
(1786376518.820967) can0 39D#B50C0801
(1786376518.861009) can0 39D#B60D0801
(1786376518.900956) can0 33D#0000FFFFFFFFFFFF
(1786376518.901332) can0 39D#B70E0801
(1786376518.940939) can0 39D#B80F0801
(1786376518.980985) can0 33D#0000FFFFFFFFFFFF
(1786376519.001420) can0 39D#A9000801
(1786376519.021117) can0 39D#AA010801
(1786376519.061203) can0 39D#AB020801
(1786376519.100990) can0 33D#0000FFFFFFFFFFFF
(1786376519.101404) can0 39D#AC030801
(1786376519.140950) can0 39D#AD040801
(1786376519.181187) can0 35D#0355555555555555
(1786376519.181636) can0 32D#0B00020101000000
(1786376519.181956) can0 33D#0000FFFFFFFFFFFF
(1786376519.201054) can0 39D#AE050801
(1786376519.221277) can0 39D#AF060801
(1786376519.260967) can0 39D#B0070801
(1786376519.300981) can0 33D#0000FFFFFFFFFFFF
(1786376519.301351) can0 39D#B1080801
(1786376519.341037) can0 39D#B2090801
(1786376519.380976) can0 33D#0000FFFFFFFFFFFF
(1786376519.401298) can0 39D#B30A0801
(1786376519.420915) can0 39D#B40B0801
(1786376519.460912) can0 39D#B50C0801
(1786376519.500886) can0 33D#0000FFFFFFFFFFFF
(1786376519.501308) can0 39D#B60D0801
(1786376519.540964) can0 39D#B70E0801
(1786376519.581015) can0 33D#0000FFFFFFFFFFFF
(1786376519.601418) can0 39D#B80F0801
(1786376519.621032) can0 39D#A9000801
(1786376519.661251) can0 5BD#C140010000000000
(1786376519.701020) can0 39D#AA010801
(1786376519.701460) can0 33D#0000FFFFFFFFFFFF
(1786376519.701884) can0 39D#AB020801
(1786376519.740880) can0 39D#AC030801
(1786376519.780851) can0 33D#0000FFFFFFFFFFFF
(1786376519.801355) can0 39D#AD040801
(1786376519.820899) can0 39D#AE050801
(1786376519.860884) can0 39D#AF060801
(1786376519.900872) can0 33D#0000FFFFFFFFFFFF
(1786376519.901274) can0 39D#B0070801
(1786376519.940866) can0 39D#B1080801
(1786376519.981063) can0 33D#0000FFFFFFFFFFFF
(1786376520.001395) can0 39D#B2090801
(1786376520.021038) can0 39D#B30A0801
(1786376520.060964) can0 39D#B40B0801
(1786376520.101172) can0 33D#0000FFFFFFFFFFFF
(1786376520.101562) can0 39D#B50C0801
(1786376520.141034) can0 39D#B60D0801
(1786376520.181137) can0 35D#0455555555555555
(1786376520.181626) can0 33D#0000FFFFFFFFFFFF
(1786376520.201479) can0 39D#B70E0801
(1786376520.220990) can0 39D#B80F0801
(1786376520.260965) can0 39D#A9000801
(1786376520.300999) can0 33D#0000FFFFFFFFFFFF
(1786376520.301455) can0 39D#AA010801
(1786376520.341039) can0 39D#AB020801
(1786376520.381044) can0 33D#0000FFFFFFFFFFFF
(1786376520.401423) can0 39D#AC030801
(1786376520.420961) can0 39D#AD040801
(1786376520.460913) can0 39D#AE050801
(1786376520.500943) can0 33D#0000FFFFFFFFFFFF
(1786376520.501692) can0 39D#AF060801
(1786376520.540870) can0 39D#B0070801
(1786376520.581110) can0 33D#0000FFFFFFFFFFFF
(1786376520.601353) can0 39D#B1080801
(1786376520.620989) can0 39D#B2090801
(1786376520.661062) can0 39D#B30A0801
(1786376520.700902) can0 33D#0000FFFFFFFFFFFF
(1786376520.701427) can0 39D#B40B0801
(1786376520.740948) can0 39D#B50C0801
(1786376520.781246) can0 33D#0000FFFFFFFFFFFF
(1786376520.801516) can0 39D#B60D0801
(1786376520.821002) can0 39D#B70E0801
(1786376520.860907) can0 39D#B80F0801
(1786376520.900948) can0 33D#0000FFFFFFFFFFFF
(1786376520.901359) can0 39D#A9000801
(1786376520.941283) can0 39D#AA010801
(1786376520.980985) can0 33D#0000FFFFFFFFFFFF
(1786376521.001424) can0 39D#AB020801
(1786376521.020975) can0 39D#AC030801
(1786376521.060989) can0 39D#AD040801
(1786376521.100872) can0 33D#0000FFFFFFFFFFFF
(1786376521.101287) can0 39D#AE050801
(1786376521.140843) can0 39D#AF060801
(1786376521.181044) can0 35D#0555555555555555
(1786376521.181489) can0 32D#0D0000008D792021
(1786376521.181898) can0 33D#0000FFFFFFFFFFFF
(1786376521.201367) can0 39D#B0070801
(1786376521.220922) can0 39D#B1080801
(1786376521.261199) can0 39D#B2090801
(1786376521.300931) can0 33D#0000FFFFFFFFFFFF
(1786376521.301346) can0 39D#B30A0801
(1786376521.340947) can0 39D#B40B0801
(1786376521.380923) can0 33D#0000FFFFFFFFFFFF
(1786376521.400968) can0 39D#B50C0801
(1786376521.421167) can0 39D#B60D0801
(1786376521.461011) can0 39D#B70E0801
(1786376521.500953) can0 33D#0000FFFFFFFFFFFF
(1786376521.501330) can0 39D#B80F0801
(1786376521.540920) can0 39D#A9000801
(1786376521.580954) can0 33D#0000FFFFFFFFFFFF
(1786376521.601456) can0 39D#AA010801
(1786376521.620955) can0 39D#AB020801
(1786376521.660827) can0 3AD#4100002004000010
(1786376521.671068) can0 39D#AC030801
(1786376521.700956) can0 33D#0000FFFFFFFFFFFF
(1786376521.701342) can0 39D#AD040801
(1786376521.740865) can0 39D#AE050801
(1786376521.780676) can0 33D#0000FFFFFFFFFFFF
(1786376521.801034) can0 39D#AF060801
(1786376521.820937) can0 39D#B0070801
(1786376521.860811) can0 39D#B1080801
(1786376521.900998) can0 33D#0000FFFFFFFFFFFF
(1786376521.901439) can0 39D#B2090801
(1786376521.940761) can0 39D#B30A0801
(1786376521.980774) can0 33D#0000FFFFFFFFFFFF
(1786376522.000895) can0 39D#B40B0801
(1786376522.020788) can0 31D#4400300000020300
(1786376522.050925) can0 39D#B50C0801
(1786376522.060849) can0 33D#18000A0052515654
(1786376522.071325) can0 34D#0000280013286800
(1786376522.090894) can0 39D#B60D0801
(1786376522.100695) can0 33D#0000FFFFFFFFFFFF
(1786376522.101040) can0 36D#9D0000000040E785
(1786376522.110989) can0 37D#86000000005C9700
(1786376522.131122) can0 39D#B70E0801
(1786376522.140848) can0 38D#0000000070010000
(1786376522.151119) can0 39D#B80F0801
(1786376522.180868) can0 35D#0655556555555559
(1786376522.181279) can0 33D#0000FFFFFFFFFFFF
(1786376522.201033) can0 39D#A9000801
(1786376522.220828) can0 39D#AA010801
(1786376522.260826) can0 39D#AB020801
(1786376522.300799) can0 33D#0000FFFFFFFFFFFF
(1786376522.301169) can0 39D#AC030801
(1786376522.340814) can0 39D#AD040801
(1786376522.380993) can0 33D#0000FFFFFFFFFFFF
(1786376522.400872) can0 39D#AE050801
(1786376522.420911) can0 39D#AF060801
(1786376522.460860) can0 39D#B0070801
(1786376522.500935) can0 33D#0000FFFFFFFFFFFF
(1786376522.501256) can0 39D#B1080801
(1786376522.540795) can0 39D#B2090801
(1786376522.580911) can0 33D#0000FFFFFFFFFFFF
(1786376522.600953) can0 39D#B30A0801
(1786376522.620832) can0 39D#B40B0801
(1786376522.660868) can0 39D#B50C0801
(1786376522.700796) can0 33D#0000FFFFFFFFFFFF
(1786376522.701177) can0 39D#B60D0801
(1786376522.740813) can0 39D#B70E0801
(1786376522.780880) can0 33D#0000FFFFFFFFFFFF
(1786376522.800937) can0 39D#B80F0801
(1786376522.820805) can0 39D#A9000801
(1786376522.860879) can0 39D#AA010801
(1786376522.900886) can0 33D#0000FFFFFFFFFFFF
(1786376522.901233) can0 39D#AB020801
(1786376522.940806) can0 39D#AC030801
(1786376522.980979) can0 33D#0000FFFFFFFFFFFF
(1786376523.000992) can0 39D#AD040801
(1786376523.020849) can0 39D#AE050801
(1786376523.060817) can0 39D#AF060801
(1786376523.100824) can0 33D#0000FFFFFFFFFFFF
(1786376523.101184) can0 39D#B0070801
(1786376523.140861) can0 39D#B1080801
(1786376523.180748) can0 35D#07555555552A0000
(1786376523.181012) can0 32D#1405000060FCB070
(1786376523.181224) can0 33D#0000FFFFFFFFFFFF
(1786376523.200860) can0 39D#B2090801
(1786376523.220777) can0 39D#B30A0801
(1786376523.260865) can0 39D#B40B0801
(1786376523.300791) can0 33D#0000FFFFFFFFFFFF
(1786376523.301154) can0 39D#B50C0801
(1786376523.340757) can0 39D#B60D0801
(1786376523.380960) can0 33D#0000FFFFFFFFFFFF
(1786376523.400946) can0 39D#B70E0801
(1786376523.420864) can0 39D#B80F0801
(1786376523.460863) can0 39D#A9000801
(1786376523.500745) can0 33D#0000FFFFFFFFFFFF
(1786376523.501215) can0 39D#AA010801
(1786376523.540869) can0 39D#AB020801
(1786376523.580965) can0 33D#0000FFFFFFFFFFFF
(1786376523.600912) can0 39D#AC030801
(1786376523.620792) can0 39D#AD040801
(1786376523.660803) can0 39D#AE050801
(1786376523.700881) can0 33D#0000FFFFFFFFFFFF
(1786376523.701320) can0 39D#AF060801
(1786376523.740819) can0 39D#B0070801
(1786376523.780941) can0 33D#0000FFFFFFFFFFFF
(1786376523.800965) can0 39D#B1080801
(1786376523.820825) can0 39D#B2090801
(1786376523.860864) can0 39D#B30A0801
(1786376523.900924) can0 33D#0000FFFFFFFFFFFF
(1786376523.901318) can0 39D#B40B0801
(1786376523.940776) can0 39D#B50C0801
(1786376523.980913) can0 33D#0000FFFFFFFFFFFF
(1786376524.000970) can0 39D#B60D0801
(1786376524.020827) can0 39D#B70E0801
(1786376524.060764) can0 39D#B80F0801
(1786376524.100826) can0 33D#0000FFFFFFFFFFFF
(1786376524.101251) can0 39D#A9000801
(1786376524.140864) can0 39D#AA010801
(1786376524.180948) can0 35D#0055555555555555
(1786376524.181413) can0 33D#0000FFFFFFFFFFFF
(1786376524.200985) can0 39D#AB020801
(1786376524.220880) can0 39D#AC030801
(1786376524.260761) can0 39D#AD040801
(1786376524.300789) can0 33D#0000FFFFFFFFFFFF
(1786376524.301141) can0 39D#AE050801
(1786376524.340790) can0 39D#AF060801
(1786376524.380843) can0 33D#0000FFFFFFFFFFFF
(1786376524.400882) can0 39D#B0070801
(1786376524.420803) can0 39D#B1080801
(1786376524.460730) can0 39D#B2090801
(1786376524.500771) can0 33D#0000FFFFFFFFFFFF
(1786376524.501212) can0 39D#B30A0801
(1786376524.540805) can0 39D#B40B0801
(1786376524.580818) can0 33D#0000FFFFFFFFFFFF
(1786376524.600976) can0 39D#B50C0801
(1786376524.620800) can0 39D#B60D0801
(1786376524.660868) can0 39D#B70E0801
(1786376524.700819) can0 33D#0000FFFFFFFFFFFF
(1786376524.701160) can0 39D#B80F0801
(1786376524.740840) can0 39D#A9000801
(1786376524.780973) can0 33D#0000FFFFFFFFFFFF
(1786376524.800830) can0 39D#AA010801
(1786376524.820830) can0 39D#AB020801
(1786376524.860884) can0 39D#AC030801
(1786376524.900892) can0 33D#0000FFFFFFFFFFFF
(1786376524.901287) can0 39D#AD040801
(1786376524.940722) can0 39D#AE050801
(1786376524.980845) can0 33D#0000FFFFFFFFFFFF
(1786376525.000846) can0 39D#AF060801
(1786376525.020787) can0 39D#B0070801
(1786376525.060774) can0 39D#B1080801
(1786376525.100715) can0 33D#0000FFFFFFFFFFFF
(1786376525.101109) can0 39D#B2090801
(1786376525.140786) can0 39D#B30A0801
(1786376525.180940) can0 35D#0155555555555555
(1786376525.181316) can0 32D#16000000E4ACA32F
(1786376525.181683) can0 33D#0000FFFFFFFFFFFF
(1786376525.200951) can0 39D#B40B0801
(1786376525.220707) can0 39D#B50C0801
(1786376525.260818) can0 39D#B60D0801
(1786376525.300756) can0 33D#0000FFFFFFFFFFFF
(1786376525.301169) can0 39D#B70E0801
(1786376525.340803) can0 39D#B80F0801
(1786376525.380966) can0 33D#0000FFFFFFFFFFFF
(1786376525.400835) can0 39D#A9000801
(1786376525.420781) can0 39D#AA010801
(1786376525.460770) can0 39D#AB020801
(1786376525.500814) can0 33D#0000FFFFFFFFFFFF
(1786376525.501156) can0 39D#AC030801
(1786376525.540780) can0 39D#AD040801
(1786376525.580905) can0 33D#0000FFFFFFFFFFFF
(1786376525.600812) can0 39D#AE050801
(1786376525.620697) can0 39D#AF060801
(1786376525.660736) can0 39D#B0070801
(1786376525.700717) can0 33D#0000FFFFFFFFFFFF
(1786376525.701128) can0 39D#B1080801
(1786376525.740751) can0 39D#B2090801
(1786376525.780772) can0 33D#0000FFFFFFFFFFFF
(1786376525.800828) can0 39D#B30A0801
(1786376525.820898) can0 39D#B40B0801
(1786376525.860878) can0 39D#B50C0801
(1786376525.900826) can0 33D#0000FFFFFFFFFFFF
(1786376525.901158) can0 39D#B60D0801
(1786376525.940818) can0 39D#B70E0801
(1786376525.980940) can0 33D#0000FFFFFFFFFFFF
(1786376526.000968) can0 39D#B80F0801
(1786376526.020754) can0 39D#A9000801
(1786376526.060735) can0 39D#AA010801
(1786376526.100836) can0 33D#0000FFFFFFFFFFFF
(1786376526.101266) can0 39D#AB020801
(1786376526.140771) can0 39D#AC030801
(1786376526.180836) can0 35D#0256555555555555
(1786376526.181282) can0 33D#0000FFFFFFFFFFFF
(1786376526.200917) can0 39D#AD040801
(1786376526.220814) can0 39D#AE050801
(1786376526.260753) can0 39D#AF060801
(1786376526.300864) can0 33D#0000FFFFFFFFFFFF
(1786376526.301317) can0 39D#B0070801
(1786376526.340795) can0 39D#B1080801
(1786376526.380925) can0 33D#0000FFFFFFFFFFFF
(1786376526.400788) can0 39D#B2090801
(1786376526.420849) can0 39D#B30A0801
(1786376526.460724) can0 39D#B40B0801
(1786376526.500878) can0 33D#0000FFFFFFFFFFFF
(1786376526.501302) can0 39D#B50C0801
(1786376526.540816) can0 39D#B60D0801
(1786376526.580985) can0 33D#0000FFFFFFFFFFFF
(1786376526.600861) can0 39D#B70E0801
(1786376526.620747) can0 39D#B80F0801
(1786376526.660661) can0 39D#A9000801
(1786376526.700856) can0 33D#0000FFFFFFFFFFFF
(1786376526.701309) can0 39D#AA010801
(1786376526.740748) can0 39D#AB020801
(1786376526.780883) can0 33D#0000FFFFFFFFFFFF
(1786376526.801004) can0 39D#AC030801
(1786376526.820742) can0 39D#AD040801
(1786376526.860804) can0 39D#AE050801
(1786376526.900936) can0 33D#0000FFFFFFFFFFFF
(1786376526.901334) can0 39D#AF060801
(1786376526.940751) can0 39D#B0070801
(1786376526.980667) can0 33D#0000FFFFFFFFFFFF
(1786376527.000826) can0 39D#B1080801
(1786376527.020704) can0 39D#B2090801
(1786376527.060741) can0 39D#B30A0801
(1786376527.100772) can0 33D#0000FFFFFFFFFFFF
(1786376527.101158) can0 39D#B40B0801
(1786376527.140718) can0 39D#B50C0801
(1786376527.180885) can0 35D#0355555555555555
(1786376527.181322) can0 32D#0A01000000007000
(1786376527.181758) can0 33D#0000FFFFFFFFFFFF
(1786376527.200879) can0 39D#B60D0801
(1786376527.220713) can0 39D#B70E0801
(1786376527.260717) can0 39D#B80F0801
(1786376527.300774) can0 33D#0000FFFFFFFFFFFF
(1786376527.301193) can0 39D#A9000801
(1786376527.340697) can0 39D#AA010801
(1786376527.380912) can0 33D#0000FFFFFFFFFFFF
(1786376527.400864) can0 39D#AB020801
(1786376527.420735) can0 39D#AC030801
(1786376527.460714) can0 39D#AD040801
(1786376527.500735) can0 33D#0000FFFFFFFFFFFF
(1786376527.501105) can0 39D#AE050801
(1786376527.540710) can0 39D#AF060801
(1786376527.580777) can0 33D#0000FFFFFFFFFFFF
(1786376527.600813) can0 39D#B0070801
(1786376527.620757) can0 39D#B1080801
(1786376527.660786) can0 39D#B2090801
(1786376527.700690) can0 33D#0000FFFFFFFFFFFF
(1786376527.701116) can0 39D#B30A0801
(1786376527.740688) can0 39D#B40B0801
(1786376527.780820) can0 33D#0000FFFFFFFFFFFF
(1786376527.800862) can0 39D#B50C0801
(1786376527.820750) can0 39D#B60D0801
(1786376527.860686) can0 39D#B70E0801
(1786376527.900865) can0 33D#0000FFFFFFFFFFFF
(1786376527.901337) can0 39D#B80F0801
(1786376527.940709) can0 39D#39009801
(1786376527.981016) can0 33D#0000FFFFFFFFFFFF
(1786376528.001339) can0 39D#5B01B802
(1786376528.020838) can0 39D#2E028804
(1786376528.061075) can0 39D#C1031806
(1786376528.101166) can0 33D#0000FFFFFFFFFFFF
(1786376528.101513) can0 39D#6204B806
(1786376528.141090) can0 39D#43059806
(1786376528.180834) can0 35D#0455555555555555
(1786376528.181163) can0 33D#0000FFFFFFFFFFFF
(1786376528.201231) can0 39D#34068806
(1786376528.220869) can0 39D#7507C806
(1786376528.260854) can0 39D#C7081807
(1786376528.301198) can0 33D#0000FFFFFFFFFFFF
(1786376528.301601) can0 39D#38098807
(1786376528.340833) can0 39D#FA0A4808
(1786376528.380901) can0 33D#0000FFFFFFFFFFFF
(1786376528.401405) can0 39D#0C0B5809
(1786376528.421112) can0 39D#3E0C880A
(1786376528.460838) can0 39D#500D980B
(1786376528.501001) can0 33D#0000FFFFFFFFFFFF
(1786376528.501494) can0 39D#420E880C
(1786376528.540816) can0 39D#440F880D
(1786376528.581166) can0 33D#0000FFFFFFFFFFFF
(1786376528.601272) can0 39D#6600B80E
(1786376528.621146) can0 39D#E9013810
(1786376528.660760) can0 39D#3B028811
(1786376528.701215) can0 33D#0000FFFFFFFFFFFF
(1786376528.701767) can0 39D#2D037812
(1786376528.741092) can0 39D#5E04A812
(1786376528.781071) can0 33D#0000FFFFFFFFFFFF
(1786376528.801324) can0 39D#5F05A812
(1786376528.820820) can0 39D#6006A812
(1786376528.861072) can0 39D#6107A812
(1786376528.900892) can0 33D#0000FFFFFFFFFFFF
(1786376528.901478) can0 39D#6208A812
(1786376528.940770) can0 39D#8309C812
(1786376528.980866) can0 33D#0000FFFFFFFFFFFF
(1786376529.001400) can0 39D#B40AF812
(1786376529.021106) can0 39D#360B7813
(1786376529.061063) can0 39D#F80C3814
(1786376529.100821) can0 33D#0000FFFFFFFFFFFF
(1786376529.101243) can0 39D#0A0D4815
(1786376529.140791) can0 39D#FC0E3816
(1786376529.180810) can0 35D#0555555555555555
(1786376529.181166) can0 32D#0B00020101000000
(1786376529.181517) can0 33D#0000FFFFFFFFFFFF
(1786376529.201295) can0 39D#6D0FA816
(1786376529.220836) can0 39D#6E00B816
(1786376529.260907) can0 39D#6F01B816
(1786376529.301121) can0 33D#0000FFFFFFFFFFFF
(1786376529.301496) can0 39D#7002B816
(1786376529.340799) can0 39D#7103B816
(1786376529.381108) can0 33D#0000FFFFFFFFFFFF
(1786376529.401145) can0 39D#8204C816
(1786376529.420793) can0 39D#C4050817
(1786376529.461067) can0 39D#25066817
(1786376529.501161) can0 33D#0000FFFFFFFFFFFF
(1786376529.501501) can0 39D#A607E817
(1786376529.541143) can0 39D#18085818
(1786376529.581103) can0 33D#0000FFFFFFFFFFFF
(1786376529.601251) can0 39D#29096818
(1786376529.620762) can0 39D#2A0A6818
(1786376529.661058) can0 39D#1B0B5818
(1786376529.700769) can0 33D#0000FFFFFFFFFFFF
(1786376529.701115) can0 39D#0C0C4818
(1786376529.740771) can0 39D#0D0D4818
(1786376529.780875) can0 33D#0000FFFFFFFFFFFF
(1786376529.801256) can0 39D#FE0E3818
(1786376529.820771) can0 39D#FF0F3818
(1786376529.861028) can0 39D#F0003818
(1786376529.900707) can0 33D#0000FFFFFFFFFFFF
(1786376529.901117) can0 39D#F1013818
(1786376529.940785) can0 39D#F2023818
(1786376529.980851) can0 33D#0000FFFFFFFFFFFF
(1786376530.001157) can0 39D#F3033818
(1786376530.021011) can0 39D#F4043818
(1786376530.060766) can0 39D#F5053818
(1786376530.100711) can0 33D#0000FFFFFFFFFFFF
(1786376530.101142) can0 39D#F6063818
(1786376530.140757) can0 39D#E7072818
(1786376530.180730) can0 35D#0655556555555559
(1786376530.181062) can0 33D#0000FFFFFFFFFFFF
(1786376530.201180) can0 39D#E8082818
(1786376530.220714) can0 39D#E9092818
(1786376530.260709) can0 39D#DA0A1818
(1786376530.301017) can0 33D#0000FFFFFFFFFFFF
(1786376530.301247) can0 39D#CB0B0818
(1786376530.341100) can0 39D#BB0CF817
(1786376530.380760) can0 33D#0000FFFFFFFFFFFF
(1786376530.401357) can0 39D#AC0DE817
(1786376530.421064) can0 39D#9D0ED817
(1786376530.461060) can0 39D#8E0FC817
(1786376530.500765) can0 33D#0000FFFFFFFFFFFF
(1786376530.501174) can0 39D#5F00A817
(1786376530.540767) can0 39D#40018817
(1786376530.581180) can0 33D#0000FFFFFFFFFFFF
(1786376530.601207) can0 39D#11025817
(1786376530.621085) can0 39D#F2033817
(1786376530.661106) can0 39D#C3040817
(1786376530.700795) can0 33D#0000FFFFFFFFFFFF
(1786376530.701217) can0 39D#9305D816
(1786376530.740715) can0 39D#6406A816
(1786376530.780900) can0 33D#0000FFFFFFFFFFFF
(1786376530.801231) can0 39D#45078816
(1786376530.820732) can0 39D#46088816
(1786376530.860693) can0 39D#8709C816
(1786376530.900743) can0 33D#0000FFFFFFFFFFFF
(1786376530.901227) can0 39D#D90A1817
(1786376530.941098) can0 39D#4A0B8817
(1786376530.981078) can0 33D#0000FFFFFFFFFFFF
(1786376531.001289) can0 39D#CC0C0818
(1786376531.021093) can0 39D#5D0D9818
(1786376531.061158) can0 39D#6E0EA818
(1786376531.101040) can0 33D#0000FFFFFFFFFFFF
(1786376531.101280) can0 39D#4F0F8818
(1786376531.140761) can0 39D#40008818
(1786376531.180759) can0 35D#07555555552A0000
(1786376531.181124) can0 32D#0D0000008D792021
(1786376531.181385) can0 33D#0000FFFFFFFFFFFF
(1786376531.201142) can0 39D#31017818
(1786376531.220754) can0 39D#32027818
(1786376531.261155) can0 39D#33037818
(1786376531.300747) can0 33D#0000FFFFFFFFFFFF
(1786376531.301168) can0 39D#34047818
(1786376531.340828) can0 39D#25056818
(1786376531.380759) can0 33D#0000FFFFFFFFFFFF
(1786376531.401189) can0 39D#16065818
(1786376531.420738) can0 39D#F7073818
(1786376531.460784) can0 39D#D8081818
(1786376531.500791) can0 33D#0000FFFFFFFFFFFF
(1786376531.501132) can0 39D#C9090818
(1786376531.540716) can0 39D#A90AE817
(1786376531.581058) can0 33D#0000FFFFFFFFFFFF
(1786376531.601175) can0 39D#8A0BC817
(1786376531.620773) can0 39D#6B0CA817
(1786376531.661061) can0 39D#4C0D8817
(1786376531.700749) can0 33D#0000FFFFFFFFFFFF
(1786376531.701205) can0 39D#2D0E6817
(1786376531.741036) can0 39D#2E0F6817
(1786376531.780990) can0 33D#0000FFFFFFFFFFFF
(1786376531.801153) can0 39D#1F006817
(1786376531.820685) can0 39D#20016817
(1786376531.860765) can0 39D#21026817
(1786376531.900759) can0 33D#0000FFFFFFFFFFFF
(1786376531.901206) can0 39D#42038817
(1786376531.940718) can0 39D#43048817
(1786376531.980774) can0 33D#0000FFFFFFFFFFFF
(1786376532.001095) can0 39D#54059817
(1786376532.020709) can0 39D#6506A817
(1786376532.061090) can0 39D#6607A817
(1786376532.100662) can0 33D#0000FFFFFFFFFFFF
(1786376532.101093) can0 39D#6708A817
(1786376532.141040) can0 39D#6809A817
(1786376532.180764) can0 35D#0055555555555555
(1786376532.181148) can0 33D#0000FFFFFFFFFFFF
(1786376532.201136) can0 39D#790AB817
(1786376532.220710) can0 39D#6A0BA817
(1786376532.260690) can0 39D#7B0CB817
(1786376532.300728) can0 33D#0000FFFFFFFFFFFF
(1786376532.301158) can0 39D#7C0DB817
(1786376532.340799) can0 39D#7D0EB817
(1786376532.380796) can0 33D#0000FFFFFFFFFFFF
(1786376532.401197) can0 39D#7E0FB817
(1786376532.420695) can0 39D#7F00C817
(1786376532.460799) can0 39D#8001C817
(1786376532.500723) can0 33D#0000FFFFFFFFFFFF
(1786376532.501137) can0 39D#8102C817
(1786376532.540674) can0 39D#8203C817
(1786376532.580706) can0 33D#0000FFFFFFFFFFFF
(1786376532.601130) can0 39D#8304C817
(1786376532.620660) can0 39D#8405C817
(1786376532.660727) can0 39D#8506C817
(1786376532.700684) can0 33D#0000FFFFFFFFFFFF
(1786376532.701068) can0 39D#8607C817
(1786376532.740958) can0 39D#8708C817
(1786376532.780948) can0 33D#0000FFFFFFFFFFFF
(1786376532.801110) can0 39D#8809C817
(1786376532.821017) can0 39D#890AC817
(1786376532.860705) can0 39D#8A0BC817
(1786376532.900654) can0 33D#0000FFFFFFFFFFFF
(1786376532.901090) can0 39D#8B0CC817
(1786376532.940726) can0 39D#8C0DC817
(1786376532.981096) can0 33D#0000FFFFFFFFFFFF
(1786376533.001142) can0 39D#8D0EC817
(1786376533.020679) can0 39D#8E0FC817
(1786376533.060698) can0 39D#7F00C817
(1786376533.100658) can0 33D#0000FFFFFFFFFFFF
(1786376533.101061) can0 39D#8001C817
(1786376533.140641) can0 39D#8102C817
(1786376533.180835) can0 35D#0155555555555555
(1786376533.181213) can0 32D#1405000060FCB070
(1786376533.181628) can0 33D#0000FFFFFFFFFFFF
(1786376533.201194) can0 39D#8203C817
(1786376533.220743) can0 39D#8304C817
(1786376533.260702) can0 39D#8405C817
(1786376533.300975) can0 33D#0000FFFFFFFFFFFF
(1786376533.301264) can0 39D#8506C817
(1786376533.340656) can0 39D#8607C817
(1786376533.380810) can0 33D#0000FFFFFFFFFFFF
(1786376533.401053) can0 39D#8708C817
(1786376533.420705) can0 39D#8809C817
(1786376533.461039) can0 39D#890AC817
(1786376533.500724) can0 33D#0000FFFFFFFFFFFF
(1786376533.501075) can0 39D#8A0BC817
(1786376533.540661) can0 39D#9B0CD817
(1786376533.580741) can0 33D#0000FFFFFFFFFFFF
(1786376533.601180) can0 39D#9C0DD817
(1786376533.620686) can0 39D#9D0ED817
(1786376533.660726) can0 39D#9E0FD817
(1786376533.700788) can0 33D#0000FFFFFFFFFFFF
(1786376533.701271) can0 39D#8F00D817
(1786376533.740679) can0 39D#9001D817
(1786376533.780968) can0 33D#0000FFFFFFFFFFFF
(1786376533.801128) can0 39D#A102E817
(1786376533.820656) can0 39D#A203E817
(1786376533.861006) can0 39D#A304E817
(1786376533.900709) can0 33D#0000FFFFFFFFFFFF
(1786376533.901085) can0 39D#A405E817
(1786376533.940683) can0 39D#A506E817
(1786376533.980708) can0 33D#0000FFFFFFFFFFFF
(1786376534.001226) can0 39D#A607E817
(1786376534.020676) can0 39D#A708E817
(1786376534.060650) can0 39D#A809E817
(1786376534.100689) can0 33D#0000FFFFFFFFFFFF
(1786376534.101097) can0 39D#A90AE817
(1786376534.140601) can0 39D#AA0BE817
(1786376534.180658) can0 35D#0256555555555555
(1786376534.181041) can0 33D#0000FFFFFFFFFFFF
(1786376534.201211) can0 39D#AB0CE817
(1786376534.220730) can0 39D#AC0DE817
(1786376534.260715) can0 39D#AD0EE817
(1786376534.300671) can0 33D#0000FFFFFFFFFFFF
(1786376534.301029) can0 39D#AE0FE817
(1786376534.340599) can0 39D#9F00E817
(1786376534.380680) can0 33D#0000FFFFFFFFFFFF
(1786376534.401095) can0 39D#A001E817
(1786376534.420710) can0 39D#A102E817
(1786376534.460983) can0 39D#A203E817
(1786376534.501017) can0 33D#0000FFFFFFFFFFFF
(1786376534.501351) can0 39D#A304E817
(1786376534.540980) can0 39D#A405E817
(1786376534.580715) can0 33D#0000FFFFFFFFFFFF
(1786376534.601060) can0 39D#A506E817
(1786376534.620613) can0 39D#A607E817
(1786376534.660931) can0 39D#A708E817
(1786376534.700971) can0 33D#0000FFFFFFFFFFFF
(1786376534.701277) can0 39D#A809E817
(1786376534.740609) can0 39D#A90AE817
(1786376534.780743) can0 33D#0000FFFFFFFFFFFF
(1786376534.801124) can0 39D#AA0BE817
(1786376534.820724) can0 39D#AB0CE817
(1786376534.860633) can0 39D#AC0DE817
(1786376534.900598) can0 33D#0000FFFFFFFFFFFF
(1786376534.901045) can0 39D#AD0EE817
(1786376534.940647) can0 39D#AE0FE817
(1786376534.980763) can0 33D#0000FFFFFFFFFFFF
(1786376535.001215) can0 39D#9F00E817
(1786376535.020925) can0 39D#A001E817
(1786376535.060657) can0 39D#A102E817
(1786376535.100671) can0 33D#0000FFFFFFFFFFFF
(1786376535.101113) can0 39D#A203E817
(1786376535.140665) can0 39D#A304E817
(1786376535.180989) can0 35D#0355555555555555
(1786376535.181408) can0 32D#16000000E4ACA32F
(1786376535.181779) can0 33D#0000FFFFFFFFFFFF
(1786376535.201029) can0 39D#A405E817
(1786376535.220615) can0 39D#A506E817
(1786376535.260596) can0 39D#A607E817
(1786376535.300595) can0 33D#0000FFFFFFFFFFFF
(1786376535.301077) can0 39D#A708E817
(1786376535.340626) can0 39D#A809E817
(1786376535.380642) can0 33D#0000FFFFFFFFFFFF
(1786376535.401027) can0 39D#A90AE817
(1786376535.420599) can0 39D#AA0BE817
(1786376535.460672) can0 39D#AB0CE817
(1786376535.500699) can0 33D#0000FFFFFFFFFFFF
(1786376535.501060) can0 39D#AC0DE817
(1786376535.540620) can0 39D#AD0EE817
(1786376535.580864) can0 33D#0000FFFFFFFFFFFF
(1786376535.601126) can0 39D#AE0FE817
(1786376535.620684) can0 39D#9F00E817
(1786376535.660660) can0 39D#A001E817
(1786376535.700649) can0 33D#0000FFFFFFFFFFFF
(1786376535.701094) can0 39D#A102E817
(1786376535.740622) can0 39D#A203E817
(1786376535.780683) can0 33D#0000FFFFFFFFFFFF
(1786376535.801053) can0 39D#A304E817
(1786376535.820677) can0 39D#A405E817
(1786376535.860686) can0 39D#A506E817
(1786376535.900647) can0 33D#0000FFFFFFFFFFFF
(1786376535.901020) can0 39D#A607E817
(1786376535.940627) can0 39D#A708E817
(1786376535.980657) can0 33D#0000FFFFFFFFFFFF
(1786376536.001119) can0 39D#A809E817
(1786376536.020695) can0 39D#A90AE817
(1786376536.060591) can0 39D#AA0BE817
(1786376536.100660) can0 33D#0000FFFFFFFFFFFF
(1786376536.101039) can0 39D#AB0CE817
(1786376536.140617) can0 39D#AC0DE817
(1786376536.180745) can0 35D#0455555555555555
(1786376536.181105) can0 33D#0000FFFFFFFFFFFF
(1786376536.201110) can0 39D#AD0EE817
(1786376536.220724) can0 39D#AE0FE817
(1786376536.260952) can0 39D#9F00E817
(1786376536.300600) can0 33D#0000FFFFFFFFFFFF
(1786376536.301040) can0 39D#A001E817
(1786376536.340642) can0 39D#A102E817
(1786376536.380718) can0 33D#0000FFFFFFFFFFFF
(1786376536.401053) can0 39D#A203E817
(1786376536.420925) can0 39D#A304E817
(1786376536.460690) can0 39D#A405E817
(1786376536.500636) can0 33D#0000FFFFFFFFFFFF
(1786376536.501011) can0 39D#A506E817
(1786376536.540675) can0 39D#A607E817
(1786376536.580676) can0 33D#0000FFFFFFFFFFFF
(1786376536.601136) can0 39D#A708E817
(1786376536.620639) can0 39D#A809E817
(1786376536.660656) can0 39D#A90AE817
(1786376536.700636) can0 33D#0000FFFFFFFFFFFF
(1786376536.701093) can0 39D#AA0BE817
(1786376536.740905) can0 39D#AB0CE817
(1786376536.780699) can0 33D#0000FFFFFFFFFFFF
(1786376536.801094) can0 39D#AC0DE817
(1786376536.820578) can0 39D#AD0EE817
(1786376536.860634) can0 39D#AE0FE817
(1786376536.900922) can0 33D#0000FFFFFFFFFFFF
(1786376536.901377) can0 39D#9F00E817
(1786376536.940651) can0 39D#A001E817
(1786376536.980657) can0 33D#0000FFFFFFFFFFFF
(1786376537.000976) can0 39D#A102E817
(1786376537.020625) can0 39D#A203E817
(1786376537.060752) can0 39D#A304E817
(1786376537.100623) can0 33D#0000FFFFFFFFFFFF
(1786376537.101018) can0 39D#A405E817
(1786376537.140633) can0 39D#A506E817
(1786376537.180660) can0 35D#0555555555555555
(1786376537.181125) can0 32D#0A01000000007000
(1786376537.181540) can0 33D#0000FFFFFFFFFFFF
(1786376537.201016) can0 39D#A607E817
(1786376537.220669) can0 39D#A708E817
(1786376537.260576) can0 39D#A809E817
(1786376537.300865) can0 33D#0000FFFFFFFFFFFF
(1786376537.301137) can0 39D#A90AE817
(1786376537.340618) can0 39D#AA0BE817
(1786376537.380701) can0 33D#0000FFFFFFFFFFFF
(1786376537.401070) can0 39D#AB0CE817
(1786376537.420672) can0 39D#AC0DE817
(1786376537.460929) can0 39D#AD0EE817
(1786376537.500806) can0 33D#0000FFFFFFFFFFFF
(1786376537.501189) can0 39D#AE0FE817
(1786376537.540643) can0 39D#9F00E817
(1786376537.580720) can0 33D#0000FFFFFFFFFFFF
(1786376537.601032) can0 39D#A001E817
(1786376537.620615) can0 39D#A102E817
(1786376537.660635) can0 39D#A203E817
(1786376537.700675) can0 33D#0000FFFFFFFFFFFF
(1786376537.701050) can0 39D#A304E817
(1786376537.740575) can0 39D#A405E817
(1786376537.780843) can0 33D#0000FFFFFFFFFFFF
(1786376537.801076) can0 39D#A506E817
(1786376537.820594) can0 39D#A607E817
(1786376537.860634) can0 39D#A708E817
(1786376537.900879) can0 33D#0000FFFFFFFFFFFF
(1786376537.901263) can0 39D#A809E817
(1786376537.940654) can0 39D#A90AE817
(1786376537.980928) can0 33D#0000FFFFFFFFFFFF
(1786376538.000997) can0 39D#AA0BE817
(1786376538.020566) can0 39D#AB0CE817
(1786376538.060642) can0 39D#AC0DE817
(1786376538.100616) can0 33D#0000FFFFFFFFFFFF
(1786376538.101002) can0 39D#AD0EE817
(1786376538.140899) can0 39D#AE0FE817
(1786376538.180601) can0 35D#0655556555555559
(1786376538.180948) can0 33D#0000FFFFFFFFFFFF
(1786376538.200973) can0 39D#9F00E817
(1786376538.220560) can0 39D#A001E817
(1786376538.260671) can0 39D#A102E817
(1786376538.300659) can0 33D#0000FFFFFFFFFFFF
(1786376538.301013) can0 39D#A203E817
(1786376538.340550) can0 39D#A304E817
(1786376538.380661) can0 33D#0000FFFFFFFFFFFF
(1786376538.401104) can0 39D#A405E817
(1786376538.420614) can0 39D#A506E817
(1786376538.460899) can0 39D#A607E817
(1786376538.500580) can0 33D#0000FFFFFFFFFFFF
(1786376538.501012) can0 39D#A708E817
(1786376538.540587) can0 39D#A809E817
(1786376538.580604) can0 33D#0000FFFFFFFFFFFF
(1786376538.600965) can0 39D#A90AE817
(1786376538.620886) can0 39D#AA0BE817
(1786376538.660637) can0 39D#AB0CE817
(1786376538.700455) can0 33D#0000FFFFFFFFFFFF
(1786376538.700900) can0 39D#AC0DE817
(1786376538.740605) can0 39D#AD0EE817
(1786376538.780505) can0 33D#0000FFFFFFFFFFFF
(1786376538.800960) can0 39D#AE0FE817
(1786376538.820479) can0 39D#9F00E817
(1786376538.860597) can0 39D#E1012818
(1786376538.900887) can0 33D#0000FFFFFFFFFFFF
(1786376538.901187) can0 39D#42028818
(1786376538.940982) can0 39D#F4033819
(1786376538.980577) can0 33D#0000FFFFFFFFFFFF
(1786376539.001067) can0 39D#E604281A
(1786376539.020852) can0 39D#D805181B
(1786376539.060903) can0 39D#DA06181C
(1786376539.101025) can0 33D#0000FFFFFFFFFFFF
(1786376539.101456) can0 39D#CC07081D
(1786376539.140586) can0 39D#BD08F81D
(1786376539.180914) can0 35D#07555555552A0000
(1786376539.181216) can0 32D#0B00020101000000
(1786376539.181528) can0 33D#0000FFFFFFFFFFFF
(1786376539.201030) can0 39D#9F09D81E
(1786376539.220853) can0 39D#810AB81F
(1786376539.260851) can0 39D#630B9820
(1786376539.300541) can0 33D#0000FFFFFFFFFFFF
(1786376539.300957) can0 39D#650C9821
(1786376539.340550) can0 39D#870DB822
(1786376539.380549) can0 33D#0000FFFFFFFFFFFF
(1786376539.400984) can0 39D#C90EF823
(1786376539.420579) can0 39D#1C0F4825
(1786376539.460564) can0 39D#5E009826
(1786376539.500601) can0 33D#0000FFFFFFFFFFFF
(1786376539.500994) can0 39D#C001F827
(1786376539.540626) can0 39D#A202D828
(1786376539.580553) can0 33D#0000FFFFFFFFFFFF
(1786376539.600953) can0 39D#7403A829
(1786376539.620940) can0 39D#1604482A
(1786376539.660947) can0 39D#9705C82A
(1786376539.700988) can0 33D#0000FFFFFFFFFFFF
(1786376539.701353) can0 39D#0906382B
(1786376539.740617) can0 39D#7A07A82B
(1786376539.780672) can0 33D#0000FFFFFFFFFFFF
(1786376539.801022) can0 39D#CB08F82B
(1786376539.820827) can0 39D#ED09182C
(1786376539.860974) can0 39D#FE0A282C
(1786376539.900628) can0 33D#0000FFFFFFFFFFFF
(1786376539.901011) can0 39D#0F0B382C
(1786376539.940635) can0 39D#300C582C
(1786376539.980853) can0 33D#0000FFFFFFFFFFFF
(1786376540.001030) can0 39D#910DB82C
(1786376540.020637) can0 39D#330E582D
(1786376540.060556) can0 39D#E50F082E
(1786376540.100613) can0 33D#0000FFFFFFFFFFFF
(1786376540.101029) can0 39D#5600882E
(1786376540.140871) can0 39D#9701C82E
(1786376540.180893) can0 35D#0055555555555555
(1786376540.181252) can0 33D#0000FFFFFFFFFFFF
(1786376540.201045) can0 39D#C802F82E
(1786376540.220625) can0 39D#EA03182F
(1786376540.260871) can0 39D#0B04382F
(1786376540.300639) can0 33D#0000FFFFFFFFFFFF
(1786376540.300992) can0 39D#3C05682F
(1786376540.340960) can0 39D#5D06882F
(1786376540.380671) can0 33D#0000FFFFFFFFFFFF
(1786376540.400927) can0 39D#7E07A82F
(1786376540.420474) can0 39D#AF08D82F
(1786376540.460825) can0 39D#D009F82F
(1786376540.500501) can0 33D#0000FFFFFFFFFFFF
(1786376540.500939) can0 39D#020A2830
(1786376540.540616) can0 39D#230B4830
(1786376540.580580) can0 33D#0000FFFFFFFFFFFF
(1786376540.601005) can0 39D#540C7830
(1786376540.620821) can0 39D#850DA830
(1786376540.660868) can0 39D#A60EC830
(1786376540.700463) can0 33D#0000FFFFFFFFFFFF
(1786376540.700918) can0 39D#D70FF830
(1786376540.740818) can0 39D#E9001831
(1786376540.780889) can0 33D#0000FFFFFFFFFFFF
(1786376540.800969) can0 39D#FA012831
(1786376540.820561) can0 39D#0B023831
(1786376540.860598) can0 39D#1C034831
(1786376540.900869) can0 33D#0000FFFFFFFFFFFF
(1786376540.901236) can0 39D#1D044831
(1786376540.940633) can0 39D#1E054831
(1786376540.980795) can0 33D#0000FFFFFFFFFFFF
(1786376541.000917) can0 39D#1F064831
(1786376541.020518) can0 39D#20074831
(1786376541.060503) can0 39D#21084831
(1786376541.100544) can0 33D#0000FFFFFFFFFFFF
(1786376541.100904) can0 39D#22094831
(1786376541.140537) can0 39D#230A4831
(1786376541.180563) can0 35D#0155555555555555
(1786376541.180974) can0 32D#0D0000008D792021
(1786376541.181348) can0 33D#0000FFFFFFFFFFFF
(1786376541.200961) can0 39D#240B4831
(1786376541.220532) can0 39D#250C4831
(1786376541.260504) can0 39D#260D4831
(1786376541.300512) can0 33D#0000FFFFFFFFFFFF
(1786376541.300977) can0 39D#270E4831
(1786376541.340868) can0 39D#280F4831
(1786376541.380851) can0 33D#0000FFFFFFFFFFFF
(1786376541.400999) can0 39D#29005831
(1786376541.420865) can0 39D#5A018831
(1786376541.460665) can0 39D#BB02E831
(1786376541.500507) can0 33D#0000FFFFFFFFFFFF
(1786376541.500917) can0 39D#3B036632
(1786376541.540894) can0 3AD#0701001804000010
(1786376541.551176) can0 39D#BC04E632
(1786376541.580949) can0 33D#0000FFFFFFFFFFFF
(1786376541.601037) can0 5BD#CF40010000000000
(1786376541.620598) can0 39D#0E053633
(1786376541.620939) can0 39D#1F064633
(1786376541.660871) can0 39D#20074633
(1786376541.700514) can0 33D#0000FFFFFFFFFFFF
(1786376541.700973) can0 39D#21084633
(1786376541.740505) can0 39D#22094633
(1786376541.780554) can0 33D#0000FFFFFFFFFFFF
(1786376541.801030) can0 39D#230A4633
(1786376541.820567) can0 39D#240B4633
(1786376541.860569) can0 39D#250C4633
(1786376541.900701) can0 33D#0000FFFFFFFFFFFF
(1786376541.901100) can0 39D#260D4633
(1786376541.940524) can0 39D#270E4633
(1786376541.980549) can0 33D#0000FFFFFFFFFFFF
(1786376542.000866) can0 39D#280F4633
(1786376542.020511) can0 39D#29005633
(1786376542.060808) can0 39D#1A014633
(1786376542.100561) can0 33D#0000FFFFFFFFFFFF
(1786376542.100949) can0 39D#1B024633
(1786376542.140512) can0 39D#1C034633
(1786376542.180499) can0 35D#0256555555555555
(1786376542.180793) can0 33D#0000FFFFFFFFFFFF
(1786376542.200927) can0 39D#1D044633
(1786376542.220544) can0 39D#1E054633
(1786376542.260544) can0 39D#1F064633
(1786376542.300431) can0 33D#0000FFFFFFFFFFFF
(1786376542.300839) can0 39D#20074633
(1786376542.340570) can0 39D#21084633
(1786376542.380618) can0 33D#0000FFFFFFFFFFFF
(1786376542.400955) can0 39D#22094633
(1786376542.420429) can0 39D#230A4633
(1786376542.460801) can0 39D#240B4633
(1786376542.500511) can0 33D#0000FFFFFFFFFFFF
(1786376542.500892) can0 39D#250C4633
(1786376542.540544) can0 39D#260D4633
(1786376542.580593) can0 33D#0000FFFFFFFFFFFF
(1786376542.600962) can0 39D#270E4633
(1786376542.620578) can0 39D#280F4633
(1786376542.660524) can0 39D#19004633
(1786376542.700544) can0 33D#0000FFFFFFFFFFFF
(1786376542.700975) can0 39D#1A014633
(1786376542.740426) can0 39D#1B024633
(1786376542.780513) can0 33D#0000FFFFFFFFFFFF
(1786376542.800926) can0 39D#1C034633
(1786376542.820429) can0 39D#1D044633
(1786376542.860476) can0 39D#1E054633
(1786376542.900493) can0 33D#0000FFFFFFFFFFFF
(1786376542.900947) can0 39D#1F064633
(1786376542.940513) can0 39D#20074633
(1786376542.980541) can0 33D#0000FFFFFFFFFFFF
(1786376543.000890) can0 39D#21084633
(1786376543.020511) can0 39D#22094633
(1786376543.060815) can0 39D#230A4633
(1786376543.100460) can0 33D#0000FFFFFFFFFFFF
(1786376543.100902) can0 39D#240B4633
(1786376543.140781) can0 39D#250C4633
(1786376543.180730) can0 35D#0355555555555555
(1786376543.181109) can0 32D#1405000060FCB070
(1786376543.181542) can0 33D#0000FFFFFFFFFFFF
(1786376543.200948) can0 39D#260D4633
(1786376543.220544) can0 39D#270E4633
(1786376543.260536) can0 39D#280F4633
(1786376543.300800) can0 33D#0000FFFFFFFFFFFF
(1786376543.301117) can0 39D#19004633
(1786376543.340423) can0 39D#1A014633
(1786376543.380549) can0 33D#0000FFFFFFFFFFFF
(1786376543.400867) can0 39D#1B024633
(1786376543.420527) can0 39D#1C034633
(1786376543.460494) can0 39D#1D044633
(1786376543.500497) can0 33D#0000FFFFFFFFFFFF
(1786376543.500902) can0 39D#1E054633
(1786376543.540526) can0 39D#1F064633
(1786376543.580579) can0 33D#0000FFFFFFFFFFFF
(1786376543.600957) can0 39D#20074633
(1786376543.620555) can0 39D#21084633
(1786376543.660471) can0 39D#22094633
(1786376543.700528) can0 33D#0000FFFFFFFFFFFF
(1786376543.700880) can0 39D#230A4633
(1786376543.740545) can0 39D#240B4633
(1786376543.780814) can0 33D#0000FFFFFFFFFFFF
(1786376543.801081) can0 39D#250C4633
(1786376543.820466) can0 39D#260D4633
(1786376543.860476) can0 39D#270E4633
(1786376543.900551) can0 33D#0000FFFFFFFFFFFF
(1786376543.900945) can0 39D#280F4633
(1786376543.940391) can0 39D#19004633
(1786376543.980547) can0 33D#0000FFFFFFFFFFFF
(1786376544.000936) can0 39D#1A014633
(1786376544.020446) can0 39D#1B024633
(1786376544.060509) can0 39D#1C034633
(1786376544.100449) can0 33D#0000FFFFFFFFFFFF
(1786376544.100866) can0 39D#1D044633
(1786376544.140422) can0 39D#1E054633
(1786376544.180571) can0 35D#0455555555555555
(1786376544.181010) can0 33D#0000FFFFFFFFFFFF
(1786376544.200915) can0 39D#1F064633
(1786376544.220503) can0 39D#20074633
(1786376544.260454) can0 39D#21084633
(1786376544.300499) can0 33D#0000FFFFFFFFFFFF
(1786376544.300937) can0 39D#22094633
(1786376544.340421) can0 39D#230A4633
(1786376544.380451) can0 33D#0000FFFFFFFFFFFF
(1786376544.400955) can0 39D#240B4633
(1786376544.420532) can0 39D#250C4633
(1786376544.460486) can0 39D#260D4633
(1786376544.500481) can0 33D#0000FFFFFFFFFFFF
(1786376544.500884) can0 39D#270E4633
(1786376544.540482) can0 39D#280F4633
(1786376544.580495) can0 33D#0000FFFFFFFFFFFF
(1786376544.600927) can0 39D#09003633
(1786376544.620561) can0 39D#0A013633
(1786376544.660475) can0 39D#0B023633
(1786376544.700527) can0 33D#0000FFFFFFFFFFFF
(1786376544.700953) can0 39D#0C033633
(1786376544.740546) can0 39D#0D043633
(1786376544.780874) can0 33D#0000FFFFFFFFFFFF
(1786376544.800939) can0 39D#FE052633
(1786376544.820568) can0 39D#FF062633
(1786376544.860838) can0 39D#F0071633
(1786376544.900528) can0 33D#0000FFFFFFFFFFFF
(1786376544.900956) can0 39D#E1080633
(1786376544.940516) can0 39D#D109F632
(1786376544.980800) can0 33D#0000FFFFFFFFFFFF
(1786376545.000939) can0 39D#C20AE632
(1786376545.020863) can0 39D#B30BD632
(1786376545.060801) can0 39D#940CB632
(1786376545.100655) can0 33D#0000FFFFFFFFFFFF
(1786376545.101094) can0 39D#850DA632
(1786376545.140739) can0 39D#760E9632
(1786376545.180540) can0 35D#0555555555555555
(1786376545.180923) can0 32D#16000000E4ACA32F
(1786376545.181354) can0 33D#0000FFFFFFFFFFFF
(1786376545.200979) can0 39D#770F9632
(1786376545.220547) can0 39D#68009632
(1786376545.260562) can0 39D#59018632
(1786376545.300690) can0 33D#0000FFFFFFFFFFFF
(1786376545.301069) can0 39D#6A029632
(1786376545.340746) can0 39D#6B039632
(1786376545.380593) can0 33D#0000FFFFFFFFFFFF
(1786376545.400929) can0 39D#6C049632
(1786376545.420576) can0 39D#6D059632
(1786376545.460524) can0 39D#6E069632
(1786376545.500789) can0 33D#0000FFFFFFFFFFFF
(1786376545.501211) can0 39D#6F079632
(1786376545.540449) can0 39D#60088632
(1786376545.580633) can0 33D#0000FFFFFFFFFFFF
(1786376545.601036) can0 39D#61098632
(1786376545.620547) can0 39D#720A9632
(1786376545.660458) can0 39D#730B9632
(1786376545.700514) can0 33D#0000FFFFFFFFFFFF
(1786376545.700914) can0 39D#740C9632
(1786376545.740443) can0 39D#850DA632
(1786376545.780713) can0 33D#0000FFFFFFFFFFFF
(1786376545.800886) can0 39D#960EB632
(1786376545.820807) can0 39D#A70FC632
(1786376545.860445) can0 39D#B800E632
(1786376545.900902) can0 33D#0000FFFFFFFFFFFF
(1786376545.901360) can0 39D#DA010633
(1786376545.940751) can0 39D#0B023633
(1786376545.980664) can0 33D#0000FFFFFFFFFFFF
(1786376546.000963) can0 39D#1C034633
(1786376546.020468) can0 39D#1D044633
(1786376546.060551) can0 39D#1E054633
(1786376546.100571) can0 33D#0000FFFFFFFFFFFF
(1786376546.101111) can0 39D#1F064633
(1786376546.140505) can0 39D#20074633
(1786376546.180592) can0 35D#0655556555555559
(1786376546.181046) can0 33D#0000FFFFFFFFFFFF
(1786376546.201051) can0 39D#21084633
(1786376546.220543) can0 39D#22094633
(1786376546.260440) can0 39D#230A4633
(1786376546.300566) can0 33D#0000FFFFFFFFFFFF
(1786376546.300946) can0 39D#240B4633
(1786376546.340461) can0 39D#250C4633
(1786376546.380616) can0 33D#0000FFFFFFFFFFFF
(1786376546.400992) can0 39D#260D4633
(1786376546.420466) can0 39D#270E4633
(1786376546.460482) can0 39D#280F4633
(1786376546.500516) can0 33D#0000FFFFFFFFFFFF
(1786376546.500958) can0 39D#19004633
(1786376546.540498) can0 39D#1A014633
(1786376546.580704) can0 33D#0000FFFFFFFFFFFF
(1786376546.600945) can0 39D#1B024633
(1786376546.620540) can0 39D#1C034633
(1786376546.660412) can0 39D#1D044633
(1786376546.700655) can0 33D#0000FFFFFFFFFFFF
(1786376546.701233) can0 39D#1E054633
(1786376546.740744) can0 39D#1F064633
(1786376546.780536) can0 33D#0000FFFFFFFFFFFF
(1786376546.800918) can0 39D#20074633
(1786376546.820483) can0 39D#21084633
(1786376546.860517) can0 39D#22094633
(1786376546.900628) can0 33D#0000FFFFFFFFFFFF
(1786376546.901139) can0 39D#230A4633
(1786376546.940443) can0 39D#240B4633
(1786376546.980569) can0 33D#0000FFFFFFFFFFFF
(1786376547.000971) can0 39D#250C4633
(1786376547.020483) can0 39D#260D4633
(1786376547.060794) can0 39D#270E4633
(1786376547.100453) can0 33D#0000FFFFFFFFFFFF
(1786376547.100910) can0 39D#280F4633
(1786376547.140495) can0 39D#19004633
(1786376547.180598) can0 35D#07555595552A0000
(1786376547.181056) can0 32D#0A01000000007000
(1786376547.181568) can0 33D#0000FFFFFFFFFFFF
(1786376547.200922) can0 39D#1A014633
(1786376547.220702) can0 39D#1B024633
(1786376547.260400) can0 39D#1C034633
(1786376547.300506) can0 33D#0000FFFFFFFFFFFF
(1786376547.301010) can0 39D#1D044633
(1786376547.340445) can0 39D#1E054633
(1786376547.380543) can0 33D#0000FFFFFFFFFFFF
(1786376547.400901) can0 39D#1F064633
(1786376547.420483) can0 39D#20074633
(1786376547.460430) can0 39D#51087633
(1786376547.500763) can0 33D#0000FFFFFFFFFFFF
(1786376547.501110) can0 39D#C209E633
(1786376547.540789) can0 39D#540A7634
(1786376547.580471) can0 33D#0000FFFFFFFFFFFF
(1786376547.600939) can0 39D#D50BF634
(1786376547.620775) can0 39D#660C8634
(1786376547.660736) can0 39D#C70DE634
(1786376547.700704) can0 33D#0000FFFFFFFFFFFF
(1786376547.701088) can0 39D#780E9634
(1786376547.740491) can0 39D#FA0F1635
(1786376547.780763) can0 33D#0000FFFFFFFFFFFF
(1786376547.800874) can0 39D#3A006634
(1786376547.820492) can0 39D#FC012635
(1786376547.860756) can0 39D#3C026634
(1786376547.900708) can0 33D#0000FFFFFFFFFFFF
(1786376547.901072) can0 39D#EE031635
(1786376547.940471) can0 39D#7E04A634
(1786376547.980588) can0 33D#0000FFFFFFFFFFFF
(1786376548.000988) can0 39D#BF05E634
(1786376548.020416) can0 39D#C006E634
(1786376548.060415) can0 39D#9107B634
(1786376548.100514) can0 33D#0000FFFFFFFFFFFF
(1786376548.100873) can0 39D#E3080635
(1786376548.140390) can0 39D#73099634
(1786376548.180652) can0 35D#0055555555555555
(1786376548.181041) can0 33D#0000FFFFFFFFFFFF
(1786376548.200905) can0 39D#D40AF634
(1786376548.220834) can0 39D#750B9634
(1786376548.260807) can0 39D#A60CC634
(1786376548.300842) can0 33D#0000FFFFFFFFFFFF
(1786376548.301200) can0 39D#B70DD634
(1786376548.340467) can0 39D#880EA634
(1786376548.380607) can0 33D#0000FFFFFFFFFFFF
(1786376548.400823) can0 39D#D90FF634
(1786376548.420719) can0 39D#5A008634
(1786376548.460808) can0 39D#DC010635
(1786376548.500434) can0 33D#0000FFFFFFFFFFFF
(1786376548.500847) can0 39D#5C028634
(1786376548.540417) can0 39D#DE030635
(1786376548.580750) can0 33D#0000FFFFFFFFFFFF
(1786376548.600928) can0 39D#5E048634
(1786376548.620442) can0 39D#BF05E634
(1786376548.660418) can0 39D#8006A634
(1786376548.700610) can0 33D#0000FFFFFFFFFFFF
(1786376548.701061) can0 39D#A107C634
(1786376548.740444) can0 39D#B208D634
(1786376548.780760) can0 33D#0000FFFFFFFFFFFF
(1786376548.800805) can0 39D#8309A634
(1786376548.820439) can0 39D#D40AF634
(1786376548.860765) can0 39D#650B8634
(1786376548.900565) can0 33D#0000FFFFFFFFFFFF
(1786376548.900991) can0 39D#D60CF634
(1786376548.940842) can0 39D#770D9634
(1786376548.980401) can0 33D#0000FFFFFFFFFFFF
(1786376549.000801) can0 39D#B80ED634
(1786376549.020427) can0 39D#A90FC634
(1786376549.060720) can0 39D#6A009634
(1786376549.100486) can0 33D#0000FFFFFFFFFFFF
(1786376549.100851) can0 39D#CB01F634
(1786376549.140468) can0 39D#5C028634
(1786376549.180609) can0 35D#0155555555555555
(1786376549.181060) can0 32D#0B00020101000000
(1786376549.181450) can0 33D#0000FFFFFFFFFFFF
(1786376549.200795) can0 39D#BD03E634
(1786376549.220709) can0 39D#6E049634
(1786376549.260802) can0 39D#9F05C634
(1786376549.300544) can0 33D#0000FFFFFFFFFFFF
(1786376549.300987) can0 39D#C006E634
(1786376549.340796) can0 39D#8107A634
(1786376549.380559) can0 33D#0000FFFFFFFFFFFF
(1786376549.400882) can0 39D#B208D634
(1786376549.420489) can0 39D#B309D634
(1786376549.460406) can0 39D#940AB634
(1786376549.500718) can0 33D#0000FFFFFFFFFFFF
(1786376549.501075) can0 39D#950BB634
(1786376549.540419) can0 39D#960CB634
(1786376549.580537) can0 33D#0000FFFFFFFFFFFF
(1786376549.600882) can0 39D#970DB634
(1786376549.620433) can0 39D#980EB634
(1786376549.660413) can0 39D#990FB634
(1786376549.700449) can0 33D#0000FFFFFFFFFFFF
(1786376549.700913) can0 39D#8A00B634
(1786376549.740420) can0 39D#7B01A634
(1786376549.780379) can0 33D#0000FFFFFFFFFFFF
(1786376549.800908) can0 39D#7C02A634
(1786376549.820537) can0 39D#5D038634
(1786376549.860415) can0 39D#0E043634
(1786376549.900850) can0 33D#0000FFFFFFFFFFFF
(1786376549.901221) can0 39D#CE05F633
(1786376549.940723) can0 39D#7F06A633
(1786376549.980767) can0 33D#0000FFFFFFFFFFFF
(1786376550.000810) can0 39D#30075633
(1786376550.020786) can0 39D#01082633
(1786376550.060479) can0 39D#C109E632
(1786376550.100451) can0 33D#0000FFFFFFFFFFFF
(1786376550.100865) can0 39D#720A9632
(1786376550.140689) can0 39D#130B3632
(1786376550.180914) can0 35D#0256555555555555
(1786376550.181339) can0 33D#0000FFFFFFFFFFFF
(1786376550.200916) can0 39D#B30CD631
(1786376550.220506) can0 39D#360D5831
(1786376550.260409) can0 3AD#5F01002004000010
(1786376550.290891) can0 39D#960EB830
(1786376550.300696) can0 33D#0000FFFFFFFFFFFF
(1786376550.301123) can0 39D#E70F0830
(1786376550.340442) can0 39D#F700282F
(1786376550.380592) can0 33D#0000FFFFFFFFFFFF
(1786376550.400918) can0 39D#E701182E
(1786376550.420590) can0 39D#8602B82C
(1786376550.460675) can0 39D#0603382B
(1786376550.500748) can0 33D#0000FFFFFFFFFFFF
(1786376550.501136) can0 39D#55048829
(1786376550.540421) can0 39D#8405B827
(1786376550.580662) can0 33D#0000FFFFFFFFFFFF
(1786376550.600877) can0 39D#9306C825
(1786376550.620721) can0 39D#A207D823
(1786376550.660791) can0 39D#7108A821
(1786376550.700662) can0 33D#0000FFFFFFFFFFFF
(1786376550.700946) can0 39D#D009081F
(1786376550.740427) can0 39D#BD0AF81B
(1786376550.780571) can0 33D#0000FFFFFFFFFFFF
(1786376550.800882) can0 39D#BB0BF818
(1786376550.820491) can0 39D#CA0C0816
(1786376550.860740) can0 39D#C80D0813
(1786376550.900635) can0 33D#0000FFFFFFFFFFFF
(1786376550.901027) can0 39D#C60E0810
(1786376550.940703) can0 39D#B30FF80C
(1786376550.980937) can0 33D#0000FFFFFFFFFFFF
(1786376551.000888) can0 39D#C200180A
(1786376551.020467) can0 39D#10016807
(1786376551.060667) can0 39D#7E02D804
(1786376551.100669) can0 33D#0000FFFFFFFFFFFF
(1786376551.101048) can0 39D#AE030803
(1786376551.140515) can0 39D#FE045802
(1786376551.180567) can0 35D#0355555555555555
(1786376551.180991) can0 32D#0D0000008D792021
(1786376551.181382) can0 33D#0000FFFFFFFFFFFF
(1786376551.200799) can0 39D#9E05F801
(1786376551.220645) can0 39D#4F06A801
(1786376551.260397) can0 39D#00075801
(1786376551.300477) can0 33D#0000FFFFFFFFFFFF
(1786376551.300986) can0 39D#B1080801
(1786376551.340415) can0 39D#B2090801
(1786376551.380410) can0 33D#0000FFFFFFFFFFFF
(1786376551.400876) can0 39D#B30A0801
(1786376551.420426) can0 39D#B40B0801
(1786376551.460362) can0 39D#B50C0801
(1786376551.500432) can0 33D#0000FFFFFFFFFFFF
(1786376551.500923) can0 39D#B60D0801
(1786376551.540453) can0 39D#B70E0801
(1786376551.580492) can0 33D#0000FFFFFFFFFFFF
(1786376551.600458) can0 39D#B80F0801
(1786376551.620483) can0 39D#A9000801
(1786376551.660632) can0 39D#AA010801
(1786376551.700431) can0 33D#0000FFFFFFFFFFFF
(1786376551.700882) can0 39D#AB020801
(1786376551.740434) can0 39D#AC030801
(1786376551.780554) can0 33D#0000FFFFFFFFFFFF
(1786376551.800797) can0 39D#AD040801
(1786376551.820500) can0 39D#AE050801
(1786376551.860402) can0 3AD#6F010020041F0010
(1786376551.890337) can0 39D#AF060801
(1786376551.900347) can0 33D#0000FFFFFFFFFFFF
(1786376551.900767) can0 39D#B0070801
(1786376551.940320) can0 39D#B1080801
(1786376551.980395) can0 33D#0000FFFFFFFFFFFF
(1786376552.000346) can0 39D#B2090801
(1786376552.020386) can0 39D#B30A0801
(1786376552.060214) can0 39D#B40B0801
(1786376552.100423) can0 33D#0000FFFFFFFFFFFF
(1786376552.100800) can0 31D#7101600000030005
(1786376552.110399) can0 33D#1D00000051515354
(1786376552.130407) can0 39D#B50C0801
(1786376552.140361) can0 34D#0000280100260000
(1786376552.150421) can0 36D#611D0000006AD18D
(1786376552.170759) can0 39D#B60D0801
(1786376552.180441) can0 35D#0455555555555555
(1786376552.180815) can0 37D#5B0200000058980D
(1786376552.190373) can0 33D#0000FFFFFFFFFFFF
(1786376552.200389) can0 38D#0000000070191500
(1786376552.210365) can0 39D#B70E0801
(1786376552.220377) can0 39D#B80F0801
(1786376552.260277) can0 39D#A9000801
(1786376552.300444) can0 33D#0000FFFFFFFFFFFF
(1786376552.300842) can0 39D#AA010801
(1786376552.340378) can0 39D#AB020801
(1786376552.380392) can0 33D#0000FFFFFFFFFFFF
(1786376552.400465) can0 39D#AC030801
(1786376552.420279) can0 39D#AD040801
(1786376552.460229) can0 39D#AE050801
(1786376552.500234) can0 33D#0000FFFFFFFFFFFF
(1786376552.500636) can0 39D#AF060801
(1786376552.540336) can0 39D#B0070801
(1786376552.580371) can0 33D#0000FFFFFFFFFFFF
(1786376552.600410) can0 39D#B1080801
(1786376552.620325) can0 39D#B2090801
(1786376552.660262) can0 39D#B30A0801
(1786376552.700447) can0 33D#0000FFFFFFFFFFFF
(1786376552.700844) can0 39D#B40B0801
(1786376552.740252) can0 39D#B50C0801
(1786376552.780303) can0 33D#0000FFFFFFFFFFFF
(1786376552.800337) can0 39D#B60D0801
(1786376552.820362) can0 39D#B70E0801
(1786376552.860337) can0 39D#B80F0801
(1786376552.900431) can0 33D#0000FFFFFFFFFFFF
(1786376552.900894) can0 39D#A9000801
(1786376552.940313) can0 39D#AA010801
(1786376552.980218) can0 33D#0000FFFFFFFFFFFF
(1786376553.000403) can0 39D#AB020801
(1786376553.020394) can0 39D#AC030801
(1786376553.060259) can0 39D#AD040801
(1786376553.100348) can0 33D#0000FFFFFFFFFFFF
(1786376553.100763) can0 39D#AE050801
(1786376553.140278) can0 39D#AF060801
(1786376553.180348) can0 35D#0555555555555555
(1786376553.180895) can0 32D#1405000060FCB070
(1786376553.181260) can0 33D#0000FFFFFFFFFFFF
(1786376553.200423) can0 39D#B0070801
(1786376553.220272) can0 39D#B1080801
(1786376553.260237) can0 39D#B2090801
(1786376553.300344) can0 33D#0000FFFFFFFFFFFF
(1786376553.300726) can0 39D#B30A0801
(1786376553.340266) can0 39D#B40B0801
(1786376553.380493) can0 33D#0000FFFFFFFFFFFF
(1786376553.400302) can0 39D#B50C0801
(1786376553.420435) can0 39D#B60D0801
(1786376553.460302) can0 39D#B70E0801
(1786376553.500268) can0 33D#0000FFFFFFFFFFFF
(1786376553.500651) can0 39D#B80F0801
(1786376553.540271) can0 39D#A9000801
(1786376553.580421) can0 33D#0000FFFFFFFFFFFF
(1786376553.600380) can0 39D#AA010801
(1786376553.620336) can0 39D#AB020801
(1786376553.660228) can0 39D#AC030801
(1786376553.700314) can0 33D#0000FFFFFFFFFFFF
(1786376553.700807) can0 39D#AD040801
(1786376553.740249) can0 39D#AE050801
(1786376553.780185) can0 33D#0000FFFFFFFFFFFF
(1786376553.800300) can0 39D#AF060801
(1786376553.820145) can0 39D#B0070801
(1786376553.860269) can0 39D#B1080801
(1786376553.900258) can0 33D#0000FFFFFFFFFFFF
(1786376553.900659) can0 39D#B2090801
(1786376553.940356) can0 39D#B30A0801
(1786376553.980422) can0 33D#0000FFFFFFFFFFFF
(1786376554.000435) can0 39D#B40B0801
(1786376554.020333) can0 39D#B50C0801
(1786376554.060250) can0 39D#B60D0801
(1786376554.100416) can0 33D#0000FFFFFFFFFFFF
(1786376554.100901) can0 39D#B70E0801
(1786376554.140281) can0 39D#B80F0801
(1786376554.180379) can0 35D#0655556555555559
(1786376554.180787) can0 33D#0000FFFFFFFFFFFF
(1786376554.200410) can0 39D#A9000801
(1786376554.220261) can0 39D#AA010801
(1786376554.260144) can0 39D#AB020801
(1786376554.300275) can0 33D#0000FFFFFFFFFFFF
(1786376554.300591) can0 39D#AC030801
(1786376554.340164) can0 39D#AD040801
(1786376554.380417) can0 33D#0000FFFFFFFFFFFF
(1786376554.400387) can0 39D#AE050801
(1786376554.420313) can0 39D#AF060801
(1786376554.460213) can0 39D#B0070801
(1786376554.500298) can0 33D#0000FFFFFFFFFFFF
(1786376554.500703) can0 39D#B1080801
(1786376554.540345) can0 39D#B2090801
(1786376554.580396) can0 33D#0000FFFFFFFFFFFF
(1786376554.600355) can0 39D#B30A0801
(1786376554.620303) can0 39D#B40B0801
(1786376554.660293) can0 39D#B50C0801
(1786376554.700232) can0 33D#0000FFFFFFFFFFFF
(1786376554.700623) can0 39D#B60D0801
(1786376554.740265) can0 39D#B70E0801
(1786376554.780256) can0 33D#0000FFFFFFFFFFFF
(1786376554.800312) can0 39D#B80F0801
(1786376554.820300) can0 39D#A9000801
(1786376554.860189) can0 39D#AA010801
(1786376554.900188) can0 33D#0000FFFFFFFFFFFF
(1786376554.900560) can0 39D#AB020801
(1786376554.940157) can0 39D#AC030801
(1786376554.980333) can0 33D#0000FFFFFFFFFFFF
(1786376555.000266) can0 39D#AD040801
(1786376555.020204) can0 39D#AE050801
(1786376555.060239) can0 39D#AF060801
(1786376555.100440) can0 33D#0000FFFFFFFFFFFF
(1786376555.100849) can0 39D#B0070801
(1786376555.140278) can0 39D#B1080801
(1786376555.180294) can0 35D#07555595552A0000
(1786376555.180817) can0 32D#16000000E4ACA32F
(1786376555.181116) can0 33D#0000FFFFFFFFFFFF
(1786376555.200300) can0 39D#B2090801
(1786376555.220232) can0 39D#B30A0801
(1786376555.260198) can0 39D#B40B0801
(1786376555.300266) can0 33D#0000FFFFFFFFFFFF
(1786376555.300676) can0 39D#B50C0801
(1786376555.340193) can0 39D#B60D0801
(1786376555.380225) can0 33D#0000FFFFFFFFFFFF
(1786376555.400247) can0 39D#B70E0801
(1786376555.420346) can0 39D#B80F0801
(1786376555.460217) can0 39D#A9000801
(1786376555.500314) can0 33D#0000FFFFFFFFFFFF
(1786376555.500805) can0 39D#AA010801
(1786376555.540169) can0 39D#AB020801
(1786376555.580371) can0 33D#0000FFFFFFFFFFFF
(1786376555.600322) can0 39D#AC030801
(1786376555.620238) can0 39D#AD040801
(1786376555.660251) can0 39D#AE050801
(1786376555.700258) can0 33D#0000FFFFFFFFFFFF
(1786376555.700611) can0 39D#AF060801
(1786376555.740185) can0 39D#B0070801
(1786376555.780367) can0 33D#0000FFFFFFFFFFFF
(1786376555.800326) can0 39D#B1080801
(1786376555.820434) can0 39D#B2090801
(1786376555.860199) can0 39D#B30A0801
(1786376555.900073) can0 33D#0000FFFFFFFFFFFF
(1786376555.900354) can0 39D#B40B0801
(1786376555.940270) can0 39D#B50C0801
(1786376555.980234) can0 33D#0000FFFFFFFFFFFF
(1786376556.000307) can0 39D#B60D0801
(1786376556.020142) can0 39D#B70E0801
(1786376556.060117) can0 39D#B80F0801
(1786376556.100156) can0 33D#0000FFFFFFFFFFFF
(1786376556.100461) can0 39D#A9000801
(1786376556.140240) can0 39D#AA010801
(1786376556.180230) can0 35D#0055555555555555
(1786376556.180626) can0 33D#0000FFFFFFFFFFFF
(1786376556.200328) can0 39D#AB020801
(1786376556.220194) can0 39D#AC030801
(1786376556.260185) can0 39D#AD040801
(1786376556.300133) can0 33D#0000FFFFFFFFFFFF
(1786376556.300419) can0 39D#AE050801
(1786376556.340153) can0 39D#AF060801
(1786376556.380322) can0 33D#0000FFFFFFFFFFFF
(1786376556.400222) can0 39D#B0070801
(1786376556.420256) can0 39D#B1080801
(1786376556.460263) can0 39D#B2090801
(1786376556.500219) can0 33D#0000FFFFFFFFFFFF
(1786376556.500607) can0 39D#B30A0801
(1786376556.540167) can0 39D#B40B0801
(1786376556.580332) can0 33D#0000FFFFFFFFFFFF
(1786376556.600359) can0 39D#B50C0801
(1786376556.620237) can0 39D#B60D0801
(1786376556.660152) can0 39D#B70E0801
(1786376556.700091) can0 33D#0000FFFFFFFFFFFF
(1786376556.700431) can0 39D#B80F0801
(1786376556.740125) can0 39D#A9000801
(1786376556.780149) can0 33D#0000FFFFFFFFFFFF
(1786376556.800291) can0 39D#AA010801
(1786376556.820341) can0 39D#AB020801
(1786376556.860167) can0 39D#AC030801
(1786376556.900202) can0 33D#0000FFFFFFFFFFFF
(1786376556.900551) can0 39D#AD040801
(1786376556.940175) can0 39D#AE050801
(1786376556.980179) can0 33D#0000FFFFFFFFFFFF
(1786376557.000272) can0 39D#AF060801
(1786376557.020266) can0 39D#B0070801
(1786376557.060208) can0 39D#B1080801
(1786376557.100088) can0 33D#0000FFFFFFFFFFFF
(1786376557.100365) can0 39D#B2090801
(1786376557.140195) can0 39D#B30A0801
(1786376557.180246) can0 35D#0155555555555555
(1786376557.180645) can0 32D#0A01000000007000
(1786376557.181054) can0 33D#0000FFFFFFFFFFFF
(1786376557.200254) can0 39D#B40B0801
(1786376557.220281) can0 39D#B50C0801
(1786376557.260186) can0 39D#B60D0801
(1786376557.300335) can0 33D#0000FFFFFFFFFFFF
(1786376557.300806) can0 39D#B70E0801
(1786376557.340148) can0 39D#B80F0801
(1786376557.380249) can0 33D#0000FFFFFFFFFFFF
(1786376557.400318) can0 39D#A9000801
(1786376557.420199) can0 39D#AA010801
(1786376557.460146) can0 39D#AB020801
(1786376557.500194) can0 33D#0000FFFFFFFFFFFF
(1786376557.500484) can0 39D#AC030801
(1786376557.540158) can0 39D#AD040801
(1786376557.580156) can0 33D#0000FFFFFFFFFFFF
(1786376557.600207) can0 39D#AE050801
(1786376557.620129) can0 39D#AF060801
(1786376557.660201) can0 39D#B0070801
(1786376557.700104) can0 33D#0000FFFFFFFFFFFF
(1786376557.700414) can0 39D#B1080801
(1786376557.740166) can0 39D#B2090801
(1786376557.780134) can0 33D#0000FFFFFFFFFFFF
(1786376557.800225) can0 39D#B30A0801
(1786376557.820194) can0 39D#B40B0801
(1786376557.860165) can0 39D#B50C0801
(1786376557.900113) can0 33D#0000FFFFFFFFFFFF
(1786376557.900573) can0 39D#B60D0801
(1786376557.940185) can0 39D#B70E0801
(1786376557.980224) can0 33D#0000FFFFFFFFFFFF
(1786376558.000204) can0 39D#B80F0801
(1786376558.020222) can0 39D#A9000801
(1786376558.060174) can0 39D#AA010801
(1786376558.100213) can0 33D#0000FFFFFFFFFFFF
(1786376558.100612) can0 39D#AB020801
(1786376558.140223) can0 39D#AC030801
(1786376558.180309) can0 35D#0256555555555555
(1786376558.180705) can0 33D#0000FFFFFFFFFFFF
(1786376558.200248) can0 39D#AD040801
(1786376558.220175) can0 39D#AE050801
(1786376558.260119) can0 39D#AF060801
(1786376558.300190) can0 33D#0000FFFFFFFFFFFF
(1786376558.300593) can0 39D#B0070801
(1786376558.340112) can0 39D#B1080801
(1786376558.380154) can0 33D#0000FFFFFFFFFFFF
(1786376558.400297) can0 39D#B2090801
(1786376558.420213) can0 39D#B30A0801
(1786376558.460091) can0 39D#B40B0801
(1786376558.500181) can0 33D#0000FFFFFFFFFFFF
(1786376558.500595) can0 39D#B50C0801
(1786376558.540203) can0 39D#B60D0801
(1786376558.580143) can0 33D#0000FFFFFFFFFFFF
(1786376558.600181) can0 39D#B70E0801
(1786376558.620247) can0 39D#B80F0801
(1786376558.660118) can0 39D#A9000801
(1786376558.700047) can0 33D#0000FFFFFFFFFFFF
(1786376558.700490) can0 39D#AA010801
(1786376558.740164) can0 39D#AB020801
(1786376558.780117) can0 33D#0000FFFFFFFFFFFF
(1786376558.800214) can0 39D#AC030801
(1786376558.820110) can0 39D#AD040801
(1786376558.860096) can0 39D#AE050801
(1786376558.900305) can0 33D#0000FFFFFFFFFFFF
(1786376558.900717) can0 39D#AF060801
(1786376558.940039) can0 39D#B0070801
(1786376558.980296) can0 33D#0000FFFFFFFFFFFF
(1786376559.000243) can0 39D#B1080801
(1786376559.020219) can0 39D#B2090801
(1786376559.060133) can0 39D#B30A0801
(1786376559.100081) can0 33D#0000FFFFFFFFFFFF
(1786376559.100355) can0 39D#B40B0801
(1786376559.140211) can0 39D#B50C0801
(1786376559.180170) can0 35D#0355555555555555
(1786376559.180582) can0 32D#0B00020101000000
(1786376559.180948) can0 33D#0000FFFFFFFFFFFF
(1786376559.200250) can0 39D#B60D0801
(1786376559.220158) can0 39D#B70E0801
(1786376559.260169) can0 39D#B80F0801
(1786376559.300124) can0 33D#0000FFFFFFFFFFFF
(1786376559.300506) can0 39D#A9000801
(1786376559.340122) can0 39D#AA010801
(1786376559.380102) can0 33D#0000FFFFFFFFFFFF
(1786376559.400302) can0 39D#AB020801
(1786376559.420068) can0 39D#AC030801
(1786376559.460099) can0 39D#AD040801
(1786376559.500100) can0 33D#0000FFFFFFFFFFFF
(1786376559.500478) can0 39D#AE050801
(1786376559.540151) can0 39D#AF060801
(1786376559.580091) can0 33D#0000FFFFFFFFFFFF
(1786376559.600233) can0 39D#B0070801
(1786376559.620046) can0 39D#B1080801
(1786376559.660107) can0 39D#B2090801
(1786376559.700296) can0 33D#0000FFFFFFFFFFFF
(1786376559.700664) can0 39D#B30A0801
(1786376559.740166) can0 39D#B40B0801
(1786376559.780051) can0 33D#0000FFFFFFFFFFFF
(1786376559.800152) can0 39D#B50C0801
(1786376559.820076) can0 39D#B60D0801
(1786376559.860090) can0 39D#B70E0801
(1786376559.900142) can0 33D#0000FFFFFFFFFFFF
(1786376559.900500) can0 39D#B80F0801
(1786376559.940024) can0 39D#A9000801
(1786376559.980039) can0 33D#0000FFFFFFFFFFFF
(1786376560.000176) can0 39D#AA010801
(1786376560.020019) can0 39D#AB020801
(1786376560.060061) can0 39D#AC030801
(1786376560.099983) can0 33D#0000FFFFFFFFFFFF
(1786376560.100210) can0 39D#AD040801
(1786376560.140066) can0 39D#AE050801
(1786376560.180032) can0 35D#0455555555555555
(1786376560.180445) can0 33D#0000FFFFFFFFFFFF
(1786376560.200124) can0 39D#AF060801
(1786376560.220167) can0 39D#B0070801
(1786376560.260103) can0 39D#B1080801
(1786376560.300107) can0 33D#0000FFFFFFFFFFFF
(1786376560.300419) can0 39D#B2090801
(1786376560.340170) can0 39D#B30A0801
(1786376560.380114) can0 33D#0000FFFFFFFFFFFF
(1786376560.400188) can0 39D#B40B0801
(1786376560.420106) can0 39D#B50C0801
(1786376560.460124) can0 39D#B60D0801
(1786376560.500142) can0 33D#0000FFFFFFFFFFFF
(1786376560.500520) can0 39D#B70E0801
(1786376560.540186) can0 39D#B80F0801
(1786376560.580153) can0 33D#0000FFFFFFFFFFFF
(1786376560.600164) can0 39D#A9000801
(1786376560.620129) can0 39D#AA010801
(1786376560.660023) can0 39D#AB020801
(1786376560.700025) can0 33D#0000FFFFFFFFFFFF
(1786376560.700381) can0 39D#AC030801
(1786376560.740016) can0 39D#AD040801
(1786376560.780098) can0 33D#0000FFFFFFFFFFFF
(1786376560.800198) can0 39D#AE050801
(1786376560.820093) can0 39D#AF060801
(1786376560.860043) can0 39D#B0070801
(1786376560.900120) can0 33D#0000FFFFFFFFFFFF
(1786376560.900456) can0 39D#B1080801
(1786376560.940111) can0 39D#B2090801
(1786376560.980161) can0 33D#0000FFFFFFFFFFFF
(1786376561.000174) can0 39D#B30A0801
(1786376561.020191) can0 39D#B40B0801
(1786376561.060058) can0 39D#B50C0801
(1786376561.099998) can0 33D#0000FFFFFFFFFFFF
(1786376561.100244) can0 39D#B60D0801
(1786376561.140121) can0 39D#B70E0801
(1786376561.180037) can0 35D#0555555555555555
(1786376561.180313) can0 32D#0D0000008D792021
(1786376561.180564) can0 33D#0000FFFFFFFFFFFF
(1786376561.200275) can0 39D#B80F0801
(1786376561.220137) can0 39D#A9000801
(1786376561.260105) can0 39D#AA010801
(1786376561.300112) can0 33D#0000FFFFFFFFFFFF
(1786376561.300534) can0 39D#AB020801
(1786376561.340047) can0 39D#AC030801
(1786376561.380241) can0 33D#0000FFFFFFFFFFFF
(1786376561.400155) can0 39D#AD040801
(1786376561.420125) can0 39D#AE050801
(1786376561.460045) can0 39D#AF060801
(1786376561.500109) can0 33D#0000FFFFFFFFFFFF
(1786376561.500483) can0 39D#B0070801
(1786376561.540135) can0 39D#B1080801
(1786376561.580214) can0 33D#0000FFFFFFFFFFFF
(1786376561.600190) can0 39D#B2090801
(1786376561.620079) can0 39D#B30A0801
(1786376561.660067) can0 39D#B40B0801
(1786376561.700033) can0 33D#0000FFFFFFFFFFFF
(1786376561.700375) can0 39D#B50C0801
(1786376561.740123) can0 39D#B60D0801
(1786376561.780034) can0 33D#0000FFFFFFFFFFFF
(1786376561.800241) can0 39D#B70E0801
(1786376561.820073) can0 39D#B80F0801
(1786376561.860079) can0 39D#A9000801
(1786376561.900082) can0 33D#0000FFFFFFFFFFFF
(1786376561.900489) can0 39D#AA010801
(1786376561.940097) can0 39D#AB020801
(1786376561.980088) can0 33D#0000FFFFFFFFFFFF
(1786376562.000118) can0 39D#AC030801
(1786376562.020113) can0 39D#AD040801
(1786376562.060113) can0 39D#AE050801
(1786376562.100052) can0 33D#0000FFFFFFFFFFFF
(1786376562.100454) can0 39D#AF060801
(1786376562.140058) can0 39D#B0070801
(1786376562.180245) can0 35D#0655556555555559
(1786376562.180655) can0 33D#0000FFFFFFFFFFFF
(1786376562.200149) can0 39D#B1080801
(1786376562.220099) can0 39D#B2090801
(1786376562.260045) can0 39D#B30A0801
(1786376562.300046) can0 33D#0000FFFFFFFFFFFF
(1786376562.300373) can0 39D#B40B0801
(1786376562.340029) can0 39D#B50C0801
(1786376562.380056) can0 33D#0000FFFFFFFFFFFF
(1786376562.400206) can0 39D#B60D0801
(1786376562.419987) can0 39D#B70E0801
(1786376562.460057) can0 39D#B80F0801
(1786376562.500081) can0 33D#0000FFFFFFFFFFFF
(1786376562.500472) can0 39D#A9000801
(1786376562.540118) can0 39D#AA010801
(1786376562.580031) can0 33D#0000FFFFFFFFFFFF
(1786376562.600187) can0 39D#AB020801
(1786376562.620161) can0 39D#AC030801
(1786376562.660041) can0 39D#AD040801
(1786376562.700019) can0 33D#0000FFFFFFFFFFFF
(1786376562.700449) can0 39D#AE050801
(1786376562.739967) can0 39D#AF060801
(1786376562.780107) can0 33D#0000FFFFFFFFFFFF
(1786376562.800117) can0 39D#B0070801
(1786376562.820008) can0 39D#B1080801
(1786376562.860010) can0 39D#B2090801
(1786376562.900018) can0 33D#0000FFFFFFFFFFFF
(1786376562.900373) can0 39D#B30A0801
(1786376562.940058) can0 39D#B40B0801
(1786376562.980050) can0 33D#0000FFFFFFFFFFFF
(1786376563.000077) can0 39D#B50C0801
(1786376563.020112) can0 39D#B60D0801
(1786376563.060024) can0 39D#B70E0801
(1786376563.099974) can0 33D#0000FFFFFFFFFFFF
(1786376563.100351) can0 39D#B80F0801
(1786376563.140073) can0 39D#A9000801
(1786376563.180016) can0 35D#07555595552A0000
(1786376563.180338) can0 32D#1405000060FCB070
(1786376563.180679) can0 33D#0000FFFFFFFFFFFF
(1786376563.200130) can0 39D#AA010801
(1786376563.219980) can0 39D#AB020801
(1786376563.260010) can0 39D#AC030801
(1786376563.300195) can0 33D#0000FFFFFFFFFFFF
(1786376563.300577) can0 39D#AD040801
(1786376563.340080) can0 39D#AE050801
(1786376563.380030) can0 33D#0000FFFFFFFFFFFF
(1786376563.400164) can0 39D#AF060801
(1786376563.420035) can0 39D#B0070801
(1786376563.459958) can0 39D#B1080801
(1786376563.500028) can0 33D#0000FFFFFFFFFFFF
(1786376563.500387) can0 39D#B2090801
(1786376563.539995) can0 39D#B30A0801
(1786376563.580083) can0 33D#0000FFFFFFFFFFFF
(1786376563.600222) can0 39D#B40B0801
(1786376563.620010) can0 39D#B50C0801
(1786376563.660080) can0 39D#B60D0801
(1786376563.700111) can0 33D#0000FFFFFFFFFFFF
(1786376563.700555) can0 39D#B70E0801
(1786376563.740044) can0 39D#B80F0801
(1786376563.780209) can0 33D#0000FFFFFFFFFFFF
(1786376563.800077) can0 39D#A9000801
(1786376563.820077) can0 39D#AA010801
(1786376563.859997) can0 39D#AB020801
(1786376563.900227) can0 33D#0000FFFFFFFFFFFF
(1786376563.900667) can0 39D#AC030801
(1786376563.940050) can0 39D#AD040801
(1786376563.980003) can0 33D#0000FFFFFFFFFFFF
(1786376564.000135) can0 39D#AE050801
(1786376564.019999) can0 39D#AF060801
(1786376564.060041) can0 39D#B0070801
(1786376564.100034) can0 33D#0000FFFFFFFFFFFF
(1786376564.100452) can0 39D#B1080801
(1786376564.139909) can0 39D#B2090801
(1786376564.180191) can0 35D#0055555555555555
(1786376564.180610) can0 33D#0000FFFFFFFFFFFF
(1786376564.200299) can0 39D#B30A0801
(1786376564.220136) can0 39D#B40B0801
(1786376564.260009) can0 39D#B50C0801
(1786376564.299973) can0 33D#0000FFFFFFFFFFFF
(1786376564.300320) can0 39D#B60D0801
(1786376564.340089) can0 39D#B70E0801
(1786376564.380022) can0 33D#0000FFFFFFFFFFFF
(1786376564.400087) can0 39D#B80F0801
(1786376564.420079) can0 39D#A9000801
(1786376564.459986) can0 39D#AA010801
(1786376564.499876) can0 33D#0000FFFFFFFFFFFF
(1786376564.500114) can0 39D#AB020801
(1786376564.539944) can0 39D#AC030801
(1786376564.580007) can0 33D#0000FFFFFFFFFFFF
(1786376564.600230) can0 39D#AD040801
(1786376564.620214) can0 39D#AE050801
(1786376564.660002) can0 39D#AF060801
(1786376564.700148) can0 33D#0000FFFFFFFFFFFF
(1786376564.700679) can0 39D#B0070801
(1786376564.740112) can0 39D#B1080801
(1786376564.779909) can0 33D#0000FFFFFFFFFFFF
(1786376564.800182) can0 39D#B2090801
(1786376564.820079) can0 39D#B30A0801
(1786376564.860040) can0 39D#B40B0801
(1786376564.900096) can0 33D#0000FFFFFFFFFFFF
(1786376564.900555) can0 39D#B50C0801
(1786376564.939985) can0 39D#B60D0801
(1786376564.980242) can0 33D#0000FFFFFFFFFFFF
(1786376565.000089) can0 39D#B70E0801
(1786376565.020089) can0 39D#B80F0801
(1786376565.060054) can0 39D#A9000801
(1786376565.100034) can0 33D#0000FFFFFFFFFFFF
(1786376565.100406) can0 39D#AA010801
