(1786376515.132152) can0 38E#3A21004001000000
(1786376515.191059) can0 38E#DD22004001000000
(1786376515.200961) can0 38F#E121405502000000
(1786376515.201179) can0 38E#8023004001000000
(1786376515.211069) can0 38E#3F24005501000000
(1786376515.220950) can0 38F#0622405502000000
(1786376515.221142) can0 38E#6225005501000000
(1786376515.230957) can0 38E#8526005501000000
(1786376515.241012) can0 38F#5B23405502000000
(1786376515.241315) can0 38E#D827005501000000
(1786376515.251079) can0 38E#3A28005601000000
(1786376515.260983) can0 38F#D524405502000000
(1786376515.261211) can0 38E#6729005601000000
(1786376515.271038) can0 38E#3E2A005501000000
(1786376515.280939) can0 38F#8825405502000000
(1786376515.281234) can0 38E#632B005501000000
(1786376515.290989) can0 38E#ED2C005501000000
(1786376515.300919) can0 38F#6F26405502000000
(1786376515.301221) can0 38E#B02D005501000000
(1786376515.310977) can0 38E#E92E005601000000
(1786376515.320959) can0 38F#3227405502000000
(1786376515.321191) can0 38E#0A2F005501000000
(1786376515.330885) can0 38E#5620005501000000
(1786376515.340914) can0 38F#6E28405502000000
(1786376515.341161) can0 38E#B521005601000000
(1786376515.350960) can0 38E#EC22005501000000
(1786376515.360930) can0 38F#3329405502000000
(1786376515.361174) can0 38E#B123005501000000
(1786376515.370922) can0 38E#3F24005501000000
(1786376515.380968) can0 38F#D42A405502000000
(1786376515.381185) can0 38E#DC25005601000000
(1786376515.390941) can0 38E#8526005501000000
(1786376515.401033) can0 38F#892B405502000000
(1786376515.401288) can0 38E#6627005601000000
(1786376515.410953) can0 38E#8428005501000000
(1786376515.420955) can0 38F#072C405502000000
(1786376515.421249) can0 38E#D929005501000000
(1786376515.430956) can0 38E#802A005601000000
(1786376515.440946) can0 38F#5A2D405502000000
(1786376515.441228) can0 38E#DD2B005601000000
(1786376515.450963) can0 38E#532C005601000000
(1786376515.460889) can0 38F#BD2E405502000000
(1786376515.461155) can0 38E#B02D005501000000
(1786376515.470992) can0 38E#572E005501000000
(1786376515.480934) can0 38F#E02F405502000000
(1786376515.481248) can0 38E#0A2F005501000000
(1786376515.490974) can0 38E#5620005501000000
(1786376515.500903) can0 38F#BC20405502000000
(1786376515.501208) can0 38E#0B21005501000000
(1786376515.510935) can0 38E#EC22005501000000
(1786376515.520965) can0 38F#E121405502000000
(1786376515.521243) can0 38E#B123005501000000
(1786376515.531042) can0 38E#8124005601000000
(1786376515.541009) can0 38F#0622405502000000
(1786376515.541313) can0 38E#6225005501000000
(1786376515.550897) can0 38E#8526005501000000
(1786376515.560953) can0 38F#5B23405502000000
(1786376515.561207) can0 38E#D827005501000000
(1786376515.570941) can0 38E#3A28005601000000
(1786376515.580956) can0 38F#D524405502000000
(1786376515.581162) can0 38E#D929005501000000
(1786376515.590906) can0 38E#3E2A005501000000
(1786376515.600896) can0 38F#8825405502000000
(1786376515.601233) can0 38E#DD2B005601000000
(1786376515.610910) can0 38E#532C005601000000
(1786376515.620973) can0 38F#6F26405502000000
(1786376515.621268) can0 38E#0E2D005601000000
(1786376515.630975) can0 38E#E92E005601000000
(1786376515.640958) can0 38F#3227405502000000
(1786376515.641274) can0 38E#B42F005601000000
(1786376515.650878) can0 38E#5620005501000000
(1786376515.660897) can0 38F#6E28405502000000
(1786376515.661118) can0 38E#0B21005501000000
(1786376515.670927) can0 38E#8622005401000000
(1786376515.680874) can0 38F#3329405502000000
(1786376515.681092) can0 38E#B123005501000000
(1786376515.690968) can0 38E#3F24005501000000
(1786376515.700893) can0 38F#D42A405502000000
(1786376515.701156) can0 38E#6225005501000000
(1786376515.710939) can0 38E#8526005501000000
(1786376515.721030) can0 38F#892B405502000000
(1786376515.721350) can0 38E#D827005501000000
(1786376515.730944) can0 38E#8428005501000000
(1786376515.819751) can0 38F#072C405502000000
(1786376515.820181) can0 38E#6729005601000000
(1786376515.820526) can0 38E#3E2A005501000000
(1786376515.820759) can0 38F#5A2D405502000000
(1786376515.821028) can0 38E#DD2B005601000000
(1786376515.821291) can0 38E#ED2C005501000000
(1786376515.821556) can0 38F#BD2E405502000000
(1786376515.821764) can0 38E#0E2D005601000000
(1786376515.822008) can0 38E#572E005501000000
(1786376515.822633) can0 38F#E02F405502000000
(1786376515.822995) can0 38E#B42F005601000000
(1786376515.823231) can0 38E#5620005501000000
(1786376515.824430) can0 38F#BC20405502000000
(1786376515.824729) can0 38E#B521005601000000
(1786376515.831126) can0 38E#5222005601000000
(1786376515.844165) can0 38F#E121405502000000
(1786376515.855810) can0 38E#0F23005601000000
(1786376515.856164) can0 38E#8124005601000000
(1786376515.861005) can0 38F#0622405502000000
(1786376515.861373) can0 38E#DC25005601000000
(1786376515.871087) can0 38E#3B26005601000000
(1786376515.881107) can0 38F#5B23405502000000
(1786376515.881361) can0 38E#6627005601000000
(1786376515.891079) can0 38E#8428005501000000
(1786376515.901055) can0 38F#D524405502000000
(1786376515.901441) can0 38E#6729005601000000
(1786376515.910988) can0 38E#802A005601000000
(1786376515.921064) can0 38F#8825405502000000
(1786376515.921422) can0 38E#DD2B005601000000
(1786376515.931084) can0 38E#532C005601000000
(1786376515.941031) can0 38F#6F26405502000000
(1786376515.941341) can0 38E#B02D005501000000
(1786376515.951398) can0 38E#E92E005601000000
(1786376515.961486) can0 38F#3227405502000000
(1786376515.961847) can0 38E#B42F005601000000
(1786376515.971135) can0 38E#E820005601000000
(1786376515.980964) can0 38F#6E28405502000000
(1786376515.981227) can0 38E#DF21005701000000
(1786376515.990995) can0 38E#5222005601000000
(1786376516.001022) can0 38F#3329405502000000
(1786376516.001300) can0 38E#0F23005601000000
(1786376516.011088) can0 38E#EB24005701000000
(1786376516.020999) can0 38F#D42A405502000000
(1786376516.021321) can0 38E#B625005701000000
(1786376516.031045) can0 38E#5126005701000000
(1786376516.041065) can0 38F#892B405502000000
(1786376516.041383) can0 38E#0C27005701000000
(1786376516.051142) can0 38E#5028005701000000
(1786376516.061046) can0 38F#072C405502000000
(1786376516.061402) can0 38E#0D29005701000000
(1786376516.071025) can0 38E#EA2A005701000000
(1786376516.081050) can0 38F#5A2D405502000000
(1786376516.081395) can0 38E#B72B005701000000
(1786376516.091019) can0 38E#392C005701000000
(1786376516.101138) can0 38F#BD2E405502000000
(1786376516.101534) can0 38E#642D005701000000
(1786376516.111055) can0 38E#832E005701000000
(1786376516.121027) can0 38F#E02F405502000000
(1786376516.121341) can0 38E#DE2F005701000000
(1786376516.131042) can0 38E#8220005701000000
(1786376516.140979) can0 38F#BC20405502000000
(1786376516.141290) can0 38E#DF21005701000000
(1786376516.151114) can0 38E#3822005701000000
(1786376516.161077) can0 38F#E121405502000000
(1786376516.161453) can0 38E#6523005701000000
(1786376516.171069) can0 38E#EB24005701000000
(1786376516.180992) can0 38F#0622405502000000
(1786376516.181277) can0 38E#B625005701000000
(1786376516.190986) can0 38E#5126005701000000
(1786376516.201060) can0 38F#5B23405502000000
(1786376516.201448) can0 38E#0C27005701000000
(1786376516.211112) can0 38E#5028005701000000
(1786376516.221008) can0 38F#D524405502000000
(1786376516.221275) can0 38E#0D29005701000000
(1786376516.231135) can0 38E#EA2A005701000000
(1786376516.241020) can0 38F#8825405502000000
(1786376516.241338) can0 38E#B72B005701000000
(1786376516.251021) can0 38E#392C005701000000
(1786376516.261150) can0 38F#6F26405502000000
(1786376516.261475) can0 38E#642D005701000000
(1786376516.271138) can0 38E#832E005701000000
(1786376516.281075) can0 38F#3227405502000000
(1786376516.281398) can0 38E#DE2F005701000000
(1786376516.291062) can0 38E#E820005601000000
(1786376516.301022) can0 38F#6E28405502000000
(1786376516.301310) can0 38E#B521005601000000
(1786376516.311111) can0 38E#5222005601000000
(1786376516.321003) can0 38F#3329405502000000
(1786376516.321260) can0 38E#0F23005601000000
(1786376516.330996) can0 38E#8124005601000000
(1786376516.340988) can0 38F#D42A405502000000
(1786376516.341208) can0 38E#DC25005601000000
(1786376516.350968) can0 38E#3B26005601000000
(1786376516.361124) can0 38F#892B405502000000
(1786376516.361425) can0 38E#D827005501000000
(1786376516.371012) can0 38E#3A28005601000000
(1786376516.381150) can0 38F#072C405502000000
(1786376516.381378) can0 38E#6729005601000000
(1786376516.391105) can0 38E#3E2A005501000000
(1786376516.400995) can0 38F#5A2D405502000000
(1786376516.401202) can0 38E#DD2B005601000000
(1786376516.410979) can0 38E#532C005601000000
(1786376516.420989) can0 38F#BD2E405502000000
(1786376516.421343) can0 38E#0E2D005601000000
(1786376516.431102) can0 38E#E92E005601000000
(1786376516.441092) can0 38F#E02F405502000000
(1786376516.441444) can0 38E#B42F005601000000
(1786376516.451039) can0 38E#E820005601000000
(1786376516.461028) can0 38F#BC20405502000000
(1786376516.461331) can0 38E#B521005601000000
(1786376516.471127) can0 38E#5222005601000000
(1786376516.481118) can0 38F#E121405502000000
(1786376516.481506) can0 38E#0F23005601000000
(1786376516.491093) can0 38E#8124005601000000
(1786376516.501019) can0 38F#0622405502000000
(1786376516.501351) can0 38E#DC25005601000000
(1786376516.511031) can0 38E#3B26005601000000
(1786376516.521090) can0 38F#5B23405502000000
(1786376516.521435) can0 38E#6627005601000000
(1786376516.531038) can0 38E#3A28005601000000
(1786376516.541066) can0 38F#D524405502000000
(1786376516.541410) can0 38E#6729005601000000
(1786376516.551059) can0 38E#802A005601000000
(1786376516.561099) can0 38F#8825405502000000
(1786376516.561443) can0 38E#632B005501000000
(1786376516.571037) can0 38E#532C005601000000
(1786376516.581090) can0 38F#6F26405502000000
(1786376516.581349) can0 38E#0E2D005601000000
(1786376516.591062) can0 38E#E92E005601000000
(1786376516.601056) can0 38F#3227405502000000
(1786376516.601446) can0 38E#912F005611000000
(1786376516.610991) can0 38E#CD20005611000000
(1786376516.620903) can0 38F#E228425502000000
(1786376516.621278) can0 38E#9021005611000000
(1786376516.630891) can0 38E#7722005611000000
(1786376516.641083) can0 38F#BF29425502000000
(1786376516.641371) can0 38E#2A23005611000000
(1786376516.650993) can0 38E#A424005611000000
(1786376516.661034) can0 38F#582A425502000000
(1786376516.661298) can0 38E#F925005611000000
(1786376516.670945) can0 38E#1E26005611000000
(1786376516.680937) can0 38F#052B425502000000
(1786376516.681189) can0 38E#4327005611000000
(1786376516.691095) can0 38E#1F28005611000000
(1786376516.701059) can0 38F#8B2C425502000000
(1786376516.701332) can0 38E#FC29005511000000
(1786376516.711030) can0 38E#A52A005611000000
(1786376516.721054) can0 38F#D62D425502000000
(1786376516.721333) can0 38E#F82B005611000000
(1786376516.731044) can0 38E#762C005611000000
(1786376516.741059) can0 38F#312E425502000000
(1786376516.741401) can0 38E#2B2D005611000000
(1786376516.751014) can0 38E#CC2E005611000000
(1786376516.761053) can0 38F#6C2F425502000000
(1786376516.761316) can0 38E#912F005611000000
(1786376516.771051) can0 38E#CD20005611000000
(1786376516.780999) can0 38F#3020425502000000
(1786376516.781303) can0 38E#9021005611000000
(1786376516.791376) can0 38E#C922005511000000
(1786376516.801031) can0 38F#6D21425502000000
(1786376516.801314) can0 38E#2A23005611000000
(1786376516.811106) can0 38E#A424005611000000
(1786376516.821081) can0 38F#8A22425502000000
(1786376516.821406) can0 38E#F925005611000000
(1786376516.831313) can0 38E#1E26005611000000
(1786376516.840964) can0 38F#D723425502000000
(1786376516.841229) can0 38E#4327005611000000
(1786376516.850955) can0 38E#1F28005611000000
(1786376516.861008) can0 38F#5924425502000000
(1786376516.861259) can0 38E#4229005611000000
(1786376516.871067) can0 38E#A52A005611000000
(1786376516.881060) can0 38F#0425425502000000
(1786376516.881295) can0 38E#F82B005611000000
(1786376516.891053) can0 38E#762C005611000000
(1786376516.901085) can0 38F#E326425502000000
(1786376516.901428) can0 38E#2B2D005611000000
(1786376516.911376) can0 38E#CC2E005611000000
(1786376516.921113) can0 38F#BE27425502000000
(1786376516.921395) can0 38E#912F005611000000
(1786376516.931018) can0 38E#CD20005611000000
(1786376516.941024) can0 38F#E228425502000000
(1786376516.941378) can0 38E#9021005611000000
(1786376516.951000) can0 38E#7722005611000000
(1786376516.961335) can0 38F#BF29425502000000
(1786376516.961626) can0 38E#2A23005611000000
(1786376516.971145) can0 38E#A424005611000000
(1786376516.981002) can0 38F#582A425502000000
(1786376516.981247) can0 38E#F925005611000000
(1786376516.991033) can0 38E#1E26005611000000
(1786376517.001019) can0 38F#052B425502000000
(1786376517.001251) can0 38E#2927005711000000
(1786376517.011392) can0 38E#6328005911000000
(1786376517.021027) can0 38F#8B2C425502000000
(1786376517.021295) can0 38E#3E29005911000000
(1786376517.031038) can0 38E#D92A005911000000
(1786376517.041088) can0 38F#D62D425502000000
(1786376517.041393) can0 38E#EE2B005811000000
(1786376517.051000) can0 38E#602C005811000000
(1786376517.061064) can0 38F#312E425502000000
(1786376517.061410) can0 38E#412D005711000000
(1786376517.071087) can0 38E#A62E005711000000
(1786376517.080989) can0 38F#6C2F425502000000
(1786376517.081242) can0 38E#FB2F005711000000
(1786376517.091073) can0 38E#CD20005611000000
(1786376517.101008) can0 38F#3020425502000000
(1786376517.101359) can0 38E#9021005611000000
(1786376517.111020) can0 38E#7722005611000000
(1786376517.121054) can0 38F#6D21425502000000
(1786376517.121336) can0 38E#2A23005611000000
(1786376517.130997) can0 38E#A424005611000000
(1786376517.140961) can0 38F#8A22425502000000
(1786376517.141223) can0 38E#F925005611000000
(1786376517.151017) can0 38E#1E26005611000000
(1786376517.161028) can0 38F#D723425502000000
(1786376517.161325) can0 38E#4327005611000000
(1786376517.171004) can0 38E#1F28005611000000
(1786376517.180936) can0 38F#5924425502000000
(1786376517.181211) can0 38E#4229005611000000
(1786376517.191107) can0 38E#A52A005611000000
(1786376517.200970) can0 38F#0425425502000000
(1786376517.201255) can0 38E#F82B005611000000
(1786376517.210984) can0 38E#762C005611000000
(1786376517.221043) can0 38F#E326425502000000
(1786376517.221402) can0 38E#2B2D005611000000
(1786376517.231080) can0 38E#CC2E005611000000
(1786376517.241076) can0 38F#BE27425502000000
(1786376517.241394) can0 38E#912F005611000000
(1786376517.251082) can0 38E#CD20005611000000
(1786376517.261351) can0 38F#E228425502000000
(1786376517.261674) can0 38E#9021005611000000
(1786376517.271008) can0 38E#7722005611000000
(1786376517.281074) can0 38F#BF29425502000000
(1786376517.281404) can0 38E#2A23005611000000
(1786376517.291038) can0 38E#A424005611000000
(1786376517.300984) can0 38F#702A625502000000
(1786376517.301234) can0 38E#F925005611000000
(1786376517.311088) can0 38E#1E26005611000000
(1786376517.321034) can0 38F#EC2BE25302000000
(1786376517.321431) can0 38E#4327005611000000
(1786376517.331032) can0 38E#1F28005611000000
(1786376517.341353) can0 38F#622CE25302000000
(1786376517.341665) can0 38E#4229005611000000
(1786376517.351013) can0 38E#A52A005611000000
(1786376517.361148) can0 38F#3F2DE25302000000
(1786376517.361445) can0 38E#F82B005611000000
(1786376517.370955) can0 38E#762C005611000000
(1786376517.381093) can0 38F#D82EE25302000000
(1786376517.381434) can0 38E#2B2D005611000000
(1786376517.391080) can0 38E#CC2E005611000000
(1786376517.401080) can0 38F#852FE25302000000
(1786376517.401409) can0 38E#912F005611000000
(1786376517.411083) can0 38E#CD20005611000000
(1786376517.421040) can0 38F#D920E25302000000
(1786376517.421415) can0 38E#9021005611000000
(1786376517.431078) can0 38E#7722005611000000
(1786376517.441063) can0 38F#8421E25302000000
(1786376517.441399) can0 38E#2A23005611000000
(1786376517.451012) can0 38E#A424005611000000
(1786376517.461117) can0 38F#6322E25302000000
(1786376517.461462) can0 38E#F925005611000000
(1786376517.471069) can0 38E#1E26005611000000
(1786376517.481076) can0 38F#3E23E25302000000
(1786376517.481440) can0 38E#4327005611000000
(1786376517.491044) can0 38E#1F28005611000000
(1786376517.501067) can0 38F#B024E25302000000
(1786376517.501427) can0 38E#4229005611000000
(1786376517.511136) can0 38E#A52A005611000000
(1786376517.521098) can0 38F#ED25E25302000000
(1786376517.521501) can0 38E#F82B005611000000
(1786376517.530974) can0 38E#762C005611000000
(1786376517.541001) can0 38F#0A26E25302000000
(1786376517.541454) can0 38E#2B2D005611000000
(1786376517.551490) can0 38E#CC2E005611000000
(1786376517.561132) can0 38F#5727E25302000000
(1786376517.561557) can0 38E#912F005611000000
(1786376517.571042) can0 38E#CD20005611000000
(1786376517.581028) can0 38F#0B28E25302000000
(1786376517.581438) can0 38E#9021005611000000
(1786376517.591038) can0 38E#7722005611000000
(1786376517.600955) can0 38F#5629E25302000000
(1786376517.601273) can0 38E#2A23005611000000
(1786376517.611047) can0 38E#A424005611000000
(1786376517.621017) can0 38F#B12AE25302000000
(1786376517.621270) can0 38E#F925005611000000
(1786376517.630949) can0 38E#1E26005611000000
(1786376517.641023) can0 38F#EC2BE25302000000
(1786376517.641356) can0 38E#4327005611000000
(1786376517.651255) can0 38E#1F28005611000000
(1786376517.661016) can0 38F#622CE25302000000
(1786376517.661433) can0 38E#4229005611000000
(1786376517.671060) can0 38E#A52A005611000000
(1786376517.681235) can0 38F#3F2DE25302000000
(1786376517.681597) can0 38E#F82B005611000000
(1786376517.691094) can0 38E#762C005611000000
(1786376517.700936) can0 38F#D82EE25302000000
(1786376517.701236) can0 38E#2B2D005611000000
(1786376517.711043) can0 38E#CC2E005611000000
(1786376517.721076) can0 38F#852FE25302000000
(1786376517.721438) can0 38E#912F005611000000
(1786376517.731057) can0 38E#CD20005611000000
(1786376517.741021) can0 38F#D920E25302000000
(1786376517.741338) can0 38E#9021005611000000
(1786376517.750977) can0 38E#7722005611000000
(1786376517.761493) can0 38F#8421E25302000000
(1786376517.761882) can0 38E#2A23005611000000
(1786376517.771097) can0 38E#A424005611000000
(1786376517.781029) can0 38F#6322E25302000000
(1786376517.781387) can0 38E#F925005611000000
(1786376517.791048) can0 38E#1E26005611000000
(1786376517.800989) can0 38F#3E23E25302000000
(1786376517.801334) can0 38E#4327005611000000
(1786376517.811068) can0 38E#1F28005611000000
(1786376517.821145) can0 38F#B024E25302000000
(1786376517.821476) can0 38E#4229005611000000
(1786376517.831027) can0 38E#A52A005611000000
(1786376517.841034) can0 38F#ED25E25302000000
(1786376517.841391) can0 38E#F82B005611000000
(1786376517.851082) can0 38E#762C005611000000
(1786376517.861020) can0 38F#0A26E25302000000
(1786376517.861375) can0 38E#2B2D005611000000
(1786376517.871055) can0 38E#CC2E005611000000
(1786376517.881054) can0 38F#5727E25302000000
(1786376517.881354) can0 38E#912F005611000000
(1786376517.891056) can0 38E#CD20005611000000
(1786376517.901019) can0 38F#0B28E25302000000
(1786376517.901343) can0 38E#9021005611000000
(1786376517.911002) can0 38E#7722005611000000
(1786376517.920973) can0 38F#5629E25302000000
(1786376517.921316) can0 38E#2A23005611000000
(1786376517.931095) can0 38E#A424005611000000
(1786376517.940958) can0 38F#B12AE25302000000
(1786376517.941279) can0 38E#F925005611000000
(1786376517.951023) can0 38E#1E26005611000000
(1786376517.961017) can0 38F#EC2BE25302000000
(1786376517.961325) can0 38E#4327005611000000
(1786376517.971049) can0 38E#1F28005611000000
(1786376517.981149) can0 38F#622CE25302000000
(1786376517.981550) can0 38E#4229005611000000
(1786376517.991038) can0 38E#A52A005611000000
(1786376518.000972) can0 38F#3F2DE25302000000
(1786376518.001330) can0 38E#F82B005611000000
(1786376518.010997) can0 38E#762C005611000000
(1786376518.021021) can0 38F#D82EE25302000000
(1786376518.021321) can0 38E#2B2D005611000000
(1786376518.030972) can0 38E#CC2E005611000000
(1786376518.041019) can0 38F#852FE25302000000
(1786376518.041349) can0 38E#912F005611000000
(1786376518.051085) can0 38E#CD20005611000000
(1786376518.060991) can0 38F#D920E25302000000
(1786376518.061302) can0 38E#9021005611000000
(1786376518.071091) can0 38E#7722005611000000
(1786376518.081178) can0 38F#8421E25302000000
(1786376518.081609) can0 38E#2A23005611000000
(1786376518.091017) can0 38E#A424005611000000
(1786376518.100995) can0 38F#6322E25302000000
(1786376518.101362) can0 38E#F925005611000000
(1786376518.111097) can0 38E#1E26005611000000
(1786376518.121080) can0 38F#3E23E25302000000
(1786376518.121493) can0 38E#4327005611000000
(1786376518.130931) can0 38E#1F28005611000000
(1786376518.140947) can0 38F#B024E25302000000
(1786376518.141316) can0 38E#4229005611000000
(1786376518.151072) can0 38E#A52A005611000000
(1786376518.161521) can0 38F#ED25E25302000000
(1786376518.161836) can0 38E#F82B005611000000
(1786376518.171046) can0 38E#762C005611000000
(1786376518.181043) can0 38F#0A26E25302000000
(1786376518.181406) can0 38E#2B2D005611000000
(1786376518.191073) can0 38E#CC2E005611000000
(1786376518.201034) can0 38F#5727E25302000000
(1786376518.201426) can0 38E#912F005611000000
(1786376518.211007) can0 38E#CD20005611000000
(1786376518.221035) can0 38F#0B28E25302000000
(1786376518.221541) can0 38E#9021005611000000
(1786376518.231011) can0 38E#7722005611000000
(1786376518.241040) can0 38F#5629E25302000000
(1786376518.241362) can0 38E#2A23005611000000
(1786376518.251076) can0 38E#A424005611000000
(1786376518.260990) can0 38F#B12AE25302000000
(1786376518.261289) can0 38E#F925005611000000
(1786376518.271022) can0 38E#1E26005611000000
(1786376518.281182) can0 38F#EC2BE25302000000
(1786376518.281615) can0 38E#4327005611000000
(1786376518.291009) can0 38E#1F28005611000000
(1786376518.301045) can0 38F#622CE25302000000
(1786376518.301410) can0 38E#4229005611000000
(1786376518.311051) can0 38E#A52A005611000000
(1786376518.321153) can0 38F#3F2DE25302000000
(1786376518.321479) can0 38E#F82B005611000000
(1786376518.331080) can0 38E#762C005611000000
(1786376518.340951) can0 38F#D82EE25302000000
(1786376518.341372) can0 38E#2B2D005611000000
(1786376518.351195) can0 38E#CC2E005611000000
(1786376518.361096) can0 38F#852FE25302000000
(1786376518.361427) can0 38E#912F005611000000
(1786376518.371030) can0 38E#CD20005611000000
(1786376518.381225) can0 38F#D920E25302000000
(1786376518.381686) can0 38E#9021005611000000
(1786376518.391032) can0 38E#7722005611000000
(1786376518.401032) can0 38F#8421E25302000000
(1786376518.401335) can0 38E#2A23005611000000
(1786376518.411119) can0 38E#A424005611000000
(1786376518.421002) can0 38F#6322E25302000000
(1786376518.421406) can0 38E#F925005611000000
(1786376518.430951) can0 38E#1E26005611000000
(1786376518.441058) can0 38F#3E23E25302000000
(1786376518.441388) can0 38E#4327005611000000
(1786376518.451035) can0 38E#1F28005611000000
(1786376518.460993) can0 38F#B024E25302000000
(1786376518.461378) can0 38E#4229005611000000
(1786376518.471033) can0 38E#A52A005611000000
(1786376518.481050) can0 38F#ED25E25302000000
(1786376518.481356) can0 38E#F82B005611000000
(1786376518.490944) can0 38E#762C005611000000
(1786376518.500956) can0 38F#0A26E25302000000
(1786376518.501317) can0 38E#2B2D005611000000
(1786376518.511072) can0 38E#CC2E005611000000
(1786376518.521018) can0 38F#5727E25302000000
(1786376518.521393) can0 38E#912F005611000000
(1786376518.531023) can0 38E#CD20005611000000
(1786376518.541049) can0 38F#0B28E25302000000
(1786376518.541443) can0 38E#9021005611000000
(1786376518.551096) can0 38E#7722005611000000
(1786376518.560989) can0 38F#5629E25302000000
(1786376518.561339) can0 38E#2A23005611000000
(1786376518.571051) can0 38E#A424005611000000
(1786376518.581015) can0 38F#B12AE25302000000
(1786376518.581434) can0 38E#F925005611000000
(1786376518.591096) can0 38E#1E26005611000000
(1786376518.600989) can0 38F#EC2BE25302000000
(1786376518.601527) can0 38E#4327005611000000
(1786376518.611151) can0 38E#1F28005611000000
(1786376518.621030) can0 38F#622CE25302000000
(1786376518.621390) can0 38E#4229005611000000
(1786376518.631003) can0 38E#A52A005611000000
(1786376518.641009) can0 38F#3F2DE25302000000
(1786376518.641328) can0 38E#F82B005611000000
(1786376518.650978) can0 38E#762C005611000000
(1786376518.660995) can0 38F#D82EE25302000000
(1786376518.661473) can0 38E#2B2D005611000000
(1786376518.670985) can0 38E#CC2E005611000000
(1786376518.680937) can0 38F#852FE25302000000
(1786376518.681178) can0 38E#912F005611000000
(1786376518.690981) can0 38E#CD20005611000000
(1786376518.700990) can0 38F#D920E25302000000
(1786376518.701322) can0 38E#9021005611000000
(1786376518.711020) can0 38E#7722005611000000
(1786376518.721005) can0 38F#8421E25302000000
(1786376518.721315) can0 38E#2A23005611000000
(1786376518.731018) can0 38E#A424005611000000
(1786376518.740995) can0 38F#6322E25302000000
(1786376518.741393) can0 38E#F925005611000000
(1786376518.751149) can0 38E#1E26005611000000
(1786376518.761094) can0 38F#3E23E25302000000
(1786376518.761423) can0 38E#4327005611000000
(1786376518.770943) can0 38E#1F28005611000000
(1786376518.781089) can0 38F#B024E25302000000
(1786376518.781476) can0 38E#4229005611000000
(1786376518.791038) can0 38E#A52A005611000000
(1786376518.800980) can0 38F#ED25E25302000000
(1786376518.801325) can0 38E#F82B005611000000
(1786376518.811073) can0 38E#762C005611000000
(1786376518.820967) can0 38F#0A26E25302000000
(1786376518.821278) can0 38E#2B2D005611000000
(1786376518.830978) can0 38E#CC2E005611000000
(1786376518.841095) can0 38F#5727E25302000000
(1786376518.841496) can0 38E#912F005611000000
(1786376518.851083) can0 38E#CD20005611000000
(1786376518.861009) can0 38F#0B28E25302000000
(1786376518.861375) can0 38E#9021005611000000
(1786376518.871007) can0 38E#7722005611000000
(1786376518.880995) can0 38F#5629E25302000000
(1786376518.881283) can0 38E#2A23005611000000
(1786376518.890999) can0 38E#A424005611000000
(1786376518.900942) can0 38F#B12AE25302000000
(1786376518.901324) can0 38E#F925005611000000
(1786376518.911108) can0 38E#1E26005611000000
(1786376518.921011) can0 38F#EC2BE25302000000
(1786376518.921369) can0 38E#4327005611000000
(1786376518.931026) can0 38E#1F28005611000000
(1786376518.940939) can0 38F#622CE25302000000
(1786376518.941270) can0 38E#4229005611000000
(1786376518.951069) can0 38E#A52A005611000000
(1786376518.961032) can0 38F#3F2DE25302000000
(1786376518.961360) can0 38E#F82B005611000000
(1786376518.971026) can0 38E#762C005611000000
(1786376518.981007) can0 38F#D82EE25302000000
(1786376518.981373) can0 38E#2B2D005611000000
(1786376518.990953) can0 38E#CC2E005611000000
(1786376519.000987) can0 38F#852FE25302000000
(1786376519.001370) can0 38E#912F005611000000
(1786376519.011011) can0 38E#CD20005611000000
(1786376519.021117) can0 38F#D920E25302000000
(1786376519.021462) can0 38E#9021005611000000
(1786376519.030961) can0 38E#7722005611000000
(1786376519.041017) can0 38F#8421E25302000000
(1786376519.041341) can0 38E#2A23005611000000
(1786376519.051067) can0 38E#A424005611000000
(1786376519.061083) can0 38F#6322E25302000000
(1786376519.061425) can0 38E#F925005611000000
(1786376519.071051) can0 38E#1E26005611000000
(1786376519.081151) can0 38F#3E23E25302000000
(1786376519.081580) can0 38E#4327005611000000
(1786376519.091001) can0 38E#1F28005611000000
(1786376519.100959) can0 38F#B024E25302000000
(1786376519.101379) can0 38E#4229005611000000
(1786376519.111041) can0 38E#A52A005611000000
(1786376519.121047) can0 38F#ED25E25302000000
(1786376519.121455) can0 38E#F82B005611000000
(1786376519.131035) can0 38E#762C005611000000
(1786376519.140950) can0 38F#0A26E25302000000
(1786376519.141372) can0 38E#2B2D005611000000
(1786376519.151043) can0 38E#CC2E005611000000
(1786376519.161206) can0 38F#5727E25302000000
(1786376519.161529) can0 38E#912F005611000000
(1786376519.171101) can0 38E#CD20005611000000
(1786376519.181189) can0 38F#0B28E25302000000
(1786376519.181499) can0 38E#9021005611000000
(1786376519.191028) can0 38E#7722005611000000
(1786376519.201023) can0 38F#5629E25302000000
(1786376519.201492) can0 38E#2A23005611000000
(1786376519.211025) can0 38E#A424005611000000
(1786376519.221061) can0 38F#B12AE25302000000
(1786376519.221438) can0 38E#F925005611000000
(1786376519.231051) can0 38E#1E26005611000000
(1786376519.241065) can0 38F#EC2BE25302000000
(1786376519.241409) can0 38E#4327005611000000
(1786376519.251024) can0 38E#1F28005611000000
(1786376519.260968) can0 38F#622CE25302000000
(1786376519.261314) can0 38E#4229005611000000
(1786376519.271032) can0 38E#A52A005611000000
(1786376519.280998) can0 38F#3F2DE25302000000
(1786376519.281344) can0 38E#F82B005611000000
(1786376519.290961) can0 38E#762C005611000000
(1786376519.300963) can0 38F#D82EE25302000000
(1786376519.301352) can0 38E#2B2D005611000000
(1786376519.311044) can0 38E#CC2E005611000000
(1786376519.320991) can0 38F#852FE25302000000
(1786376519.321258) can0 38E#912F005611000000
(1786376519.330900) can0 38E#CD20005611000000
(1786376519.341036) can0 38F#D920E25302000000
(1786376519.341411) can0 38E#9021005611000000
(1786376519.351119) can0 38E#7722005611000000
(1786376519.361053) can0 38F#8421E25302000000
(1786376519.361501) can0 38E#2A23005611000000
(1786376519.370998) can0 38E#A424005611000000
(1786376519.380976) can0 38F#6322E25302000000
(1786376519.381436) can0 38E#F925005611000000
(1786376519.390992) can0 38E#1E26005611000000
(1786376519.400968) can0 38F#3E23E25302000000
(1786376519.401271) can0 38E#4327005611000000
(1786376519.411005) can0 38E#1F28005611000000
(1786376519.420915) can0 38F#B024E25302000000
(1786376519.421288) can0 38E#4229005611000000
(1786376519.430919) can0 38E#A52A005611000000
(1786376519.440971) can0 38F#ED25E25302000000
(1786376519.441259) can0 38E#F82B005611000000
(1786376519.450995) can0 38E#762C005611000000
(1786376519.460958) can0 38F#0A26E25302000000
(1786376519.461200) can0 38E#2B2D005611000000
(1786376519.470963) can0 38E#CC2E005611000000
(1786376519.481003) can0 38F#5727E25302000000
(1786376519.481290) can0 38E#912F005611000000
(1786376519.491040) can0 38E#CD20005611000000
(1786376519.500935) can0 38F#0B28E25302000000
(1786376519.501165) can0 38E#9021005611000000
(1786376519.510967) can0 38E#7722005611000000
(1786376519.520999) can0 38F#5629E25302000000
(1786376519.521320) can0 38E#2A23005611000000
(1786376519.531024) can0 38E#A424005611000000
(1786376519.540964) can0 38F#B12AE25302000000
(1786376519.541226) can0 38E#F925005611000000
(1786376519.550964) can0 38E#1E26005611000000
(1786376519.561039) can0 38F#EC2BE25302000000
(1786376519.561338) can0 38E#4327005611000000
(1786376519.570956) can0 38E#1F28005611000000
(1786376519.581016) can0 38F#622CE25302000000
(1786376519.581405) can0 38E#4229005611000000
(1786376519.591047) can0 38E#A52A005611000000
(1786376519.601020) can0 38F#3F2DE25302000000
(1786376519.601396) can0 38E#F82B005611000000
(1786376519.611057) can0 38E#762C005611000000
(1786376519.621109) can0 38F#D82EE25302000000
(1786376519.621479) can0 38E#2B2D005611000000
(1786376519.630978) can0 38E#CC2E005611000000
(1786376519.640980) can0 38F#852FE25302000000
(1786376519.641310) can0 38E#912F005611000000
(1786376519.651116) can0 38E#CD20005611000000
(1786376519.661058) can0 38F#D920E25302000000
(1786376519.661381) can0 38E#9021005611000000
(1786376519.671077) can0 38E#7722005611000000
(1786376519.681078) can0 38F#8421E25302000000
(1786376519.681523) can0 38E#2A23005611000000
(1786376519.690998) can0 38E#A424005611000000
(1786376519.701019) can0 38F#6322E25302000000
(1786376519.701472) can0 38E#F925005611000000
(1786376519.711009) can0 38E#1E26005611000000
(1786376519.720963) can0 38F#3E23E25302000000
(1786376519.721283) can0 38E#4327005611000000
(1786376519.730968) can0 38E#1F28005611000000
(1786376519.740934) can0 38F#B024E25302000000
(1786376519.741145) can0 38E#4229005611000000
(1786376519.750933) can0 38E#A52A005611000000
(1786376519.760939) can0 38F#ED25E25302000000
(1786376519.761208) can0 38E#F82B005611000000
(1786376519.770972) can0 38E#762C005611000000
(1786376519.780925) can0 38F#0A26E25302000000
(1786376519.781154) can0 38E#2B2D005611000000
(1786376519.790981) can0 38E#CC2E005611000000
(1786376519.801002) can0 38F#5727E25302000000
(1786376519.801260) can0 38E#912F005611000000
(1786376519.810918) can0 38E#CD20005611000000
(1786376519.820924) can0 38F#0B28E25302000000
(1786376519.821221) can0 38E#9021005611000000
(1786376519.830961) can0 38E#7722005611000000
(1786376519.841040) can0 38F#5629E25302000000
(1786376519.841301) can0 38E#2A23005611000000
(1786376519.850942) can0 38E#A424005611000000
(1786376519.860872) can0 38F#B12AE25302000000
(1786376519.861203) can0 38E#F925005611000000
(1786376519.870982) can0 38E#1E26005611000000
(1786376519.880973) can0 38F#EC2BE25302000000
(1786376519.881259) can0 38E#4327005611000000
(1786376519.890959) can0 38E#1F28005611000000
(1786376519.900874) can0 38F#622CE25302000000
(1786376519.901165) can0 38E#4229005611000000
(1786376519.910993) can0 38E#A52A005611000000
(1786376519.921044) can0 38F#3F2DE25302000000
(1786376519.921399) can0 38E#F82B005611000000
(1786376519.930996) can0 38E#762C005611000000
(1786376519.941116) can0 38F#D82EE25302000000
(1786376519.941400) can0 38E#2B2D005611000000
(1786376519.950910) can0 38E#CC2E005611000000
(1786376519.961050) can0 38F#852FE25302000000
(1786376519.961299) can0 38E#912F005611000000
(1786376519.971023) can0 38E#CD20005611000000
(1786376519.981062) can0 38F#D920E25302000000
(1786376519.981497) can0 38E#9021005611000000
(1786376519.991011) can0 38E#7722005611000000
(1786376520.000978) can0 38F#8421E25302000000
(1786376520.001390) can0 38E#2A23005611000000
(1786376520.010978) can0 38E#A424005611000000
(1786376520.021038) can0 38F#6322E25302000000
(1786376520.021477) can0 38E#F925005611000000
(1786376520.030978) can0 38E#1E26005611000000
(1786376520.041089) can0 38F#3E23E25302000000
(1786376520.041492) can0 38E#4327005611000000
(1786376520.051189) can0 38E#1F28005611000000
(1786376520.060964) can0 38F#B024E25302000000
(1786376520.061373) can0 38E#4229005611000000
(1786376520.070965) can0 38E#A52A005611000000
(1786376520.081188) can0 38F#ED25E25302000000
(1786376520.081620) can0 38E#F82B005611000000
(1786376520.090989) can0 38E#762C005611000000
(1786376520.101172) can0 38F#0A26E25302000000
(1786376520.101569) can0 38E#2B2D005611000000
(1786376520.111020) can0 38E#CC2E005611000000
(1786376520.121015) can0 38F#5727E25302000000
(1786376520.121438) can0 38E#912F005611000000
(1786376520.131024) can0 38E#CD20005611000000
(1786376520.141034) can0 38F#0B28E25302000000
(1786376520.141464) can0 38E#9021005611000000
(1786376520.151223) can0 38E#7722005611000000
(1786376520.161059) can0 38F#5629E25302000000
(1786376520.161402) can0 38E#2A23005611000000
(1786376520.171073) can0 38E#A424005611000000
(1786376520.181136) can0 38F#B12AE25302000000
(1786376520.181618) can0 38E#F925005611000000
(1786376520.191029) can0 38E#1E26005611000000
(1786376520.201135) can0 38F#EC2BE25302000000
(1786376520.201643) can0 38E#4327005611000000
(1786376520.210980) can0 38E#1F28005611000000
(1786376520.220990) can0 38F#622CE25302000000
(1786376520.221458) can0 38E#4229005611000000
(1786376520.230970) can0 38E#A52A005611000000
(1786376520.241035) can0 38F#3F2DE25302000000
(1786376520.241479) can0 38E#F82B005611000000
(1786376520.251205) can0 38E#762C005611000000
(1786376520.260965) can0 38F#D82EE25302000000
(1786376520.261311) can0 38E#2B2D005611000000
(1786376520.271136) can0 38E#CC2E005611000000
(1786376520.281150) can0 38F#852FE25302000000
(1786376520.281628) can0 38E#912F005611000000
(1786376520.290942) can0 38E#CD20005611000000
(1786376520.301006) can0 38F#D920E25302000000
(1786376520.301443) can0 38E#9021005611000000
(1786376520.311105) can0 38E#7722005611000000
(1786376520.321068) can0 38F#8421E25302000000
(1786376520.321436) can0 38E#2A23005611000000
(1786376520.330989) can0 38E#A424005611000000
(1786376520.341039) can0 38F#6322E25302000000
(1786376520.341493) can0 38E#F925005611000000
(1786376520.351523) can0 38E#1E26005611000000
(1786376520.361030) can0 38F#3E23E25302000000
(1786376520.361405) can0 38E#4327005611000000
(1786376520.371056) can0 38E#1F28005611000000
(1786376520.381044) can0 38F#B024E25302000000
(1786376520.381518) can0 38E#4229005611000000
(1786376520.390981) can0 38E#A52A005611000000
(1786376520.401131) can0 38F#ED25E25302000000
(1786376520.401572) can0 38E#F82B005611000000
(1786376520.411122) can0 38E#762C005611000000
(1786376520.420961) can0 38F#0A26E25302000000
(1786376520.421328) can0 38E#2B2D005611000000
(1786376520.431008) can0 38E#CC2E005611000000
(1786376520.441038) can0 38F#5727E25302000000
(1786376520.441482) can0 38E#912F005611000000
(1786376520.451065) can0 38E#CD20005611000000
(1786376520.460913) can0 38F#0B28E25302000000
(1786376520.461234) can0 38E#9021005611000000
(1786376520.471023) can0 38E#7722005611000000
(1786376520.481166) can0 38F#5629E25302000000
(1786376520.481591) can0 38E#2A23005611000000
(1786376520.490932) can0 38E#A424005611000000
(1786376520.500929) can0 38F#B12AE25302000000
(1786376520.501211) can0 38E#F925005611000000
(1786376520.511111) can0 38E#1E26005611000000
(1786376520.521079) can0 38F#EC2BE25302000000
(1786376520.521475) can0 38E#4327005611000000
(1786376520.530978) can0 38E#1F28005611000000
(1786376520.540869) can0 38F#622CE25302000000
(1786376520.541178) can0 38E#4229005611000000
(1786376520.551016) can0 38E#A52A005611000000
(1786376520.561076) can0 38F#3F2DE25302000000
(1786376520.561402) can0 38E#F82B005611000000
(1786376520.570996) can0 38E#762C005611000000
(1786376520.581110) can0 38F#D82EE25302000000
(1786376520.581608) can0 38E#2B2D005611000000
(1786376520.590985) can0 38E#CC2E005611000000
(1786376520.600975) can0 38F#852FE25302000000
(1786376520.601327) can0 38E#912F005611000000
(1786376520.611028) can0 38E#CD20005611000000
(1786376520.620989) can0 38F#D920E25302000000
(1786376520.621473) can0 38E#9021005611000000
(1786376520.631026) can0 38E#7722005611000000
(1786376520.640967) can0 38F#8421E25302000000
(1786376520.641346) can0 38E#2A23005611000000
(1786376520.651038) can0 38E#A424005611000000
(1786376520.661062) can0 38F#6322E25302000000
(1786376520.661448) can0 38E#F925005611000000
(1786376520.671005) can0 38E#1E26005611000000
(1786376520.680999) can0 38F#3E23E25302000000
(1786376520.681418) can0 38E#4327005611000000
(1786376520.691054) can0 38E#1F28005611000000
(1786376520.701000) can0 38F#B024E25302000000
(1786376520.701428) can0 38E#4229005611000000
(1786376520.711038) can0 38E#A52A005611000000
(1786376520.720974) can0 38F#ED25E25302000000
(1786376520.721397) can0 38E#F82B005611000000
(1786376520.731025) can0 38E#762C005611000000
(1786376520.740947) can0 38F#0A26E25302000000
(1786376520.741236) can0 38E#2B2D005611000000
(1786376520.750946) can0 38E#CC2E005611000000
(1786376520.760980) can0 38F#5727E25302000000
(1786376520.761328) can0 38E#912F005611000000
(1786376520.771016) can0 38E#CD20005611000000
(1786376520.781074) can0 38F#0B28E25302000000
(1786376520.781451) can0 38E#9021005611000000
(1786376520.791013) can0 38E#7722005611000000
(1786376520.801046) can0 38F#5629E25302000000
(1786376520.801415) can0 38E#2A23005611000000
(1786376520.810997) can0 38E#A424005611000000
(1786376520.821002) can0 38F#B12AE25302000000
(1786376520.821599) can0 38E#F925005611000000
(1786376520.830956) can0 38E#1E26005611000000
(1786376520.841085) can0 38F#EC2BE25302000000
(1786376520.841576) can0 38E#4327005611000000
(1786376520.850903) can0 38E#1F28005611000000
(1786376520.860934) can0 38F#622CE25302000000
(1786376520.861247) can0 38E#4229005611000000
(1786376520.870902) can0 38E#A52A005611000000
(1786376520.880937) can0 38F#3F2DE25302000000
(1786376520.881171) can0 38E#F82B005611000000
(1786376520.890921) can0 38E#762C005611000000
(1786376520.900928) can0 38F#D82EE25302000000
(1786376520.901345) can0 38E#2B2D005611000000
(1786376520.911052) can0 38E#CC2E005611000000
(1786376520.920987) can0 38F#852FE25302000000
(1786376520.921388) can0 38E#912F005611000000
(1786376520.930968) can0 38E#CD20005611000000
(1786376520.941108) can0 38F#D920E25302000000
(1786376520.941558) can0 38E#9021005611000000
(1786376520.951261) can0 38E#7722005611000000
(1786376520.961108) can0 38F#8421E25302000000
(1786376520.961522) can0 38E#2A23005611000000
(1786376520.970973) can0 38E#A424005611000000
(1786376520.980985) can0 38F#6322E25302000000
(1786376520.981471) can0 38E#F925005611000000
(1786376520.991029) can0 38E#1E26005611000000
(1786376521.000999) can0 38F#3E23E25302000000
(1786376521.001351) can0 38E#4327005611000000
(1786376521.010957) can0 38E#1F28005611000000
(1786376521.020992) can0 38F#B024E25302000000
(1786376521.021501) can0 38E#4229005611000000
(1786376521.030974) can0 38E#A52A005611000000
(1786376521.041035) can0 38F#ED25E25302000000
(1786376521.041442) can0 38E#F82B005611000000
(1786376521.051260) can0 38E#762C005611000000
(1786376521.060989) can0 38F#0A26E25302000000
(1786376521.061403) can0 38E#2B2D005611000000
(1786376521.070991) can0 38E#CC2E005611000000
(1786376521.080966) can0 38F#5727E25302000000
(1786376521.081304) can0 38E#912F005611000000
(1786376521.090954) can0 38E#CD20005611000000
(1786376521.100871) can0 38F#0B28E25302000000
(1786376521.101123) can0 38E#9021005611000000
(1786376521.110937) can0 38E#7722005611000000
(1786376521.121020) can0 38F#5629E25302000000
(1786376521.121422) can0 38E#2A23005611000000
(1786376521.130956) can0 38E#A424005611000000
(1786376521.140842) can0 38F#B12AE25302000000
(1786376521.141096) can0 38E#F925005611000000
(1786376521.151120) can0 38E#1E26005611000000
(1786376521.161021) can0 38F#EC2BE25302000000
(1786376521.161349) can0 38E#4327005611000000
(1786376521.171067) can0 38E#1F28005611000000
(1786376521.181044) can0 38F#622CE25302000000
(1786376521.181489) can0 38E#4229005611000000
(1786376521.190921) can0 38E#A52A005611000000
(1786376521.200952) can0 38F#3F2DE25302000000
(1786376521.201304) can0 38E#F82B005611000000
(1786376521.211244) can0 38E#762C005611000000
(1786376521.220922) can0 38F#D82EE25302000000
(1786376521.221215) can0 38E#2B2D005611000000
(1786376521.230849) can0 38E#CC2E005611000000
(1786376521.240996) can0 38F#852FE25302000000
(1786376521.241390) can0 38E#912F005611000000
(1786376521.251178) can0 38E#CD20005611000000
(1786376521.261011) can0 38F#D920E25302000000
(1786376521.261375) can0 38E#9021005611000000
(1786376521.271029) can0 38E#7722005611000000
(1786376521.281097) can0 38F#8421E25302000000
(1786376521.281550) can0 38E#2A23005611000000
(1786376521.290952) can0 38E#A424005611000000
(1786376521.300924) can0 38F#6322E25302000000
(1786376521.301328) can0 38E#F925005611000000
(1786376521.310990) can0 38E#1E26005611000000
(1786376521.321089) can0 38F#3E23E25302000000
(1786376521.321410) can0 38E#4327005611000000
(1786376521.331004) can0 38E#1F28005611000000
(1786376521.340948) can0 38F#B024E25302000000
(1786376521.341283) can0 38E#4229005611000000
(1786376521.351013) can0 38E#A52A005611000000
(1786376521.360944) can0 38F#ED25E25302000000
(1786376521.361352) can0 38E#F82B005611000000
(1786376521.370975) can0 38E#762C005611000000
(1786376521.380924) can0 38F#0A26E25302000000
(1786376521.381257) can0 38E#2B2D005611000000
(1786376521.391029) can0 38E#CC2E005611000000
(1786376521.400909) can0 38F#5727E25302000000
(1786376521.401175) can0 38E#912F005611000000
(1786376521.410897) can0 38E#CD20005611000000
(1786376521.420960) can0 38F#0B28E25302000000
(1786376521.421248) can0 38E#9021005611000000
(1786376521.430986) can0 38E#7722005611000000
(1786376521.440953) can0 38F#5629E25302000000
(1786376521.441313) can0 38E#2A23005611000000
(1786376521.451138) can0 38E#A424005611000000
(1786376521.461033) can0 38F#B12AE25302000000
(1786376521.461406) can0 38E#F925005611000000
(1786376521.470970) can0 38E#1E26005611000000
(1786376521.481153) can0 38F#EC2BE25302000000
(1786376521.481601) can0 38E#4327005611000000
(1786376521.491071) can0 38E#1F28005611000000
(1786376521.500963) can0 38F#622CE25302000000
(1786376521.501307) can0 38E#4229005611000000
(1786376521.510981) can0 38E#2A2A004011000000
(1786376521.521000) can0 38F#3F2DE25302000000
(1786376521.521398) can0 38E#772B004011000000
(1786376521.531135) can0 38E#F92C004011000000
(1786376521.540920) can0 38F#D82EE25302000000
(1786376521.541242) can0 38E#A42D004011000000
(1786376521.551265) can0 38E#432E004011000000
(1786376521.561056) can0 38F#852FE25302000000
(1786376521.561423) can0 38E#1E2F004011000000
(1786376521.570968) can0 38E#4220004011000000
(1786376521.580954) can0 38F#D920E25302000000
(1786376521.581354) can0 38E#1F21004011000000
(1786376521.591011) can0 38E#F822004011000000
(1786376521.601148) can0 38F#8421E25302000000
(1786376521.601607) can0 38E#A523004011000000
(1786376521.611070) can0 38E#2B24004011000000
(1786376521.620955) can0 38F#6322E25302000000
(1786376521.621452) can0 38E#7625004011000000
(1786376521.631120) can0 38E#9126004011000000
(1786376521.641039) can0 38F#3E23E25302000000
(1786376521.641429) can0 38E#CC27004011000000
(1786376521.651075) can0 38E#9028004011000000
(1786376521.660828) can0 38F#B024E25302000000
(1786376521.661170) can0 38E#CD29004011000000
(1786376521.670964) can0 38E#2A2A004011000000
(1786376521.681075) can0 38F#ED25E25302000000
(1786376521.681510) can0 38E#772B004011000000
(1786376521.690911) can0 38E#F92C004011000000
(1786376521.700955) can0 38F#0A26E25302000000
(1786376521.701358) can0 38E#A42D004011000000
(1786376521.710936) can0 38E#432E004011000000
(1786376521.720942) can0 38F#5727E25302000000
(1786376521.721379) can0 38E#1E2F004011000000
(1786376521.731010) can0 38E#4220004011000000
(1786376521.740866) can0 38F#0B28E25302000000
(1786376521.741222) can0 38E#1F21004011000000
(1786376521.750834) can0 38E#F822004011000000
(1786376521.760937) can0 38F#5629E25302000000
(1786376521.761218) can0 38E#A523004011000000
(1786376521.770930) can0 38E#2B24004011000000
(1786376521.780604) can0 38F#B12AE25302000000
(1786376521.780973) can0 38E#7625004011000000
(1786376521.790825) can0 38E#9126004011000000
(1786376521.800866) can0 38F#EC2BE25302000000
(1786376521.801245) can0 38E#CC27004011000000
(1786376521.810907) can0 38E#9028004011000000
(1786376521.820870) can0 38F#622CE25302000000
(1786376521.821181) can0 38E#CD29004011000000
(1786376521.830810) can0 38E#2A2A004011000000
(1786376521.840926) can0 38F#3F2DE25302000000
(1786376521.841392) can0 38E#772B004011000000
(1786376521.851136) can0 38E#F92C004011000000
(1786376521.860811) can0 38F#D82EE25302000000
(1786376521.861160) can0 38E#A42D004011000000
(1786376521.870863) can0 38E#432E004011000000
(1786376521.881026) can0 38F#852FE25302000000
(1786376521.881425) can0 38E#1E2F004011000000
(1786376521.890870) can0 38E#4220004011000000
(1786376521.901002) can0 38F#D920E25302000000
(1786376521.901461) can0 38E#1F21004011000000
(1786376521.910836) can0 38E#F822004011000000
(1786376521.920910) can0 38F#8421E25302000000
(1786376521.921323) can0 38E#A523004011000000
(1786376521.930987) can0 38E#2B24004011000000
(1786376521.940825) can0 38F#6322E25302000000
(1786376521.941124) can0 38E#7625004011000000
(1786376521.950835) can0 38E#9126004011000000
(1786376521.960801) can0 38F#3E23E25302000000
(1786376521.961039) can0 38E#CC27004011000000
(1786376521.970853) can0 38E#9028004011000000
(1786376521.980776) can0 38F#B024E25302000000
(1786376521.981053) can0 38E#CD29004011000000
(1786376521.990894) can0 38E#2A2A004011000000
(1786376522.000781) can0 38F#ED25E25302000000
(1786376522.001103) can0 38E#772B004011000000
(1786376522.010809) can0 38E#F92C004011000000
(1786376522.020789) can0 38F#0A26E25302000000
(1786376522.021085) can0 38E#A42D004011000000
(1786376522.030895) can0 38E#432E004011000000
(1786376522.040853) can0 38F#5727E25302000000
(1786376522.041194) can0 38E#1E2F004011000000
(1786376522.050940) can0 38E#4220004011000000
(1786376522.060849) can0 38F#0B28E25302000000
(1786376522.061243) can0 38E#1F21004011000000
(1786376522.070942) can0 38E#F822004011000000
(1786376522.080937) can0 38F#5629E25302000000
(1786376522.081396) can0 38E#A523004011000000
(1786376522.090815) can0 38E#2B24004011000000
(1786376522.100831) can0 38F#B12AE25302000000
(1786376522.101177) can0 38E#7625004011000000
(1786376522.110906) can0 38E#9126004011000000
(1786376522.120906) can0 38F#EC2BE25302000000
(1786376522.121263) can0 38E#CC27004011000000
(1786376522.131110) can0 38E#9028004011000000
(1786376522.140876) can0 38F#622CE25302000000
(1786376522.141253) can0 38E#CD29004011000000
(1786376522.150988) can0 38E#2A2A004011000000
(1786376522.160883) can0 38F#3F2DE25302000000
(1786376522.161222) can0 38E#772B004011000000
(1786376522.170945) can0 38E#F92C004011000000
(1786376522.180868) can0 38F#D82EE25302000000
(1786376522.181283) can0 38E#A42D004011000000
(1786376522.190845) can0 38E#432E004011000000
(1786376522.201033) can0 38F#852FE25302000000
(1786376522.201455) can0 38E#1E2F004011000000
(1786376522.210614) can0 38E#4220004011000000
(1786376522.220836) can0 38F#D920E25302000000
(1786376522.221277) can0 38E#1F21004011000000
(1786376522.231047) can0 38E#F822004011000000
(1786376522.240843) can0 38F#8421E25302000000
(1786376522.241120) can0 38E#A523004011000000
(1786376522.250934) can0 38E#2B24004011000000
(1786376522.260826) can0 38F#6322E25302000000
(1786376522.261185) can0 38E#7625004011000000
(1786376522.270912) can0 38E#9126004011000000
(1786376522.281109) can0 38F#3E23E25302000000
(1786376522.281574) can0 38E#CC27004011000000
(1786376522.290861) can0 38E#9028004011000000
(1786376522.300772) can0 38F#B024E25302000000
(1786376522.301161) can0 38E#CD29004011000000
(1786376522.311043) can0 38E#2A2A004011000000
(1786376522.320903) can0 38F#ED25E25302000000
(1786376522.321258) can0 38E#772B004011000000
(1786376522.330929) can0 38E#F92C004011000000
(1786376522.340814) can0 38F#0A26E25302000000
(1786376522.341214) can0 38E#A42D004011000000
(1786376522.350910) can0 38E#432E004011000000
(1786376522.360832) can0 38F#5727E25302000000
(1786376522.361195) can0 38E#1E2F004011000000
(1786376522.370822) can0 38E#4220004011000000
(1786376522.380993) can0 38F#0B28E25302000000
(1786376522.381420) can0 38E#1F21004011000000
(1786376522.390854) can0 38E#F822004011000000
(1786376522.400828) can0 38F#5629E25302000000
(1786376522.401159) can0 38E#A523004011000000
(1786376522.410913) can0 38E#2B24004011000000
(1786376522.420915) can0 38F#B12AE25302000000
