(1786378260.248695) can0 38E#3A21004001000000
(1786378260.326338) can0 38E#DD22004001000000
(1786378260.336326) can0 38F#E121405502000000
(1786378260.336610) can0 38E#8023004001000000
(1786378260.346438) can0 38E#3F24005501000000
(1786378260.356216) can0 38F#0622405502000000
(1786378260.356496) can0 38E#6225005501000000
(1786378260.366298) can0 38E#8526005501000000
(1786378260.376259) can0 38F#5B23405502000000
(1786378260.376489) can0 38E#D827005501000000
(1786378260.386253) can0 38E#8428005501000000
(1786378260.396257) can0 38F#D524405502000000
(1786378260.396540) can0 38E#D929005501000000
(1786378260.406298) can0 38E#542A005401000000
(1786378260.416189) can0 38F#8825405502000000
(1786378260.416485) can0 38E#632B005501000000
(1786378260.426300) can0 38E#ED2C005501000000
(1786378260.436247) can0 38F#6F26405502000000
(1786378260.436675) can0 38E#B02D005501000000
(1786378260.446221) can0 38E#572E005501000000
(1786378260.456226) can0 38F#3227405502000000
(1786378260.456504) can0 38E#0A2F005501000000
(1786378260.466195) can0 38E#5620005501000000
(1786378260.476190) can0 38F#6E28405502000000
(1786378260.476501) can0 38E#0B21005501000000
(1786378260.486387) can0 38E#EC22005501000000
(1786378260.496258) can0 38F#3329405502000000
(1786378260.496521) can0 38E#DB23005401000000
(1786378260.506295) can0 38E#3F24005501000000
(1786378260.516299) can0 38F#D42A405502000000
(1786378260.516613) can0 38E#6225005501000000
(1786378260.526282) can0 38E#8526005501000000
(1786378260.536412) can0 38F#892B405502000000
(1786378260.536828) can0 38E#D827005501000000
(1786378260.546395) can0 38E#8428005501000000
(1786378260.556260) can0 38F#072C405502000000
(1786378260.556568) can0 38E#D929005501000000
(1786378260.566190) can0 38E#3E2A005501000000
(1786378260.576286) can0 38F#5A2D405502000000
(1786378260.576590) can0 38E#632B005501000000
(1786378260.586290) can0 38E#ED2C005501000000
(1786378260.596389) can0 38F#BD2E405502000000
(1786378260.596806) can0 38E#B02D005501000000
(1786378260.606342) can0 38E#572E005501000000
(1786378260.616288) can0 38F#E02F405502000000
(1786378260.616652) can0 38E#0A2F005501000000
(1786378260.626441) can0 38E#5620005501000000
(1786378260.636260) can0 38F#BC20405502000000
(1786378260.636589) can0 38E#0B21005501000000
(1786378260.646288) can0 38E#EC22005501000000
(1786378260.656397) can0 38F#E121405502000000
(1786378260.656717) can0 38E#B123005501000000
(1786378260.666363) can0 38E#3F24005501000000
(1786378260.676329) can0 38F#0622405502000000
(1786378260.676704) can0 38E#6225005501000000
(1786378260.686292) can0 38E#8526005501000000
(1786378260.696243) can0 38F#5B23405502000000
(1786378260.696573) can0 38E#D827005501000000
(1786378260.706221) can0 38E#8428005501000000
(1786378260.716227) can0 38F#D524405502000000
(1786378260.716544) can0 38E#D929005501000000
(1786378260.726321) can0 38E#3E2A005501000000
(1786378260.736421) can0 38F#8825405502000000
(1786378260.736945) can0 38E#632B005501000000
(1786378260.746509) can0 38E#ED2C005501000000
(1786378260.756316) can0 38F#6F26405502000000
(1786378260.756639) can0 38E#B02D005501000000
(1786378260.766408) can0 38E#572E005501000000
(1786378260.776416) can0 38F#3227405502000000
(1786378260.776773) can0 38E#0A2F005501000000
(1786378260.786264) can0 38E#5620005501000000
(1786378260.796320) can0 38F#6E28405502000000
(1786378260.796669) can0 38E#0B21005501000000
(1786378260.806393) can0 38E#8622005401000000
(1786378260.816327) can0 38F#3329405502000000
(1786378260.816757) can0 38E#B123005501000000
(1786378260.826312) can0 38E#3F24005501000000
(1786378260.836235) can0 38F#D42A405502000000
(1786378260.836568) can0 38E#6225005501000000
(1786378260.846284) can0 38E#8526005501000000
(1786378260.856326) can0 38F#892B405502000000
(1786378260.856665) can0 38E#D827005501000000
(1786378260.866244) can0 38E#8428005501000000
(1786378260.876194) can0 38F#072C405502000000
(1786378260.876539) can0 38E#D929005501000000
(1786378260.886331) can0 38E#3E2A005501000000
(1786378260.896467) can0 38F#5A2D405502000000
(1786378260.896928) can0 38E#092B005401000000
(1786378260.906310) can0 38E#ED2C005501000000
(1786378260.916314) can0 38F#BD2E405502000000
(1786378260.916672) can0 38E#B02D005501000000
(1786378260.926542) can0 38E#572E005501000000
(1786378260.936518) can0 38F#E02F405502000000
(1786378260.937215) can0 38E#0A2F005501000000
(1786378260.946430) can0 38E#5620005501000000
(1786378260.956300) can0 38F#BC20405502000000
(1786378260.956656) can0 38E#0B21005501000000
(1786378260.966781) can0 38E#5222005601000000
(1786378260.976808) can0 38F#E121405502000000
(1786378260.977112) can0 38E#B123005501000000
(1786378260.986376) can0 38E#3F24005501000000
(1786378260.996339) can0 38F#0622405502000000
(1786378260.996756) can0 38E#6225005501000000
(1786378261.006325) can0 38E#8526005501000000
(1786378261.016300) can0 38F#5B23405502000000
(1786378261.016550) can0 38E#D827005501000000
(1786378261.026376) can0 38E#8428005501000000
(1786378261.036381) can0 38F#D524405502000000
(1786378261.036758) can0 38E#D929005501000000
(1786378261.046318) can0 38E#3E2A005501000000
(1786378261.056394) can0 38F#8825405502000000
(1786378261.056763) can0 38E#632B005501000000
(1786378261.066383) can0 38E#ED2C005501000000
(1786378261.076337) can0 38F#6F26405502000000
(1786378261.076556) can0 38E#B02D005501000000
(1786378261.086310) can0 38E#572E005501000000
(1786378261.096388) can0 38F#3227405502000000
(1786378261.096781) can0 38E#0A2F005501000000
(1786378261.106342) can0 38E#5620005501000000
(1786378261.116334) can0 38F#6E28405502000000
(1786378261.116798) can0 38E#0B21005501000000
(1786378261.126326) can0 38E#EC22005501000000
(1786378261.136353) can0 38F#3329405502000000
(1786378261.136888) can0 38E#B123005501000000
(1786378261.146392) can0 38E#3F24005501000000
(1786378261.156258) can0 38F#D42A405502000000
(1786378261.156495) can0 38E#6225005501000000
(1786378261.166278) can0 38E#8526005501000000
(1786378261.176255) can0 38F#892B405502000000
(1786378261.176497) can0 38E#D827005501000000
(1786378261.186453) can0 38E#8428005501000000
(1786378261.196525) can0 38F#072C405502000000
(1786378261.197185) can0 38E#D929005501000000
(1786378261.206298) can0 38E#3E2A005501000000
(1786378261.216228) can0 38F#5A2D405502000000
(1786378261.216469) can0 38E#632B005501000000
(1786378261.226242) can0 38E#ED2C005501000000
(1786378261.236376) can0 38F#BD2E405502000000
(1786378261.236863) can0 38E#B02D005501000000
(1786378261.246556) can0 38E#572E005501000000
(1786378261.256340) can0 38F#E02F405502000000
(1786378261.256691) can0 38E#0A2F005501000000
(1786378261.266290) can0 38E#5620005501000000
(1786378261.276323) can0 38F#BC20405502000000
(1786378261.276690) can0 38E#B521005601000000
(1786378261.286510) can0 38E#EC22005501000000
(1786378261.296328) can0 38F#E121405502000000
(1786378261.296651) can0 38E#0F23005601000000
(1786378261.306513) can0 38E#8124005601000000
(1786378261.316386) can0 38F#0622405502000000
(1786378261.316849) can0 38E#6225005501000000
(1786378261.326289) can0 38E#8526005501000000
(1786378261.336331) can0 38F#5B23405502000000
(1786378261.336756) can0 38E#D827005501000000
(1786378261.346700) can0 38E#8428005501000000
(1786378261.356325) can0 38F#D524405502000000
(1786378261.356590) can0 38E#D929005501000000
(1786378261.366339) can0 38E#3E2A005501000000
(1786378261.376280) can0 38F#8825405502000000
(1786378261.376518) can0 38E#632B005501000000
(1786378261.386358) can0 38E#ED2C005501000000
(1786378261.396379) can0 38F#6F26405502000000
(1786378261.396681) can0 38E#B02D005501000000
(1786378261.406379) can0 38E#572E005501000000
(1786378261.416417) can0 38F#3227405502000000
(1786378261.416843) can0 38E#0A2F005501000000
(1786378261.426372) can0 38E#5620005501000000
(1786378261.436342) can0 38F#6E28405502000000
(1786378261.436694) can0 38E#0B21005501000000
(1786378261.446336) can0 38E#EC22005501000000
(1786378261.456371) can0 38F#3329405502000000
(1786378261.456720) can0 38E#B123005501000000
(1786378261.466336) can0 38E#3F24005501000000
(1786378261.476298) can0 38F#D42A405502000000
(1786378261.476707) can0 38E#6225005501000000
(1786378261.486363) can0 38E#8526005501000000
(1786378261.496442) can0 38F#892B405502000000
(1786378261.496782) can0 38E#D827005501000000
(1786378261.506353) can0 38E#8428005501000000
(1786378261.516448) can0 38F#072C405502000000
(1786378261.516715) can0 38E#D929005501000000
(1786378261.526398) can0 38E#3E2A005501000000
(1786378261.536515) can0 38F#5A2D405502000000
(1786378261.536884) can0 38E#632B005501000000
(1786378261.546316) can0 38E#ED2C005501000000
(1786378261.556262) can0 38F#BD2E405502000000
(1786378261.556654) can0 38E#B02D005501000000
(1786378261.566312) can0 38E#572E005501000000
(1786378261.576356) can0 38F#E02F405502000000
(1786378261.576597) can0 38E#0A2F005501000000
(1786378261.586335) can0 38E#5620005501000000
(1786378261.596358) can0 38F#BC20405502000000
(1786378261.596618) can0 38E#0B21005501000000
(1786378261.606347) can0 38E#EC22005501000000
(1786378261.616351) can0 38F#E121405502000000
(1786378261.616648) can0 38E#9423005511000000
(1786378261.626342) can0 38E#1A24005511000000
(1786378261.636263) can0 38F#8A22425502000000
(1786378261.636596) can0 38E#4725005511000000
(1786378261.646332) can0 38E#A026005511000000
(1786378261.656410) can0 38F#D723425502000000
(1786378261.656688) can0 38E#FD27005511000000
(1786378261.666539) can0 38E#A128005511000000
(1786378261.676362) can0 38F#5924425502000000
(1786378261.676673) can0 38E#FC29005511000000
(1786378261.686395) can0 38E#1B2A005511000000
(1786378261.696309) can0 38F#0425425502000000
(1786378261.696538) can0 38E#462B005511000000
(1786378261.706436) can0 38E#C82C005511000000
(1786378261.716398) can0 38F#E326425502000000
(1786378261.716801) can0 38E#952D005511000000
(1786378261.726359) can0 38E#722E005511000000
(1786378261.736433) can0 38F#BE27425502000000
(1786378261.736789) can0 38E#2F2F005511000000
(1786378261.746442) can0 38E#7320005511000000
(1786378261.756300) can0 38F#E228425502000000
(1786378261.756599) can0 38E#2E21005511000000
(1786378261.766298) can0 38E#C922005511000000
(1786378261.776679) can0 38F#BF29425502000000
(1786378261.776999) can0 38E#9423005511000000
(1786378261.786379) can0 38E#1A24005511000000
(1786378261.796652) can0 38F#582A425502000000
(1786378261.796937) can0 38E#4725005511000000
(1786378261.806315) can0 38E#A026005511000000
(1786378261.816416) can0 38F#052B425502000000
(1786378261.816790) can0 38E#FD27005511000000
(1786378261.826688) can0 38E#A128005511000000
(1786378261.836474) can0 38F#8B2C425502000000
(1786378261.836877) can0 38E#FC29005511000000
(1786378261.846640) can0 38E#1B2A005511000000
(1786378261.856376) can0 38F#D62D425502000000
(1786378261.856688) can0 38E#462B005511000000
(1786378261.866460) can0 38E#C82C005511000000
(1786378261.876322) can0 38F#312E425502000000
(1786378261.876682) can0 38E#952D005511000000
(1786378261.886316) can0 38E#722E005511000000
(1786378261.896394) can0 38F#6C2F425502000000
(1786378261.896699) can0 38E#2F2F005511000000
(1786378261.906353) can0 38E#CD20005611000000
(1786378261.916537) can0 38F#3020425502000000
(1786378261.916939) can0 38E#2E21005511000000
(1786378261.926376) can0 38E#C922005511000000
(1786378261.936376) can0 38F#6D21425502000000
(1786378261.936749) can0 38E#9423005511000000
(1786378261.946738) can0 38E#1A24005511000000
(1786378261.956501) can0 38F#8A22425502000000
(1786378261.956810) can0 38E#4725005511000000
(1786378261.966692) can0 38E#A026005511000000
(1786378261.976375) can0 38F#D723425502000000
(1786378261.976782) can0 38E#FD27005511000000
(1786378261.986437) can0 38E#A128005511000000
(1786378261.996694) can0 38F#5924425502000000
(1786378261.997134) can0 38E#4229005611000000
(1786378262.006748) can0 38E#D92A005911000000
(1786378262.016421) can0 38F#0425425502000000
(1786378262.016805) can0 38E#842B005911000000
(1786378262.026328) can0 38E#0A2C005911000000
(1786378262.036382) can0 38F#E326425502000000
(1786378262.036825) can0 38E#3D2D005811000000
(1786378262.046679) can0 38E#DA2E005811000000
(1786378262.056337) can0 38F#BE27425502000000
(1786378262.056595) can0 38E#FB2F005711000000
(1786378262.066347) can0 38E#A720005711000000
(1786378262.076211) can0 38F#E228425502000000
(1786378262.076460) can0 38E#FA21005711000000
(1786378262.086326) can0 38E#7722005611000000
(1786378262.096394) can0 38F#BF29425502000000
(1786378262.096739) can0 38E#2A23005611000000
(1786378262.106325) can0 38E#A424005611000000
(1786378262.116275) can0 38F#582A425502000000
(1786378262.116504) can0 38E#F925005611000000
(1786378262.126274) can0 38E#1E26005611000000
(1786378262.136431) can0 38F#052B425502000000
(1786378262.136903) can0 38E#4327005611000000
(1786378262.146584) can0 38E#1F28005611000000
(1786378262.156310) can0 38F#8B2C425502000000
(1786378262.156551) can0 38E#4229005611000000
(1786378262.166395) can0 38E#A52A005611000000
(1786378262.176456) can0 38F#D62D425502000000
(1786378262.176850) can0 38E#F82B005611000000
(1786378262.186343) can0 38E#762C005611000000
(1786378262.196318) can0 38F#312E425502000000
(1786378262.196762) can0 38E#2B2D005611000000
(1786378262.206359) can0 38E#CC2E005611000000
(1786378262.216438) can0 38F#6C2F425502000000
(1786378262.216882) can0 38E#912F005611000000
(1786378262.226352) can0 38E#CD20005611000000
(1786378262.236315) can0 38F#3020425502000000
(1786378262.236684) can0 38E#9021005611000000
(1786378262.246361) can0 38E#7722005611000000
(1786378262.256368) can0 38F#6D21425502000000
(1786378262.256685) can0 38E#2A23005611000000
(1786378262.266425) can0 38E#A424005611000000
(1786378262.276369) can0 38F#8A22425502000000
(1786378262.276724) can0 38E#F925005611000000
(1786378262.286397) can0 38E#1E26005611000000
(1786378262.296383) can0 38F#D723425502000000
(1786378262.296727) can0 38E#4327005611000000
(1786378262.306330) can0 38E#1F28005611000000
(1786378262.316224) can0 38F#5924425502000000
(1786378262.316515) can0 38E#4229005611000000
(1786378262.326356) can0 38E#A52A005611000000
(1786378262.336419) can0 38F#0425425502000000
(1786378262.336850) can0 38E#F82B005611000000
(1786378262.346408) can0 38E#762C005611000000
(1786378262.356356) can0 38F#E326425502000000
(1786378262.356668) can0 38E#2B2D005611000000
(1786378262.366398) can0 38E#CC2E005611000000
(1786378262.376370) can0 38F#BE27425502000000
(1786378262.376720) can0 38E#912F005611000000
(1786378262.386454) can0 38E#CD20005611000000
(1786378262.396697) can0 38F#E228425502000000
(1786378262.397112) can0 38E#9021005611000000
(1786378262.406375) can0 38E#7722005611000000
(1786378262.416509) can0 38F#BF29425502000000
(1786378262.416922) can0 38E#2A23005611000000
(1786378262.426418) can0 38E#A424005611000000
(1786378262.436377) can0 38F#702A625502000000
(1786378262.436770) can0 38E#F925005611000000
(1786378262.446410) can0 38E#1E26005611000000
(1786378262.456323) can0 38F#EC2BE25302000000
(1786378262.456581) can0 38E#4327005611000000
(1786378262.466485) can0 38E#1F28005611000000
(1786378262.476439) can0 38F#622CE25302000000
(1786378262.476788) can0 38E#4229005611000000
(1786378262.486417) can0 38E#A52A005611000000
(1786378262.496397) can0 38F#3F2DE25302000000
(1786378262.496774) can0 38E#F82B005611000000
(1786378262.506327) can0 38E#762C005611000000
(1786378262.516411) can0 38F#D82EE25302000000
(1786378262.516920) can0 38E#2B2D005611000000
(1786378262.526392) can0 38E#CC2E005611000000
(1786378262.536368) can0 38F#852FE25302000000
(1786378262.536795) can0 38E#912F005611000000
(1786378262.546571) can0 38E#CD20005611000000
(1786378262.556286) can0 38F#D920E25302000000
(1786378262.556679) can0 38E#9021005611000000
(1786378262.566400) can0 38E#7722005611000000
(1786378262.576474) can0 38F#8421E25302000000
(1786378262.576973) can0 38E#2A23005611000000
(1786378262.586466) can0 38E#A424005611000000
(1786378262.596609) can0 38F#6322E25302000000
(1786378262.597182) can0 38E#F925005611000000
(1786378262.606560) can0 38E#1E26005611000000
(1786378262.616307) can0 38F#3E23E25302000000
(1786378262.616702) can0 38E#4327005611000000
(1786378262.626364) can0 38E#1F28005611000000
(1786378262.636465) can0 38F#B024E25302000000
(1786378262.636935) can0 38E#4229005611000000
(1786378262.646517) can0 38E#A52A005611000000
(1786378262.656343) can0 38F#ED25E25302000000
(1786378262.656655) can0 38E#F82B005611000000
(1786378262.666274) can0 38E#762C005611000000
(1786378262.676318) can0 38F#0A26E25302000000
(1786378262.676738) can0 38E#2B2D005611000000
(1786378262.686518) can0 38E#CC2E005611000000
(1786378262.696441) can0 38F#5727E25302000000
(1786378262.696915) can0 38E#912F005611000000
(1786378262.706344) can0 38E#CD20005611000000
(1786378262.716312) can0 38F#0B28E25302000000
(1786378262.716762) can0 38E#9021005611000000
(1786378262.726316) can0 38E#7722005611000000
(1786378262.736410) can0 38F#5629E25302000000
(1786378262.736879) can0 38E#2A23005611000000
(1786378262.746379) can0 38E#A424005611000000
(1786378262.756303) can0 38F#B12AE25302000000
(1786378262.756589) can0 38E#F925005611000000
(1786378262.766383) can0 38E#1E26005611000000
(1786378262.776370) can0 38F#EC2BE25302000000
(1786378262.776723) can0 38E#4327005611000000
(1786378262.786489) can0 38E#1F28005611000000
(1786378262.796311) can0 38F#622CE25302000000
(1786378262.796740) can0 38E#4229005611000000
(1786378262.806377) can0 38E#A52A005611000000
(1786378262.816428) can0 38F#3F2DE25302000000
(1786378262.816825) can0 38E#F82B005611000000
(1786378262.826429) can0 38E#762C005611000000
(1786378262.836355) can0 38F#D82EE25302000000
(1786378262.836870) can0 38E#2B2D005611000000
(1786378262.846506) can0 38E#CC2E005611000000
(1786378262.856293) can0 38F#852FE25302000000
(1786378262.856629) can0 38E#912F005611000000
(1786378262.866437) can0 38E#CD20005611000000
(1786378262.876265) can0 38F#D920E25302000000
(1786378262.876560) can0 38E#9021005611000000
(1786378262.886447) can0 38E#7722005611000000
(1786378262.896651) can0 38F#8421E25302000000
(1786378262.897030) can0 38E#2A23005611000000
(1786378262.906395) can0 38E#A424005611000000
(1786378262.916417) can0 38F#6322E25302000000
(1786378262.916857) can0 38E#F925005611000000
(1786378262.926316) can0 38E#1E26005611000000
(1786378262.936337) can0 38F#3E23E25302000000
(1786378262.936684) can0 38E#4327005611000000
(1786378262.946258) can0 38E#1F28005611000000
(1786378262.956311) can0 38F#B024E25302000000
(1786378262.956521) can0 38E#4229005611000000
(1786378262.966303) can0 38E#A52A005611000000
(1786378262.976283) can0 38F#ED25E25302000000
(1786378262.976549) can0 38E#F82B005611000000
(1786378262.986311) can0 38E#762C005611000000
(1786378262.996305) can0 38F#0A26E25302000000
(1786378262.996666) can0 38E#2B2D005611000000
(1786378263.006380) can0 38E#CC2E005611000000
(1786378263.016322) can0 38F#5727E25302000000
(1786378263.016634) can0 38E#912F005611000000
(1786378263.026376) can0 38E#CD20005611000000
(1786378263.036288) can0 38F#0B28E25302000000
(1786378263.036608) can0 38E#9021005611000000
(1786378263.046268) can0 38E#7722005611000000
(1786378263.056244) can0 38F#5629E25302000000
(1786378263.056513) can0 38E#2A23005611000000
(1786378263.066415) can0 38E#A424005611000000
(1786378263.076314) can0 38F#B12AE25302000000
(1786378263.076619) can0 38E#F925005611000000
(1786378263.086395) can0 38E#1E26005611000000
(1786378263.096466) can0 38F#EC2BE25302000000
(1786378263.096909) can0 38E#4327005611000000
(1786378263.106387) can0 38E#1F28005611000000
(1786378263.116432) can0 38F#622CE25302000000
(1786378263.116789) can0 38E#4229005611000000
(1786378263.126330) can0 38E#A52A005611000000
(1786378263.136379) can0 38F#3F2DE25302000000
(1786378263.136761) can0 38E#F82B005611000000
(1786378263.146559) can0 38E#762C005611000000
(1786378263.156267) can0 38F#D82EE25302000000
(1786378263.156627) can0 38E#2B2D005611000000
(1786378263.166402) can0 38E#CC2E005611000000
(1786378263.176326) can0 38F#852FE25302000000
(1786378263.176653) can0 38E#912F005611000000
(1786378263.186413) can0 38E#CD20005611000000
(1786378263.196285) can0 38F#D920E25302000000
(1786378263.196612) can0 38E#9021005611000000
(1786378263.206285) can0 38E#7722005611000000
(1786378263.216512) can0 38F#8421E25302000000
(1786378263.216923) can0 38E#2A23005611000000
(1786378263.226397) can0 38E#A424005611000000
(1786378263.236295) can0 38F#6322E25302000000
(1786378263.236588) can0 38E#F925005611000000
(1786378263.246333) can0 38E#1E26005611000000
(1786378263.256323) can0 38F#3E23E25302000000
(1786378263.256621) can0 38E#4327005611000000
(1786378263.266246) can0 38E#1F28005611000000
(1786378263.276178) can0 38F#B024E25302000000
(1786378263.276457) can0 38E#4229005611000000
(1786378263.286372) can0 38E#A52A005611000000
(1786378263.296805) can0 38F#ED25E25302000000
(1786378263.297080) can0 38E#F82B005611000000
(1786378263.306259) can0 38E#762C005611000000
(1786378263.316351) can0 38F#0A26E25302000000
(1786378263.316812) can0 38E#2B2D005611000000
(1786378263.326559) can0 38E#CC2E005611000000
(1786378263.336326) can0 38F#5727E25302000000
(1786378263.336740) can0 38E#912F005611000000
(1786378263.346348) can0 38E#CD20005611000000
(1786378263.356311) can0 38F#0B28E25302000000
(1786378263.356637) can0 38E#9021005611000000
(1786378263.366266) can0 38E#7722005611000000
(1786378263.376297) can0 38F#5629E25302000000
(1786378263.376576) can0 38E#2A23005611000000
(1786378263.386422) can0 38E#A424005611000000
(1786378263.396365) can0 38F#B12AE25302000000
(1786378263.396744) can0 38E#F925005611000000
(1786378263.406355) can0 38E#1E26005611000000
(1786378263.416391) can0 38F#EC2BE25302000000
(1786378263.416837) can0 38E#4327005611000000
(1786378263.426301) can0 38E#1F28005611000000
(1786378263.436250) can0 38F#622CE25302000000
(1786378263.436667) can0 38E#4229005611000000
(1786378263.446439) can0 38E#A52A005611000000
(1786378263.456370) can0 38F#3F2DE25302000000
(1786378263.456684) can0 38E#F82B005611000000
(1786378263.466401) can0 38E#762C005611000000
(1786378263.476229) can0 38F#D82EE25302000000
(1786378263.476618) can0 38E#2B2D005611000000
(1786378263.486325) can0 38E#CC2E005611000000
(1786378263.496473) can0 38F#852FE25302000000
(1786378263.496919) can0 38E#912F005611000000
(1786378263.506320) can0 38E#CD20005611000000
(1786378263.516395) can0 38F#D920E25302000000
(1786378263.516856) can0 38E#9021005611000000
(1786378263.526301) can0 38E#7722005611000000
(1786378263.536355) can0 38F#8421E25302000000
(1786378263.536764) can0 38E#2A23005611000000
(1786378263.546767) can0 38E#A424005611000000
(1786378263.556289) can0 38F#6322E25302000000
(1786378263.556592) can0 38E#F925005611000000
(1786378263.566238) can0 38E#1E26005611000000
(1786378263.576245) can0 38F#3E23E25302000000
(1786378263.576476) can0 38E#4327005611000000
(1786378263.586370) can0 38E#1F28005611000000
(1786378263.596465) can0 38F#B024E25302000000
(1786378263.596932) can0 38E#4229005611000000
(1786378263.606278) can0 38E#A52A005611000000
(1786378263.616510) can0 38F#ED25E25302000000
(1786378263.616924) can0 38E#F82B005611000000
(1786378263.626379) can0 38E#762C005611000000
(1786378263.636269) can0 38F#0A26E25302000000
(1786378263.636669) can0 38E#2B2D005611000000
(1786378263.646410) can0 38E#CC2E005611000000
(1786378263.656318) can0 38F#5727E25302000000
(1786378263.656604) can0 38E#912F005611000000
(1786378263.666345) can0 38E#CD20005611000000
(1786378263.676330) can0 38F#0B28E25302000000
(1786378263.676594) can0 38E#9021005611000000
(1786378263.686363) can0 38E#7722005611000000
(1786378263.696417) can0 38F#5629E25302000000
(1786378263.696833) can0 38E#2A23005611000000
(1786378263.706294) can0 38E#A424005611000000
(1786378263.716350) can0 38F#B12AE25302000000
(1786378263.716777) can0 38E#F925005611000000
(1786378263.726381) can0 38E#1E26005611000000
(1786378263.736438) can0 38F#EC2BE25302000000
(1786378263.736751) can0 38E#4327005611000000
(1786378263.746525) can0 38E#1F28005611000000
(1786378263.756317) can0 38F#622CE25302000000
(1786378263.756652) can0 38E#4229005611000000
(1786378263.766400) can0 38E#A52A005611000000
(1786378263.776314) can0 38F#3F2DE25302000000
(1786378263.776677) can0 38E#F82B005611000000
(1786378263.786330) can0 38E#762C005611000000
(1786378263.796248) can0 38F#D82EE25302000000
(1786378263.796644) can0 38E#2B2D005611000000
(1786378263.806350) can0 38E#CC2E005611000000
(1786378263.816431) can0 38F#852FE25302000000
(1786378263.816857) can0 38E#912F005611000000
(1786378263.826444) can0 38E#CD20005611000000
(1786378263.836296) can0 38F#D920E25302000000
(1786378263.836727) can0 38E#9021005611000000
(1786378263.846382) can0 38E#7722005611000000
(1786378263.856334) can0 38F#8421E25302000000
(1786378263.856729) can0 38E#2A23005611000000
(1786378263.866300) can0 38E#A424005611000000
(1786378263.876235) can0 38F#6322E25302000000
(1786378263.876502) can0 38E#F925005611000000
(1786378263.886501) can0 38E#1E26005611000000
(1786378263.896525) can0 38F#3E23E25302000000
(1786378263.897057) can0 38E#4327005611000000
(1786378263.906270) can0 38E#1F28005611000000
(1786378263.916303) can0 38F#B024E25302000000
(1786378263.916722) can0 38E#4229005611000000
(1786378263.926355) can0 38E#A52A005611000000
(1786378263.936309) can0 38F#ED25E25302000000
(1786378263.936612) can0 38E#F82B005611000000
(1786378263.946332) can0 38E#762C005611000000
(1786378263.956269) can0 38F#0A26E25302000000
(1786378263.956561) can0 38E#2B2D005611000000
(1786378263.966467) can0 38E#CC2E005611000000
(1786378263.976392) can0 38F#5727E25302000000
(1786378263.976745) can0 38E#912F005611000000
(1786378263.986437) can0 38E#CD20005611000000
(1786378263.996394) can0 38F#0B28E25302000000
(1786378263.996982) can0 38E#9021005611000000
(1786378264.006333) can0 38E#7722005611000000
(1786378264.016237) can0 38F#5629E25302000000
(1786378264.016525) can0 38E#2A23005611000000
(1786378264.026322) can0 38E#A424005611000000
(1786378264.036216) can0 38F#B12AE25302000000
(1786378264.036506) can0 38E#F925005611000000
(1786378264.046318) can0 38E#1E26005611000000
(1786378264.056235) can0 38F#EC2BE25302000000
(1786378264.056542) can0 38E#4327005611000000
(1786378264.066435) can0 38E#1F28005611000000
(1786378264.076276) can0 38F#622CE25302000000
(1786378264.076606) can0 38E#4229005611000000
(1786378264.086354) can0 38E#A52A005611000000
(1786378264.096394) can0 38F#3F2DE25302000000
(1786378264.096757) can0 38E#F82B005611000000
(1786378264.106361) can0 38E#762C005611000000
(1786378264.116443) can0 38F#D82EE25302000000
(1786378264.116858) can0 38E#2B2D005611000000
(1786378264.126283) can0 38E#CC2E005611000000
(1786378264.136357) can0 38F#852FE25302000000
(1786378264.136716) can0 38E#912F005611000000
(1786378264.146416) can0 38E#CD20005611000000
(1786378264.156426) can0 38F#D920E25302000000
(1786378264.156815) can0 38E#9021005611000000
(1786378264.166374) can0 38E#7722005611000000
(1786378264.176273) can0 38F#8421E25302000000
(1786378264.176602) can0 38E#2A23005611000000
(1786378264.186341) can0 38E#A424005611000000
(1786378264.196538) can0 38F#6322E25302000000
(1786378264.196883) can0 38E#F925005611000000
(1786378264.206282) can0 38E#1E26005611000000
(1786378264.216359) can0 38F#3E23E25302000000
(1786378264.216805) can0 38E#4327005611000000
(1786378264.226346) can0 38E#1F28005611000000
(1786378264.236410) can0 38F#B024E25302000000
(1786378264.236762) can0 38E#4229005611000000
(1786378264.246335) can0 38E#A52A005611000000
(1786378264.256328) can0 38F#ED25E25302000000
(1786378264.256623) can0 38E#F82B005611000000
(1786378264.266311) can0 38E#762C005611000000
(1786378264.276231) can0 38F#0A26E25302000000
(1786378264.276522) can0 38E#2B2D005611000000
(1786378264.286331) can0 38E#CC2E005611000000
(1786378264.296531) can0 38F#5727E25302000000
(1786378264.296873) can0 38E#912F005611000000
(1786378264.306385) can0 38E#CD20005611000000
(1786378264.316314) can0 38F#0B28E25302000000
(1786378264.316714) can0 38E#9021005611000000
(1786378264.326348) can0 38E#7722005611000000
(1786378264.336338) can0 38F#5629E25302000000
(1786378264.336751) can0 38E#2A23005611000000
(1786378264.346389) can0 38E#A424005611000000
(1786378264.356403) can0 38F#B12AE25302000000
(1786378264.356774) can0 38E#F925005611000000
(1786378264.366267) can0 38E#1E26005611000000
(1786378264.376382) can0 38F#EC2BE25302000000
(1786378264.376747) can0 38E#4327005611000000
(1786378264.386286) can0 38E#1F28005611000000
(1786378264.396342) can0 38F#622CE25302000000
(1786378264.396720) can0 38E#4229005611000000
(1786378264.406309) can0 38E#A52A005611000000
(1786378264.416257) can0 38F#3F2DE25302000000
(1786378264.416585) can0 38E#F82B005611000000
(1786378264.426320) can0 38E#762C005611000000
(1786378264.436305) can0 38F#D82EE25302000000
(1786378264.436677) can0 38E#2B2D005611000000
(1786378264.446344) can0 38E#CC2E005611000000
(1786378264.456316) can0 38F#852FE25302000000
(1786378264.456604) can0 38E#912F005611000000
(1786378264.466345) can0 38E#CD20005611000000
(1786378264.476257) can0 38F#D920E25302000000
(1786378264.476564) can0 38E#9021005611000000
(1786378264.486284) can0 38E#7722005611000000
(1786378264.496403) can0 38F#8421E25302000000
(1786378264.496802) can0 38E#2A23005611000000
(1786378264.506346) can0 38E#A424005611000000
(1786378264.516300) can0 38F#6322E25302000000
(1786378264.516693) can0 38E#F925005611000000
(1786378264.526471) can0 38E#1E26005611000000
(1786378264.536430) can0 38F#3E23E25302000000
(1786378264.536939) can0 38E#4327005611000000
(1786378264.546397) can0 38E#1F28005611000000
(1786378264.556216) can0 38F#B024E25302000000
(1786378264.556509) can0 38E#4229005611000000
(1786378264.566213) can0 38E#A52A005611000000
(1786378264.576381) can0 38F#ED25E25302000000
(1786378264.576788) can0 38E#F82B005611000000
(1786378264.586394) can0 38E#762C005611000000
(1786378264.596460) can0 38F#0A26E25302000000
(1786378264.596939) can0 38E#2B2D005611000000
(1786378264.606327) can0 38E#CC2E005611000000
(1786378264.616374) can0 38F#5727E25302000000
(1786378264.616823) can0 38E#912F005611000000
(1786378264.626439) can0 38E#CD20005611000000
(1786378264.636309) can0 38F#0B28E25302000000
(1786378264.636795) can0 38E#9021005611000000
(1786378264.646390) can0 38E#7722005611000000
(1786378264.656335) can0 38F#5629E25302000000
(1786378264.656737) can0 38E#2A23005611000000
(1786378264.666349) can0 38E#A424005611000000
(1786378264.676255) can0 38F#B12AE25302000000
(1786378264.676623) can0 38E#F925005611000000
(1786378264.686345) can0 38E#1E26005611000000
(1786378264.696411) can0 38F#EC2BE25302000000
(1786378264.696860) can0 38E#4327005611000000
(1786378264.706371) can0 38E#1F28005611000000
(1786378264.716343) can0 38F#622CE25302000000
(1786378264.716793) can0 38E#4229005611000000
(1786378264.726367) can0 38E#A52A005611000000
(1786378264.736356) can0 38F#3F2DE25302000000
(1786378264.736783) can0 38E#F82B005611000000
(1786378264.746430) can0 38E#762C005611000000
(1786378264.756287) can0 38F#D82EE25302000000
(1786378264.756630) can0 38E#2B2D005611000000
(1786378264.766367) can0 38E#CC2E005611000000
(1786378264.776346) can0 38F#852FE25302000000
(1786378264.776762) can0 38E#912F005611000000
(1786378264.786344) can0 38E#CD20005611000000
(1786378264.796403) can0 38F#D920E25302000000
(1786378264.796802) can0 38E#9021005611000000
(1786378264.806383) can0 38E#7722005611000000
(1786378264.816430) can0 38F#8421E25302000000
(1786378264.816893) can0 38E#2A23005611000000
(1786378264.826335) can0 38E#A424005611000000
(1786378264.836393) can0 38F#6322E25302000000
(1786378264.836763) can0 38E#F925005611000000
(1786378264.846381) can0 38E#1E26005611000000
(1786378264.856286) can0 38F#3E23E25302000000
(1786378264.856711) can0 38E#4327005611000000
(1786378264.866309) can0 38E#1F28005611000000
(1786378264.955107) can0 38F#B024E25302000000
(1786378264.956222) can0 38E#4229005611000000
(1786378264.957692) can0 38E#A52A005611000000
(1786378264.957987) can0 38F#ED25E25302000000
(1786378264.958289) can0 38E#F82B005611000000
(1786378264.958576) can0 38E#762C005611000000
(1786378264.958805) can0 38F#0A26E25302000000
(1786378264.959038) can0 38E#2B2D005611000000
(1786378264.959306) can0 38E#CC2E005611000000
(1786378264.959574) can0 38F#5727E25302000000
(1786378264.959834) can0 38E#912F005611000000
(1786378264.960113) can0 38E#CD20005611000000
(1786378264.960409) can0 38F#0B28E25302000000
(1786378264.966015) can0 38E#9021005611000000
(1786378264.966848) can0 38E#7722005611000000
(1786378264.976351) can0 38F#5629E25302000000
(1786378264.976649) can0 38E#2A23005611000000
(1786378264.995094) can0 38E#A424005611000000
(1786378264.996176) can0 38F#B12AE25302000000
(1786378264.996462) can0 38E#F925005611000000
(1786378265.006345) can0 38E#1E26005611000000
(1786378265.016323) can0 38F#EC2BE25302000000
(1786378265.016660) can0 38E#4327005611000000
(1786378265.026333) can0 38E#1F28005611000000
(1786378265.036188) can0 38F#622CE25302000000
(1786378265.036463) can0 38E#4229005611000000
(1786378265.046277) can0 38E#A52A005611000000
(1786378265.056388) can0 38F#3F2DE25302000000
(1786378265.056658) can0 38E#F82B005611000000
(1786378265.066353) can0 38E#762C005611000000
(1786378265.076341) can0 38F#D82EE25302000000
(1786378265.076672) can0 38E#2B2D005611000000
(1786378265.086291) can0 38E#CC2E005611000000
(1786378265.096458) can0 38F#852FE25302000000
(1786378265.096890) can0 38E#912F005611000000
(1786378265.106381) can0 38E#CD20005611000000
(1786378265.116369) can0 38F#D920E25302000000
(1786378265.116857) can0 38E#9021005611000000
(1786378265.126371) can0 38E#7722005611000000
(1786378265.136316) can0 38F#8421E25302000000
(1786378265.136654) can0 38E#2A23005611000000
(1786378265.146371) can0 38E#A424005611000000
(1786378265.156286) can0 38F#6322E25302000000
(1786378265.156725) can0 38E#F925005611000000
(1786378265.166451) can0 38E#1E26005611000000
(1786378265.176265) can0 38F#3E23E25302000000
(1786378265.176530) can0 38E#4327005611000000
(1786378265.186292) can0 38E#1F28005611000000
(1786378265.196248) can0 38F#B024E25302000000
(1786378265.196728) can0 38E#4229005611000000
(1786378265.206253) can0 38E#A52A005611000000
(1786378265.216356) can0 38F#ED25E25302000000
(1786378265.216725) can0 38E#F82B005611000000
(1786378265.226384) can0 38E#762C005611000000
(1786378265.236261) can0 38F#0A26E25302000000
(1786378265.236595) can0 38E#2B2D005611000000
(1786378265.246306) can0 38E#CC2E005611000000
(1786378265.256302) can0 38F#5727E25302000000
(1786378265.256657) can0 38E#912F005611000000
(1786378265.266321) can0 38E#CD20005611000000
(1786378265.276253) can0 38F#0B28E25302000000
(1786378265.276542) can0 38E#9021005611000000
(1786378265.286279) can0 38E#7722005611000000
(1786378265.296302) can0 38F#5629E25302000000
(1786378265.296724) can0 38E#2A23005611000000
(1786378265.306287) can0 38E#A424005611000000
(1786378265.316412) can0 38F#B12AE25302000000
(1786378265.316909) can0 38E#F925005611000000
(1786378265.326370) can0 38E#1E26005611000000
(1786378265.336403) can0 38F#EC2BE25302000000
(1786378265.336811) can0 38E#4327005611000000
(1786378265.346227) can0 38E#1F28005611000000
(1786378265.356208) can0 38F#622CE25302000000
(1786378265.356621) can0 38E#4229005611000000
(1786378265.366366) can0 38E#A52A005611000000
(1786378265.376297) can0 38F#3F2DE25302000000
(1786378265.376666) can0 38E#F82B005611000000
(1786378265.386360) can0 38E#762C005611000000
(1786378265.396392) can0 38F#D82EE25302000000
(1786378265.396789) can0 38E#2B2D005611000000
(1786378265.406363) can0 38E#CC2E005611000000
(1786378265.416286) can0 38F#852FE25302000000
(1786378265.416739) can0 38E#912F005611000000
(1786378265.426338) can0 38E#CD20005611000000
(1786378265.436393) can0 38F#D920E25302000000
(1786378265.436792) can0 38E#9021005611000000
(1786378265.446429) can0 38E#7722005611000000
(1786378265.456275) can0 38F#8421E25302000000
(1786378265.456621) can0 38E#2A23005611000000
(1786378265.466345) can0 38E#A424005611000000
(1786378265.476280) can0 38F#6322E25302000000
(1786378265.476587) can0 38E#F925005611000000
(1786378265.486402) can0 38E#1E26005611000000
(1786378265.496604) can0 38F#3E23E25302000000
(1786378265.497195) can0 38E#4327005611000000
(1786378265.506265) can0 38E#1F28005611000000
(1786378265.516267) can0 38F#B024E25302000000
(1786378265.516667) can0 38E#4229005611000000
(1786378265.526363) can0 38E#A52A005611000000
(1786378265.536396) can0 38F#ED25E25302000000
(1786378265.536749) can0 38E#F82B005611000000
(1786378265.546291) can0 38E#762C005611000000
(1786378265.556275) can0 38F#0A26E25302000000
(1786378265.556625) can0 38E#2B2D005611000000
(1786378265.566389) can0 38E#CC2E005611000000
(1786378265.576324) can0 38F#5727E25302000000
(1786378265.576669) can0 38E#912F005611000000
(1786378265.586347) can0 38E#CD20005611000000
(1786378265.596367) can0 38F#0B28E25302000000
(1786378265.596802) can0 38E#9021005611000000
(1786378265.606409) can0 38E#1D22005711000000
(1786378265.616392) can0 38F#5629E25302000000
(1786378265.616816) can0 38E#4023005711000000
(1786378265.626320) can0 38E#CE24005711000000
(1786378265.636315) can0 38F#B12AE25302000000
(1786378265.636691) can0 38E#EF25005811000000
(1786378265.646377) can0 38E#6226005911000000
(1786378265.656304) can0 38F#EC2BE25302000000
(1786378265.656713) can0 38E#EB27005B11000000
(1786378265.666696) can0 38E#BC28005C11000000
(1786378265.676271) can0 38F#622CE25302000000
(1786378265.676649) can0 38E#3529005E11000000
(1786378265.686364) can0 38E#B82A005F11000000
(1786378265.696787) can0 38F#3F2DE25302000000
(1786378265.697206) can0 38E#622B006211000000
(1786378265.706348) can0 38E#E72C006511000000
(1786378265.716322) can0 38F#D82EE25302000000
(1786378265.716776) can0 38E#782D006911000000
(1786378265.726435) can0 38E#2A2E006D11000000
(1786378265.736504) can0 38F#C32FE35302000000
(1786378265.736873) can0 38E#5B2F007111000000
(1786378265.746431) can0 38E#B220007511000000
(1786378265.756235) can0 38F#9F20E35302000000
(1786378265.756554) can0 38E#9321007A11000000
(1786378265.766685) can0 38E#AB22007F11000000
(1786378265.776239) can0 38F#C221E35302000000
(1786378265.776515) can0 38E#7823008611000000
(1786378265.786398) can0 38E#EB24008F11000000
(1786378265.796711) can0 38F#2522E35302000000
(1786378265.797064) can0 38E#5325009811000000
(1786378265.806411) can0 38E#742600A211000100
(1786378265.816426) can0 38F#7823E35302000000
(1786378265.816872) can0 38E#3F2700AC11000100
(1786378265.826368) can0 38E#382800B811000100
(1786378265.836414) can0 38F#F624E35302000000
(1786378265.836889) can0 38E#1C2900C311000100
(1786378265.846304) can0 38E#AB2A00D011000100
(1786378265.856268) can0 38F#AB25E35302000000
(1786378265.856677) can0 38E#5E2B00DD11000100
(1786378265.866520) can0 38E#202C00E811000100
(1786378265.876604) can0 38F#4C26E35302000000
(1786378265.877079) can0 38E#762D00EF11000100
(1786378265.886353) can0 38E#082E00F711000100
(1786378265.896514) can0 38F#1127E35302000000
(1786378265.897028) can0 38E#F62F00FD11000100
(1786378265.906328) can0 38E#AA2000FD11000100
(1786378265.916636) can0 38F#4D28E35302000000
(1786378265.917077) can0 38E#FC2100FA11000100
(1786378265.926352) can0 38E#672200F511000100
(1786378265.936297) can0 38F#1029E35302000000
(1786378265.936691) can0 38E#312300F211000100
(1786378265.946342) can0 38E#6B2400F011000100
(1786378265.956302) can0 38F#F72AE35302000000
(1786378265.956634) can0 38E#CE2500EE11000100
(1786378265.966383) can0 38E#432600EF11000100
(1786378265.976307) can0 38F#AA2BE35302000000
(1786378265.976618) can0 38E#1E2700EF11000100
(1786378265.986333) can0 38E#D02800F011000100
(1786378265.996393) can0 38F#242CE35302000000
(1786378265.996950) can0 38E#8D2900F011000100
(1786378266.006305) can0 38E#002A00F111000100
(1786378266.016435) can0 38F#792DE35302000000
(1786378266.016849) can0 38E#822B00F411000100
(1786378266.026425) can0 38E#A42C00F911000100
(1786378266.036452) can0 38F#9E2EE35302000000
(1786378266.036942) can0 38E#CD2D000012000100
(1786378266.046402) can0 38E#892E000A12000100
(1786378266.056254) can0 38F#C32FE35302000000
(1786378266.056584) can0 38E#272F001312000100
(1786378266.066345) can0 38E#6D20001D12000100
(1786378266.076633) can0 38F#9F20E35302000000
(1786378266.076977) can0 38E#1421002A12000100
(1786378266.086328) can0 38E#DF22003612000100
(1786378266.096819) can0 38F#C221E35302000000
(1786378266.097349) can0 38E#8723004212000100
(1786378266.106319) can0 38E#CB24004E12000100
(1786378266.116368) can0 38F#2522E35302000000
(1786378266.116811) can0 38E#CD25005A12000100
(1786378266.126717) can0 38E#1826006312000100
(1786378266.136341) can0 38F#7823E35302000000
(1786378266.136823) can0 38E#5827006A12000100
(1786378266.146266) can0 38E#4928007012000100
(1786378266.156225) can0 38F#F624E35302000000
(1786378266.156583) can0 38E#7E29007112000100
(1786378266.166435) can0 38E#612A006F12000100
(1786378266.176323) can0 38F#AB25E35302000000
(1786378266.176669) can0 38E#3C2B006F12000100
(1786378266.186335) can0 38E#952C007412000100
(1786378266.196394) can0 38F#4C26E35302000000
(1786378266.196825) can0 38E#602D007912000100
(1786378266.206236) can0 38E#392E007A12000100
(1786378266.216386) can0 38F#1127E35302000000
(1786378266.216778) can0 38E#052F007C12000100
(1786378266.226789) can0 38E#E720007F12000100
(1786378266.236304) can0 38F#4D28E35302000000
(1786378266.236715) can0 38E#EB21008312000100
(1786378266.246286) can0 38E#B922008712000100
(1786378266.256416) can0 38F#1029E35302000000
(1786378266.256808) can0 38E#4C23008A12000100
(1786378266.266723) can0 38E#7724008E12000100
(1786378266.276250) can0 38F#F72AE35302000000
(1786378266.276632) can0 38E#D225009012000100
(1786378266.286280) can0 38E#E126009212000100
(1786378266.296460) can0 38F#AA2BE35302000000
(1786378266.296907) can0 38E#DD27009412000100
(1786378266.306664) can0 38E#5528009612000100
(1786378266.316375) can0 38F#242CE35302000000
(1786378266.316836) can0 38E#1E29009812000100
(1786378266.326436) can0 38E#932A009912000100
(1786378266.336355) can0 38F#792DE35302000000
(1786378266.336690) can0 38E#1A2B009B12000100
(1786378266.346817) can0 38E#9F2C009C12000100
(1786378266.356379) can0 38F#9E2EE35302000000
(1786378266.356735) can0 38E#A82D009D12000100
(1786378266.366341) can0 38E#F12E009E12000100
(1786378266.376298) can0 38F#C32FE35302000000
(1786378266.376611) can0 38E#C62F009F12000100
(1786378266.386279) can0 38E#C92000A012000100
(1786378266.396729) can0 38F#9F20E35302000000
(1786378266.397127) can0 38E#FE2100A112000100
(1786378266.406337) can0 38E#192200A112000100
(1786378266.416254) can0 38F#C221E35302000000
(1786378266.416615) can0 38E#902300A312000100
(1786378266.426373) can0 38E#C12400A612000100
(1786378266.436310) can0 38F#2522E35302000000
(1786378266.436685) can0 38E#5E2500AA12000100
(1786378266.446730) can0 38E#F42600B012000100
(1786378266.456387) can0 38F#7823E35302000000
(1786378266.456687) can0 38E#1C2700B412000100
(1786378266.466736) can0 38E#E82800B912000100
(1786378266.476430) can0 38F#F624E35302000000
(1786378266.476758) can0 38E#BE2900BE12000100
(1786378266.486240) can0 38E#4A2A00C412000100
(1786378266.496365) can0 38F#AB25E35302000000
(1786378266.496759) can0 38E#6B2B00CB12000100
(1786378266.506677) can0 38E#7C2C00D312000100
(1786378266.516294) can0 38F#4C26E35302000000
(1786378266.516662) can0 38E#3C2D00DA12000100
(1786378266.526708) can0 38E#E92E00E312000100
(1786378266.536303) can0 38F#1127E35302000000
(1786378266.536600) can0 38E#C32F00EB12000100
(1786378266.546368) can0 38E#672000F512000100
(1786378266.556645) can0 38F#4D28E35302000000
(1786378266.556977) can0 38E#F32100FE12000100
(1786378266.566331) can0 38E#7B22000813000100
(1786378266.576295) can0 38F#1029E35302000000
(1786378266.576587) can0 38E#0123001313000100
(1786378266.586382) can0 38E#F324001C13000100
(1786378266.596546) can0 38F#F72AE35302000000
(1786378266.596998) can0 38E#FD25002313000100
(1786378266.606334) can0 38E#B926002913000100
(1786378266.616362) can0 38F#AA2BE35302000000
(1786378266.616813) can0 38E#8527002F13000100
(1786378266.626369) can0 38E#FE28003413000100
(1786378266.636238) can0 38F#242CE35302000000
(1786378266.636627) can0 38E#7729003613000100
(1786378266.646305) can0 38E#902A003613000100
(1786378266.656362) can0 38F#792DE35302000000
(1786378266.656669) can0 38E#A72B003713000100
(1786378266.666188) can0 38E#552C003813000100
(1786378266.676280) can0 38F#9E2EE35302000000
(1786378266.676607) can0 38E#082D003813000100
(1786378266.686390) can0 38E#EF2E003813000100
(1786378266.696725) can0 38F#C32FE35302000000
(1786378266.697149) can0 38E#D82F003913000100
(1786378266.706266) can0 38E#5020003B13000100
(1786378266.716294) can0 38F#9F20E35302000000
(1786378266.716753) can0 38E#D221003E13000100
(1786378266.726367) can0 38E#5F22003F13000100
(1786378266.736600) can0 38F#C221E35302000000
(1786378266.736935) can0 38E#A423004113000100
(1786378266.746644) can0 38E#2A24004113000100
(1786378266.756256) can0 38F#2522E35302000000
(1786378266.756636) can0 38E#7725004113000100
(1786378266.766379) can0 38E#2E26004213000100
(1786378266.776660) can0 38F#7823E35302000000
(1786378266.777014) can0 38E#7327004213000100
(1786378266.786400) can0 38E#9128004113000100
(1786378266.796503) can0 38F#F624E35302000000
(1786378266.796978) can0 38E#A629004013000100
(1786378266.806306) can0 38E#412A004013000100
(1786378266.816380) can0 38F#AB25E35302000000
(1786378266.816822) can0 38E#D02B003F13000100
(1786378266.826724) can0 38E#342C003E13000100
(1786378266.836359) can0 38F#4C26E35302000000
(1786378266.836844) can0 38E#BD2D003C13000100
(1786378266.846306) can0 38E#EF2E003813000100
(1786378266.856379) can0 38F#1127E35302000000
(1786378266.856717) can0 38E#AF2F003113000100
(1786378266.866431) can0 38E#1620002613000100
(1786378266.876382) can0 38F#4D28E35302000000
(1786378266.876782) can0 38E#7221001813000100
(1786378266.886286) can0 38E#7B22000813000100
(1786378266.896689) can0 38F#1029E35302000000
(1786378266.897145) can0 38E#282300F812000100
(1786378266.906309) can0 38E#F62400EB12000100
(1786378266.916164) can0 38F#F72AE35302000000
(1786378266.916542) can0 38E#AB2500EB12000100
(1786378266.926367) can0 38E#4C2600EB12000100
(1786378266.936670) can0 38F#AA2BE35302000000
(1786378266.937006) can0 38E#112700EB12000100
(1786378266.946384) can0 38E#462800EC12000100
(1786378266.956339) can0 38F#242CE35302000000
(1786378266.956710) can0 38E#5D2900F112000100
(1786378266.966208) can0 38E#B12A00F612000100
(1786378266.976349) can0 38F#792DE35302000000
(1786378266.976739) can0 38E#442B00FB12000100
(1786378266.986755) can0 38E#0D2C000013000100
(1786378266.996722) can0 38F#9E2EE35302000000
(1786378266.997239) can0 38E#8F2D000513000100
(1786378267.006320) can0 38E#7E2E000B13000100
(1786378267.016388) can0 38F#C32FE35302000000
(1786378267.016837) can0 38E#6E2F001113000100
(1786378267.026367) can0 38E#5320001713000100
(1786378267.036370) can0 38F#9F20E35302000000
(1786378267.036804) can0 38E#AD21001D13000100
(1786378267.046319) can0 38E#7322002313000100
(1786378267.056626) can0 38F#C221E35302000000
(1786378267.057001) can0 38E#3323002A13000100
(1786378267.066426) can0 38E#9A24003113000100
(1786378267.076230) can0 38F#2522E35302000000
(1786378267.076562) can0 38E#DA25003813000100
(1786378267.086699) can0 38E#FA26004013000100
(1786378267.096554) can0 38F#7823E35302000000
(1786378267.097130) can0 38E#AC27004713000100
(1786378267.106316) can0 38E#8728004F13000100
(1786378267.116584) can0 38F#F624E35302000000
(1786378267.117089) can0 38E#4329005713000100
(1786378267.126632) can0 38E#072A005D13000100
(1786378267.136296) can0 38F#AB25E35302000000
(1786378267.136649) can0 38E#632B006313000100
(1786378267.146275) can0 38E#9A2C006B13000100
(1786378267.156314) can0 38F#4C26E35302000000
(1786378267.156645) can0 38E#342D007213000100
(1786378267.166737) can0 38E#0C2E007713000100
(1786378267.176327) can0 38F#1127E35302000000
(1786378267.176720) can0 38E#F22F007D13000100
(1786378267.186367) can0 38E#4120008213000100
(1786378267.196594) can0 38F#4D28E35302000000
(1786378267.197130) can0 38E#7621008313000100
(1786378267.206615) can0 38E#F022008513000100
(1786378267.216532) can0 38F#1029E35302000000
(1786378267.216921) can0 38E#7923008713000100
(1786378267.226295) can0 38E#9D24008613000100
(1786378267.236287) can0 38F#F72AE35302000000
(1786378267.236659) can0 38E#7E25008513000100
(1786378267.246324) can0 38E#F326008413000100
(1786378267.256651) can0 38F#AA2BE35302000000
(1786378267.257045) can0 38E#A527008313000100
(1786378267.266373) can0 38E#9328008213000100
(1786378267.276289) can0 38F#242CE35302000000
(1786378267.276648) can0 38E#CE29008213000100
(1786378267.286461) can0 38E#972A008113000100
(1786378267.296321) can0 38F#792DE35302000000
(1786378267.296660) can0 38E#A02B008013000100
(1786378267.306322) can0 38E#2E2C008013000100
(1786378267.316287) can0 38F#9E2EE35302000000
(1786378267.316768) can0 38E#9C2D007F13000100
(1786378267.326648) can0 38E#7B2E007F13000100
(1786378267.336373) can0 38F#C32FE35302000000
(1786378267.336742) can0 38E#4C2F007E13000100
(1786378267.346451) can0 38E#AE20007D13000100
(1786378267.356207) can0 38F#9F20E35302000000
(1786378267.356532) can0 38E#9221007B13000100
(1786378267.366699) can0 38E#A122007913000100
(1786378267.376510) can0 38F#C221E35302000000
(1786378267.376944) can0 38E#EA23007713000100
(1786378267.386406) can0 38E#B024007513000100
(1786378267.396281) can0 38F#2522E35302000000
(1786378267.396664) can0 38E#E625007213000100
(1786378267.406309) can0 38E#D526007013000100
(1786378267.416668) can0 38F#7823E35302000000
(1786378267.417143) can0 38E#CE27006D13000100
(1786378267.426289) can0 38E#F328006B13000100
(1786378267.436209) can0 38F#F624E35302000000
(1786378267.436584) can0 38E#7A29006913000100
(1786378267.446467) can0 38E#E12A006613000100
(1786378267.456297) can0 38F#AB25E35302000000
(1786378267.456603) can0 38E#682B006413000100
(1786378267.466369) can0 38E#392C006113000100
(1786378267.476302) can0 38F#4C26E35302000000
(1786378267.476678) can0 38E#372D005E13000100
(1786378267.486342) can0 38E#042E005C13000100
(1786378267.496365) can0 38F#1127E35302000000
(1786378267.496907) can0 38E#862F005913000100
(1786378267.506304) can0 38E#A620005613000100
(1786378267.516270) can0 38F#4D28E35302000000
(1786378267.516739) can0 38E#2F21005413000100
(1786378267.526346) can0 38E#C322005313000100
(1786378267.536375) can0 38F#1029E35302000000
(1786378267.536736) can0 38E#F423005213000100
(1786378267.546446) can0 38E#C424005113000100
(1786378267.556343) can0 38F#F72AE35302000000
(1786378267.556678) can0 38E#9925005113000100
(1786378267.566290) can0 38E#7E26005113000100
(1786378267.576328) can0 38F#AA2BE35302000000
(1786378267.576747) can0 38E#2327005113000100
(1786378267.586319) can0 38E#7F28005113000100
(1786378267.596370) can0 38F#242CE35302000000
(1786378267.596776) can0 38E#2229005113000100
(1786378267.606365) can0 38E#C52A005113000100
(1786378267.616290) can0 38F#792DE35302000000
(1786378267.616797) can0 38E#982B005113000100
(1786378267.626298) can0 38E#162C005113000100
(1786378267.636296) can0 38F#9E2EE35302000000
(1786378267.636699) can0 38E#4B2D005113000100
(1786378267.646314) can0 38E#AC2E005113000100
(1786378267.656262) can0 38F#C32FE35302000000
(1786378267.656641) can0 38E#F12F005113000100
(1786378267.666332) can0 38E#AD20005113000100
(1786378267.676268) can0 38F#9F20E35302000000
(1786378267.676714) can0 38E#F021005113000100
(1786378267.686377) can0 38E#1722005113000100
(1786378267.696372) can0 38F#C221E35302000000
(1786378267.696764) can0 38E#4A23005113000100
(1786378267.706280) can0 38E#C424005113000100
(1786378267.716245) can0 38F#2522E35302000000
(1786378267.716626) can0 38E#9925005113000100
(1786378267.726259) can0 38E#C026005213000100
(1786378267.736341) can0 38F#7823E35302000000
(1786378267.736658) can0 38E#9D27005213000100
(1786378267.746214) can0 38E#7F28005113000100
(1786378267.756280) can0 38F#F624E35302000000
(1786378267.756665) can0 38E#2229005113000100
(1786378267.766385) can0 38E#C52A005113000100
(1786378267.776210) can0 38F#AB25E35302000000
(1786378267.776612) can0 38E#262B005213000100
(1786378267.786241) can0 38E#A82C005213000100
(1786378267.796638) can0 38F#4C26E35302000000
(1786378267.796990) can0 38E#4B2D005113000100
(1786378267.806258) can0 38E#AC2E005113000100
(1786378267.816337) can0 38F#1127E35302000000
(1786378267.816840) can0 38E#F12F005113000100
(1786378267.826262) can0 38E#AD20005113000100
(1786378267.836331) can0 38F#4D28E35302000000
(1786378267.836698) can0 38E#4E21005213000100
(1786378267.846840) can0 38E#A922005213000100
(1786378267.856248) can0 38F#1029E35302000000
(1786378267.856523) can0 38E#F423005213000100
(1786378267.866228) can0 38E#7A24005213000100
(1786378267.876210) can0 38F#F72AE35302000000
(1786378267.876578) can0 38E#2725005213000100
(1786378267.886260) can0 38E#C026005213000100
(1786378267.896236) can0 38F#AA2BE35302000000
(1786378267.896499) can0 38E#9D27005213000100
(1786378267.906221) can0 38E#C128005213000100
(1786378267.916287) can0 38F#242CE35302000000
(1786378267.916641) can0 38E#9C29005213000100
(1786378267.926251) can0 38E#7B2A005213000100
(1786378267.936281) can0 38F#792DE35302000000
(1786378267.936588) can0 38E#262B005213000100
(1786378267.946338) can0 38E#A82C005213000100
(1786378267.956195) can0 38F#9E2EE35302000000
(1786378267.956471) can0 38E#F52D005213000100
(1786378267.966260) can0 38E#122E005213000100
(1786378267.976194) can0 38F#C32FE35302000000
(1786378267.976454) can0 38E#252F005313000100
(1786378267.986562) can0 38E#7220005413000100
(1786378267.996199) can0 38F#9F20E35302000000
(1786378267.996515) can0 38E#2421005313000100
(1786378268.006221) can0 38E#C822005413000100
(1786378268.016232) can0 38F#C221E35302000000
(1786378268.016527) can0 38E#9E23005313000100
(1786378268.026246) can0 38E#1B24005413000100
(1786378268.036319) can0 38F#2522E35302000000
(1786378268.036700) can0 38E#4625005413000100
(1786378268.046295) can0 38E#A126005413000100
(1786378268.056285) can0 38F#7823E35302000000
(1786378268.056589) can0 38E#2827005613000100
(1786378268.066594) can0 38E#6228005813000100
(1786378268.076289) can0 38F#F624E35302000000
(1786378268.076621) can0 38E#8129005B13000100
(1786378268.086313) can0 38E#6D2A005C13000100
(1786378268.096271) can0 38F#AB25E35302000000
(1786378268.096537) can0 38E#E42B005E13000100
(1786378268.106221) can0 38E#392C006113000100
(1786378268.116577) can0 38F#4C26E35302000000
(1786378268.117090) can0 38E#BB2D006413000100
(1786378268.126569) can0 38E#E22E006713000100
(1786378268.136282) can0 38F#1127E35302000000
(1786378268.136660) can0 38E#172F006A13000100
(1786378268.146373) can0 38E#4020006D13000100
(1786378268.156229) can0 38F#4D28E35302000000
(1786378268.156644) can0 38E#3121007113000100
(1786378268.166624) can0 38E#6322007513000100
(1786378268.176427) can0 38F#1029E35302000000
(1786378268.176825) can0 38E#9623007813000100
(1786378268.186660) can0 38E#A624007B13000100
(1786378268.196630) can0 38F#F72AE35302000000
(1786378268.197012) can0 38E#2425007E13000100
(1786378268.206240) can0 38E#4626008013000100
(1786378268.216406) can0 38F#AA2BE35302000000
(1786378268.216887) can0 38E#7127008113000100
(1786378268.226770) can0 38E#2D28008113000100
(1786378268.236454) can0 38F#242CE35302000000
(1786378268.236928) can0 38E#CE29008213000100
(1786378268.246296) can0 38E#292A008213000100
(1786378268.256279) can0 38F#792DE35302000000
(1786378268.256616) can0 38E#742B008213000100
(1786378268.266306) can0 38E#FA2C008213000100
(1786378268.276347) can0 38F#9E2EE35302000000
(1786378268.276704) can0 38E#A72D008213000100
(1786378268.286319) can0 38E#402E008213000100
(1786378268.296499) can0 38F#C32FE35302000000
(1786378268.296932) can0 38E#1D2F008213000100
(1786378268.306259) can0 38E#4120008213000100
(1786378268.316282) can0 38F#9F20E35302000000
(1786378268.316751) can0 38E#1C21008213000100
(1786378268.326426) can0 38E#FB22008213000100
(1786378268.336263) can0 38F#C221E35302000000
(1786378268.336628) can0 38E#A623008213000100
(1786378268.346374) can0 38E#2824008213000100
(1786378268.356144) can0 38F#2522E35302000000
(1786378268.356446) can0 38E#7525008213000100
(1786378268.366173) can0 38E#9226008213000100
(1786378268.376221) can0 38F#7823E35302000000
(1786378268.376450) can0 38E#CF27008213000100
(1786378268.386343) can0 38E#9328008213000100
(1786378268.396263) can0 38F#F624E35302000000
(1786378268.396662) can0 38E#CE29008213000100
(1786378268.406291) can0 38E#292A008213000100
(1786378268.416318) can0 38F#AB25E35302000000
(1786378268.416629) can0 38E#742B008213000100
(1786378268.426216) can0 38E#FA2C008213000100
(1786378268.436356) can0 38F#4C26E35302000000
(1786378268.436762) can0 38E#A72D008213000100
(1786378268.446339) can0 38E#402E008213000100
(1786378268.456274) can0 38F#1127E35302000000
(1786378268.456649) can0 38E#1D2F008213000100
(1786378268.466320) can0 38E#4120008213000100
(1786378268.476223) can0 38F#4D28E35302000000
(1786378268.476522) can0 38E#1C21008213000100
(1786378268.486302) can0 38E#FB22008213000100
(1786378268.496854) can0 38F#1029E35302000000
(1786378268.497419) can0 38E#A623008213000100
(1786378268.506290) can0 38E#2824008213000100
(1786378268.516224) can0 38F#F72AE35302000000
(1786378268.516646) can0 38E#7525008213000100
(1786378268.526377) can0 38E#9226008213000100
(1786378268.536253) can0 38F#AA2BE35302000000
(1786378268.536670) can0 38E#CF27008213000100
(1786378268.546349) can0 38E#9328008213000100
(1786378268.556213) can0 38F#242CE35302000000
(1786378268.556618) can0 38E#CE29008213000100
(1786378268.566271) can0 38E#292A008213000100
(1786378268.576291) can0 38F#792DE35302000000
(1786378268.576589) can0 38E#742B008213000100
(1786378268.586425) can0 38E#FA2C008213000100
(1786378268.596357) can0 38F#9E2EE35302000000
(1786378268.596756) can0 38E#A72D008213000100
(1786378268.606260) can0 38E#402E008213000100
(1786378268.616368) can0 38F#C32FE35302000000
(1786378268.616811) can0 38E#1D2F008213000100
(1786378268.626360) can0 38E#4120008213000100
(1786378268.636379) can0 38F#9F20E35302000000
(1786378268.636955) can0 38E#1C21008213000100
(1786378268.646383) can0 38E#FB22008213000100
(1786378268.656297) can0 38F#C221E35302000000
(1786378268.656672) can0 38E#A623008213000100
(1786378268.666291) can0 38E#2824008213000100
(1786378268.676330) can0 38F#2522E35302000000
(1786378268.676671) can0 38E#7525008213000100
(1786378268.686368) can0 38E#9226008213000100
(1786378268.696274) can0 38F#7823E35302000000
(1786378268.696727) can0 38E#CF27008213000100
(1786378268.706275) can0 38E#9328008213000100
(1786378268.716257) can0 38F#F624E35302000000
(1786378268.716718) can0 38E#CE29008213000100
(1786378268.726306) can0 38E#292A008213000100
(1786378268.736425) can0 38F#AB25E35302000000
(1786378268.736910) can0 38E#742B008213000100
(1786378268.746277) can0 38E#FA2C008213000100
(1786378268.756249) can0 38F#4C26E35302000000
(1786378268.756550) can0 38E#A72D008213000100
(1786378268.766261) can0 38E#402E008213000100
(1786378268.776292) can0 38F#1127E35302000000
(1786378268.776684) can0 38E#1D2F008213000100
(1786378268.786260) can0 38E#4120008213000100
(1786378268.796376) can0 38F#4D28E35302000000
(1786378268.796752) can0 38E#1C21008213000100
(1786378268.806313) can0 38E#FB22008213000100
(1786378268.816337) can0 38F#1029E35302000000
(1786378268.816800) can0 38E#A623008213000100
(1786378268.826374) can0 38E#2824008213000100
(1786378268.836221) can0 38F#F72AE35302000000
(1786378268.836599) can0 38E#7525008213000100
(1786378268.846586) can0 38E#9226008213000100
(1786378268.856214) can0 38F#AA2BE35302000000
(1786378268.856586) can0 38E#CF27008213000100
(1786378268.866293) can0 38E#9328008213000100
(1786378268.876196) can0 38F#242CE35302000000
(1786378268.876642) can0 38E#CE29008213000100
(1786378268.886350) can0 38E#292A008213000100
(1786378268.896460) can0 38F#792DE35302000000
(1786378268.897029) can0 38E#742B008213000100
(1786378268.906205) can0 38E#FA2C008213000100
(1786378268.916268) can0 38F#9E2EE35302000000
(1786378268.916715) can0 38E#A72D008213000100
(1786378268.926610) can0 38E#402E008213000100
(1786378268.936348) can0 38F#C32FE35302000000
(1786378268.936756) can0 38E#1D2F008213000100
(1786378268.946199) can0 38E#4120008213000100
(1786378268.956146) can0 38F#9F20E35302000000
(1786378268.956541) can0 38E#1C21008213000100
(1786378268.966171) can0 38E#FB22008213000100
(1786378268.976269) can0 38F#C221E35302000000
(1786378268.976614) can0 38E#A623008213000100
(1786378268.986287) can0 38E#2824008213000100
(1786378268.996239) can0 38F#2522E35302000000
(1786378268.996588) can0 38E#7525008213000100
(1786378269.006304) can0 38E#9226008213000100
(1786378269.016336) can0 38F#7823E35302000000
(1786378269.016776) can0 38E#CF27008213000100
(1786378269.026335) can0 38E#9328008213000100
(1786378269.036358) can0 38F#F624E35302000000
(1786378269.036801) can0 38E#CE29008213000100
(1786378269.046384) can0 38E#292A008213000100
(1786378269.056277) can0 38F#AB25E35302000000
(1786378269.056633) can0 38E#742B008213000100
(1786378269.066380) can0 38E#FA2C008213000100
(1786378269.076171) can0 38F#4C26E35302000000
(1786378269.076448) can0 38E#A72D008213000100
(1786378269.086566) can0 38E#402E008213000100
(1786378269.096300) can0 38F#1127E35302000000
(1786378269.096690) can0 38E#1D2F008213000100
(1786378269.106296) can0 38E#4120008213000100
(1786378269.116227) can0 38F#4D28E35302000000
(1786378269.116679) can0 38E#1C21008213000100
(1786378269.126301) can0 38E#FB22008213000100
(1786378269.136672) can0 38F#1029E35302000000
(1786378269.137238) can0 38E#A623008213000100
(1786378269.146288) can0 38E#2824008213000100
(1786378269.156191) can0 38F#F72AE35302000000
(1786378269.156624) can0 38E#7525008213000100
(1786378269.166368) can0 38E#9226008213000100
(1786378269.176276) can0 38F#AA2BE35302000000
(1786378269.176719) can0 38E#CF27008213000100
(1786378269.186351) can0 38E#9328008213000100
(1786378269.196366) can0 38F#242CE35302000000
(1786378269.196890) can0 38E#CE29008213000100
(1786378269.206362) can0 38E#292A008213000100
(1786378269.216328) can0 38F#792DE35302000000
(1786378269.216692) can0 38E#742B008213000100
(1786378269.226367) can0 38E#FA2C008213000100
(1786378269.236376) can0 38F#9E2EE35302000000
(1786378269.236785) can0 38E#A72D008213000100
(1786378269.246368) can0 38E#402E008213000100
(1786378269.256224) can0 38F#C32FE35302000000
(1786378269.256554) can0 38E#1D2F008213000100
(1786378269.266383) can0 38E#4120008213000100
(1786378269.276287) can0 38F#9F20E35302000000
(1786378269.276648) can0 38E#1C21008213000100
(1786378269.286232) can0 38E#FB22008213000100
(1786378269.296296) can0 38F#C221E35302000000
(1786378269.296687) can0 38E#A623008213000100
(1786378269.306249) can0 38E#2824008213000100
(1786378269.316283) can0 38F#2522E35302000000
(1786378269.316648) can0 38E#7525008213000100
(1786378269.326239) can0 38E#9226008213000100
(1786378269.336236) can0 38F#7823E35302000000
(1786378269.336809) can0 38E#CF27008213000100
(1786378269.346358) can0 38E#9328008213000100
(1786378269.356304) can0 38F#F624E35302000000
(1786378269.356651) can0 38E#CE29008213000100
(1786378269.366319) can0 38E#292A008213000100
(1786378269.376194) can0 38F#AB25E35302000000
(1786378269.376487) can0 38E#742B008213000100
(1786378269.386279) can0 38E#FA2C008213000100
(1786378269.396227) can0 38F#4C26E35302000000
(1786378269.396633) can0 38E#A72D008213000100
(1786378269.406311) can0 38E#402E008213000100
(1786378269.416366) can0 38F#1127E35302000000
(1786378269.416799) can0 38E#1D2F008213000100
(1786378269.426259) can0 38E#4120008213000100
(1786378269.436181) can0 38F#4D28E35302000000
(1786378269.436629) can0 38E#1C21008213000100
(1786378269.446490) can0 38E#FB22008213000100
(1786378269.456326) can0 38F#1029E35302000000
(1786378269.456696) can0 38E#A623008213000100
(1786378269.466299) can0 38E#2824008213000100
(1786378269.476257) can0 38F#F72AE35302000000
(1786378269.476655) can0 38E#7525008213000100
(1786378269.486347) can0 38E#9226008213000100
(1786378269.496383) can0 38F#AA2BE35302000000
(1786378269.496836) can0 38E#CF27008213000100
(1786378269.506186) can0 38E#9328008213000100
(1786378269.516352) can0 38F#242CE35302000000
(1786378269.516793) can0 38E#CE29008213000100
(1786378269.526352) can0 38E#292A008213000100
(1786378269.536310) can0 38F#792DE35302000000
(1786378269.536758) can0 38E#742B008213000100
(1786378269.546226) can0 38E#FA2C008213000100
(1786378269.556189) can0 38F#9E2EE35302000000
(1786378269.556549) can0 38E#A72D008213000100
(1786378269.566619) can0 38E#402E008213000100
(1786378269.576370) can0 38F#C32FE35302000000
(1786378269.576843) can0 38E#1D2F008213000100
(1786378269.586236) can0 38E#4120008213000100
(1786378269.596311) can0 38F#9F20E35302000000
(1786378269.596780) can0 38E#1C21008213000100
(1786378269.606244) can0 38E#FB22008213000100
(1786378269.616429) can0 38F#C221E35302000000
(1786378269.616914) can0 38E#A623008213000100
(1786378269.626282) can0 38E#2824008213000100
(1786378269.636269) can0 38F#2522E35302000000
(1786378269.636805) can0 38E#7525008213000100
(1786378269.646379) can0 38E#9226008213000100
(1786378269.656246) can0 38F#7823E35302000000
(1786378269.656617) can0 38E#CF27008213000100
(1786378269.666371) can0 38E#9328008213000100
(1786378269.676200) can0 38F#F624E35302000000
(1786378269.676533) can0 38E#7029008113000100
(1786378269.686341) can0 38E#972A008113000100
(1786378269.696388) can0 38F#AB25E35302000000
(1786378269.696844) can0 38E#CA2B008113000100
(1786378269.706248) can0 38E#442C008113000100
(1786378269.716183) can0 38F#4C26E35302000000
(1786378269.716652) can0 38E#192D008113000100
(1786378269.726336) can0 38E#FE2E008113000100
(1786378269.736274) can0 38F#1127E35302000000
(1786378269.736781) can0 38E#A32F008113000100
(1786378269.746464) can0 38E#FF20008113000100
(1786378269.756175) can0 38F#4D28E35302000000
(1786378269.756535) can0 38E#C821008013000100
(1786378269.766396) can0 38E#2F22008013000100
(1786378269.776325) can0 38F#1029E35302000000
(1786378269.776873) can0 38E#7223008013000100
(1786378269.786669) can0 38E#FC24008013000100
(1786378269.796400) can0 38F#F72AE35302000000
(1786378269.796903) can0 38E#A125008013000100
(1786378269.806213) can0 38E#4626008013000100
(1786378269.816269) can0 38F#AA2BE35302000000
(1786378269.816827) can0 38E#1B27008013000100
(1786378269.826293) can0 38E#4728008013000100
(1786378269.836378) can0 38F#242CE35302000000
(1786378269.836919) can0 38E#1A29008013000100
(1786378269.846268) can0 38E#122A007F13000100
(1786378269.856218) can0 38F#792DE35302000000
(1786378269.856552) can0 38E#4F2B007F13000100
(1786378269.866245) can0 38E#C12C007F13000100
(1786378269.876266) can0 38F#9E2EE35302000000
(1786378269.876703) can0 38E#9C2D007F13000100
(1786378269.886253) can0 38E#7B2E007F13000100
(1786378269.896280) can0 38F#C32FE35302000000
(1786378269.896729) can0 38E#262F007F13000100
(1786378269.906251) can0 38E#7A20007F13000100
(1786378269.916270) can0 38F#9F20E35302000000
(1786378269.916731) can0 38E#2721007F13000100
(1786378269.926262) can0 38E#C022007F13000100
(1786378269.936317) can0 38F#C221E35302000000
(1786378269.936788) can0 38E#9D23007F13000100
(1786378269.946515) can0 38E#1324007F13000100
(1786378269.956159) can0 38F#2522E35302000000
(1786378269.956439) can0 38E#4E25007F13000100
(1786378269.966298) can0 38E#A926007F13000100
(1786378269.976238) can0 38F#7823E35302000000
(1786378269.976630) can0 38E#F427007F13000100
(1786378269.986367) can0 38E#A828007F13000100
(1786378269.996673) can0 38F#F624E35302000000
(1786378269.997250) can0 38E#F529007F13000100
(1786378270.006233) can0 38E#122A007F13000100
(1786378270.016315) can0 38F#AB25E35302000000
(1786378270.016741) can0 38E#252B007E13000100
(1786378270.026297) can0 38E#AB2C007E13000100
(1786378270.036252) can0 38F#4C26E35302000000
(1786378270.036727) can0 38E#F62D007E13000100
(1786378270.046243) can0 38E#112E007E13000100
(1786378270.056207) can0 38F#1127E35302000000
(1786378270.056500) can0 38E#4C2F007E13000100
(1786378270.066263) can0 38E#1020007E13000100
(1786378270.076225) can0 38F#4D28E35302000000
(1786378270.076712) can0 38E#4D21007E13000100
(1786378270.086257) can0 38E#AA22007E13000100
(1786378270.096363) can0 38F#1029E35302000000
(1786378270.096810) can0 38E#F723007E13000100
(1786378270.106239) can0 38E#7924007E13000100
(1786378270.116272) can0 38F#F72AE35302000000
(1786378270.116735) can0 38E#2425007E13000100
(1786378270.126287) can0 38E#C326007E13000100
(1786378270.136386) can0 38F#AA2BE35302000000
(1786378270.136858) can0 38E#9E27007E13000100
(1786378270.146213) can0 38E#C228007E13000100
(1786378270.156152) can0 38F#242CE35302000000
(1786378270.156500) can0 38E#9F29007E13000100
(1786378270.166405) can0 38E#782A007E13000100
(1786378270.176243) can0 38F#792DE35302000000
(1786378270.176610) can0 38E#252B007E13000100
(1786378270.186371) can0 38E#AB2C007E13000100
(1786378270.196255) can0 38F#9E2EE35302000000
(1786378270.196668) can0 38E#F62D007E13000100
(1786378270.206233) can0 38E#112E007E13000100
(1786378270.216334) can0 38F#C32FE35302000000
(1786378270.216778) can0 38E#4C2F007E13000100
(1786378270.226359) can0 38E#1020007E13000100
(1786378270.236260) can0 38F#9F20E35302000000
(1786378270.236719) can0 38E#4D21007E13000100
(1786378270.246216) can0 38E#AA22007E13000100
(1786378270.256241) can0 38F#C221E35302000000
(1786378270.256620) can0 38E#F723007E13000100
(1786378270.266313) can0 38E#7924007E13000100
(1786378270.276277) can0 38F#2522E35302000000
(1786378270.276594) can0 38E#2425007E13000100
(1786378270.286354) can0 38E#C326007E13000100
(1786378270.296491) can0 38F#7823E35302000000
(1786378270.296968) can0 38E#9E27007E13000100
(1786378270.306247) can0 38E#C228007E13000100
(1786378270.316271) can0 38F#F624E35302000000
(1786378270.316742) can0 38E#9F29007E13000100
(1786378270.326294) can0 38E#782A007E13000100
(1786378270.336309) can0 38F#AB25E35302000000
(1786378270.336806) can0 38E#252B007E13000100
(1786378270.346304) can0 38E#AB2C007E13000100
(1786378270.356182) can0 38F#4C26E35302000000
(1786378270.356528) can0 38E#F62D007E13000100
(1786378270.366237) can0 38E#112E007E13000100
(1786378270.376411) can0 38F#1127E35302000000
(1786378270.376907) can0 38E#4C2F007E13000100
(1786378270.386489) can0 38E#1020007E13000100
(1786378270.396452) can0 38F#4D28E35302000000
(1786378270.396866) can0 38E#F321007D13000100
(1786378270.406195) can0 38E#1422007D13000100
(1786378270.416271) can0 38F#1029E35302000000
(1786378270.416718) can0 38E#4923007D13000100
(1786378270.426643) can0 38E#C724007D13000100
(1786378270.436259) can0 38F#F72AE35302000000
(1786378270.436724) can0 38E#9A25007D13000100
(1786378270.446395) can0 38E#7D26007D13000100
(1786378270.456276) can0 38F#AA2BE35302000000
(1786378270.456641) can0 38E#2027007D13000100
(1786378270.466290) can0 38E#7C28007D13000100
(1786378270.476212) can0 38F#242CE35302000000
(1786378270.476537) can0 38E#2129007D13000100
(1786378270.486381) can0 38E#C62A007D13000100
(1786378270.496453) can0 38F#792DE35302000000
(1786378270.496840) can0 38E#F12B007C13000100
(1786378270.506207) can0 38E#7F2C007C13000100
(1786378270.516254) can0 38F#9E2EE35302000000
(1786378270.516704) can0 38E#222D007C13000100
(1786378270.526304) can0 38E#CE2E007B13000100
(1786378270.536275) can0 38F#C32FE35302000000
(1786378270.536847) can0 38E#932F007B13000100
(1786378270.546316) can0 38E#A520007A13000100
(1786378270.556206) can0 38F#9F20E35302000000
(1786378270.556621) can0 38E#F821007A13000100
(1786378270.566635) can0 38E#1F22007A13000100
(1786378270.576269) can0 38F#C221E35302000000
(1786378270.576660) can0 38E#FC23007913000100
(1786378270.586285) can0 38E#7224007913000100
(1786378270.596350) can0 38F#2522E35302000000
(1786378270.596738) can0 38E#2F25007913000100
(1786378270.606200) can0 38E#C826007913000100
(1786378270.616317) can0 38F#7823E35302000000
(1786378270.616757) can0 38E#9527007913000100
(1786378270.626256) can0 38E#A328007813000100
(1786378270.636345) can0 38F#F624E35302000000
(1786378270.636743) can0 38E#FE29007813000100
(1786378270.646580) can0 38E#192A007813000100
(1786378270.656214) can0 38F#AB25E35302000000
(1786378270.656581) can0 38E#442B007813000100
(1786378270.666268) can0 38E#CA2C007813000100
(1786378270.676197) can0 38F#4C26E35302000000
(1786378270.676529) can0 38E#EB2D007713000100
(1786378270.686400) can0 38E#0C2E007713000100
(1786378270.696699) can0 38F#1127E35302000000
(1786378270.697109) can0 38E#512F007713000100
(1786378270.706240) can0 38E#0D20007713000100
(1786378270.716318) can0 38F#4D28E35302000000
(1786378270.716879) can0 38E#3A21007613000100
(1786378270.726250) can0 38E#DD22007613000100
(1786378270.736317) can0 38F#1029E35302000000
(1786378270.736751) can0 38E#8023007613000100
(1786378270.746724) can0 38E#B024007513000100
(1786378270.756171) can0 38F#F72AE35302000000
(1786378270.756575) can0 38E#ED25007513000100
(1786378270.766658) can0 38E#6026007413000100
(1786378270.776851) can0 38F#AA2BE35302000000
(1786378270.777376) can0 38E#3D27007413000100
(1786378270.786332) can0 38E#6A28007313000100
(1786378270.796206) can0 38F#242CE35302000000
(1786378270.796596) can0 38E#3729007313000100
(1786378270.806600) can0 38E#D02A007313000100
(1786378270.816315) can0 38F#792DE35302000000
(1786378270.816782) can0 38E#8D2B007313000100
(1786378270.826601) can0 38E#692C007213000100
(1786378270.836209) can0 38F#9E2EE35302000000
(1786378270.836680) can0 38E#342D007213000100
(1786378270.846287) can0 38E#6D2E007113000100
(1786378270.856521) can0 38F#C32FE35302000000
(1786378270.856852) can0 38E#302F007113000100
(1786378270.866322) can0 38E#6C20007113000100
(1786378270.876222) can0 38F#9F20E35302000000
(1786378270.876814) can0 38E#5B21007013000100
(1786378270.886257) can0 38E#BC22007013000100
(1786378270.896251) can0 38F#C221E35302000000
(1786378270.896668) can0 38E#E123007013000100
(1786378270.906193) can0 38E#FD24006F13000100
(1786378270.916214) can0 38F#2522E35302000000
(1786378270.916674) can0 38E#A025006F13000100
(1786378270.926317) can0 38E#2D26006E13000100
(1786378270.936361) can0 38F#7823E35302000000
(1786378270.936863) can0 38E#7027006E13000100
(1786378270.946275) can0 38E#2C28006E13000100
(1786378270.956196) can0 38F#F624E35302000000
(1786378270.956483) can0 38E#CF29006D13000100
(1786378270.966226) can0 38E#282A006D13000100
(1786378270.976326) can0 38F#AB25E35302000000
(1786378270.976686) can0 38E#752B006D13000100
(1786378270.986424) can0 38E#912C006C13000100
(1786378270.996463) can0 38F#4C26E35302000000
(1786378270.996915) can0 38E#CC2D006C13000100
(1786378271.006261) can0 38E#2B2E006C13000100
(1786378271.016254) can0 38F#1127E35302000000
(1786378271.016707) can0 38E#7D2F006B13000100
(1786378271.026279) can0 38E#2120006B13000100
(1786378271.036464) can0 38F#4D28E35302000000
(1786378271.036900) can0 38E#7C21006B13000100
(1786378271.046288) can0 38E#9B22006B13000100
(1786378271.056263) can0 38F#1029E35302000000
(1786378271.056703) can0 38E#AC23006A13000100
(1786378271.066266) can0 38E#2224006A13000100
(1786378271.076555) can0 38F#F72AE35302000000
(1786378271.076906) can0 38E#C125006913000100
(1786378271.086377) can0 38E#2626006913000100
(1786378271.096404) can0 38F#AA2BE35302000000
(1786378271.096870) can0 38E#1127006813000100
(1786378271.106249) can0 38E#4D28006813000100
(1786378271.116325) can0 38F#242CE35302000000
(1786378271.116855) can0 38E#6C29006713000100
(1786378271.126554) can0 38E#8B2A006713000100
(1786378271.136317) can0 38F#792DE35302000000
(1786378271.136778) can0 38E#D62B006713000100
(1786378271.146311) can0 38E#322C006613000100
(1786378271.156186) can0 38F#9E2EE35302000000
(1786378271.156530) can0 38E#6F2D006613000100
(1786378271.166281) can0 38E#882E006613000100
(1786378271.176271) can0 38F#C32FE35302000000
(1786378271.176621) can0 38E#D52F006613000100
(1786378271.186237) can0 38E#8920006613000100
(1786378271.196411) can0 38F#9F20E35302000000
(1786378271.196846) can0 38E#6A21006513000100
(1786378271.206242) can0 38E#8D22006513000100
(1786378271.216114) can0 38F#C221E35302000000
(1786378271.216468) can0 38E#D023006513000100
(1786378271.226211) can0 38E#5E24006513000100
(1786378271.236303) can0 38F#2522E35302000000
(1786378271.236679) can0 38E#0325006513000100
(1786378271.246247) can0 38E#E426006513000100
(1786378271.256247) can0 38F#7823E35302000000
(1786378271.256635) can0 38E#B927006513000100
(1786378271.266255) can0 38E#E528006513000100
(1786378271.276213) can0 38F#F624E35302000000
(1786378271.276726) can0 38E#B829006513000100
(1786378271.286560) can0 38E#5F2A006513000100
(1786378271.296309) can0 38F#AB25E35302000000
(1786378271.296725) can0 38E#022B006513000100
(1786378271.306190) can0 38E#8C2C006513000100
(1786378271.316200) can0 38F#4C26E35302000000
(1786378271.316682) can0 38E#D12D006513000100
(1786378271.326360) can0 38E#362E006513000100
(1786378271.336346) can0 38F#1127E35302000000
(1786378271.336754) can0 38E#6B2F006513000100
(1786378271.346371) can0 38E#3720006513000100
(1786378271.356212) can0 38F#4D28E35302000000
(1786378271.356472) can0 38E#D421006613000100
(1786378271.366168) can0 38E#8D22006513000100
(1786378271.376193) can0 38F#1029E35302000000
(1786378271.376488) can0 38E#D023006513000100
(1786378271.386483) can0 38E#E024006613000100
(1786378271.396209) can0 38F#F72AE35302000000
(1786378271.396667) can0 38E#0325006513000100
(1786378271.406242) can0 38E#E426006513000100
(1786378271.416266) can0 38F#AA2BE35302000000
(1786378271.416686) can0 38E#0727006613000100
(1786378271.426378) can0 38E#2728006913000100
(1786378271.436208) can0 38F#242CE35302000000
(1786378271.436642) can0 38E#C429006A13000100
(1786378271.446287) can0 38E#232A006A13000100
(1786378271.456343) can0 38F#792DE35302000000
(1786378271.456715) can0 38E#7E2B006A13000100
(1786378271.466574) can0 38E#9A2C006B13000100
(1786378271.476174) can0 38F#9E2EE35302000000
(1786378271.476560) can0 38E#CC2D006C13000100
(1786378271.486355) can0 38E#412E006D13000100
(1786378271.496746) can0 38F#C32FE35302000000
(1786378271.497140) can0 38E#A22F006E13000100
(1786378271.506584) can0 38E#9420006F13000100
(1786378271.516311) can0 38F#9F20E35302000000
(1786378271.516764) can0 38E#3121007113000100
(1786378271.526348) can0 38E#D622007113000100
(1786378271.536225) can0 38F#C221E35302000000
(1786378271.536650) can0 38E#3523007213000100
(1786378271.546341) can0 38E#BB24007213000100
(1786378271.556562) can0 38F#2522E35302000000
(1786378271.556896) can0 38E#E625007213000100
(1786378271.566572) can0 38E#6B26007313000100
(1786378271.576234) can0 38F#7823E35302000000
(1786378271.576586) can0 38E#3D27007413000100
(1786378271.586368) can0 38E#0B28007513000100
(1786378271.596428) can0 38F#F624E35302000000
(1786378271.596846) can0 38E#5629007513000100
(1786378271.606541) can0 38E#B12A007513000100
(1786378271.616177) can0 38F#AB25E35302000000
(1786378271.616544) can0 38E#EC2B007513000100
(1786378271.626267) can0 38E#622C007513000100
(1786378271.636299) can0 38F#4C26E35302000000
(1786378271.636822) can0 38E#3F2D007513000100
(1786378271.646367) can0 38E#D82E007513000100
(1786378271.656180) can0 38F#1127E35302000000
(1786378271.656488) can0 38E#3B2F007613000100
(1786378271.666614) can0 38E#6720007613000100
(1786378271.676202) can0 38F#4D28E35302000000
(1786378271.676596) can0 38E#3A21007613000100
(1786378271.686580) can0 38E#DD22007613000100
(1786378271.696457) can0 38F#1029E35302000000
(1786378271.696987) can0 38E#8023007613000100
(1786378271.706213) can0 38E#0E24007613000100
(1786378271.716228) can0 38F#F72AE35302000000
(1786378271.716590) can0 38E#5325007613000100
(1786378271.726245) can0 38E#B426007613000100
(1786378271.736240) can0 38F#AA2BE35302000000
(1786378271.736748) can0 38E#E927007613000100
(1786378271.746171) can0 38E#B528007613000100
(1786378271.756086) can0 38F#242CE35302000000
(1786378271.756406) can0 38E#E829007613000100
(1786378271.766141) can0 38E#0F2A007613000100
(1786378271.776146) can0 38F#792DE35302000000
(1786378271.776427) can0 38E#522B007613000100
(1786378271.786221) can0 38E#DC2C007613000100
(1786378271.796134) can0 38F#9E2EE35302000000
(1786378271.796384) can0 38E#812D007613000100
(1786378271.806123) can0 38E#662E007613000100
(1786378271.816163) can0 38F#C32FE35302000000
(1786378271.816518) can0 38E#3B2F007613000100
(1786378271.826160) can0 38E#6720007613000100
(1786378271.836290) can0 38F#9F20E35302000000
(1786378271.836672) can0 38E#3A21007613000100
(1786378271.846205) can0 38E#DD22007613000100
(1786378271.856229) can0 38F#C221E35302000000
(1786378271.856551) can0 38E#8023007613000100
(1786378271.866099) can0 38E#0E24007613000100
(1786378271.876127) can0 38F#2522E35302000000
(1786378271.876464) can0 38E#5325007613000100
(1786378271.886183) can0 38E#B426007613000100
(1786378271.896223) can0 38F#7823E35302000000
(1786378271.896496) can0 38E#E927007613000100
(1786378271.906168) can0 38E#B528007613000100
(1786378271.916202) can0 38F#F624E35302000000
(1786378271.916671) can0 38E#E829007613000100
(1786378271.926214) can0 38E#0F2A007613000100
(1786378271.936229) can0 38F#AB25E35302000000
(1786378271.936622) can0 38E#522B007613000100
(1786378271.946219) can0 38E#DC2C007613000100
(1786378271.956146) can0 38F#4C26E35302000000
(1786378271.956543) can0 38E#812D007613000100
(1786378271.966116) can0 38E#662E007613000100
(1786378271.976162) can0 38F#1127E35302000000
(1786378271.976462) can0 38E#3B2F007613000100
(1786378271.986329) can0 38E#6720007613000100
(1786378271.996236) can0 38F#4D28E35302000000
(1786378271.996575) can0 38E#3A21007613000100
(1786378272.006146) can0 38E#DD22007613000100
(1786378272.016256) can0 38F#1029E35302000000
(1786378272.016706) can0 38E#8023007613000100
(1786378272.026251) can0 38E#0E24007613000100
(1786378272.036402) can0 38F#F72AE35302000000
(1786378272.036873) can0 38E#5325007613000100
(1786378272.046135) can0 38E#B426007613000100
(1786378272.056186) can0 38F#AA2BE35302000000
(1786378272.056504) can0 38E#E927007613000100
(1786378272.066247) can0 38E#B528007613000100
(1786378272.076148) can0 38F#242CE35302000000
(1786378272.076491) can0 38E#E829007613000100
(1786378272.086264) can0 38E#0F2A007613000100
(1786378272.096550) can0 38F#792DE35302000000
(1786378272.096939) can0 38E#522B007613000100
(1786378272.106190) can0 38E#DC2C007613000100
(1786378272.116170) can0 38F#9E2EE35302000000
(1786378272.116536) can0 38E#812D007613000100
(1786378272.126193) can0 38E#662E007613000100
(1786378272.136186) can0 38F#C32FE35302000000
(1786378272.136647) can0 38E#3B2F007613000100
(1786378272.146608) can0 38E#6720007613000100
(1786378272.156127) can0 38F#9F20E35302000000
(1786378272.156448) can0 38E#3A21007613000100
(1786378272.166096) can0 38E#DD22007613000100
(1786378272.176169) can0 38F#C221E35302000000
(1786378272.176472) can0 38E#8023007613000100
(1786378272.186205) can0 38E#0E24007613000100
(1786378272.196329) can0 38F#2522E35302000000
(1786378272.196682) can0 38E#5325007613000100
(1786378272.206139) can0 38E#B426007613000100
(1786378272.216111) can0 38F#7823E35302000000
(1786378272.216380) can0 38E#E927007613000100
(1786378272.226183) can0 38E#B528007613000100
(1786378272.236159) can0 38F#F624E35302000000
(1786378272.236539) can0 38E#E829007613000100
(1786378272.246252) can0 38E#0F2A007613000100
(1786378272.256236) can0 38F#AB25E35302000000
(1786378272.256604) can0 38E#522B007613000100
(1786378272.266226) can0 38E#DC2C007613000100
(1786378272.276131) can0 38F#4C26E35302000000
(1786378272.276434) can0 38E#812D007613000100
(1786378272.286230) can0 38E#662E007613000100
(1786378272.296228) can0 38F#1127E35302000000
(1786378272.296637) can0 38E#3B2F007613000100
(1786378272.306226) can0 38E#6720007613000100
(1786378272.316195) can0 38F#4D28E35302000000
(1786378272.316700) can0 38E#3A21007613000100
(1786378272.326271) can0 38E#DD22007613000100
(1786378272.336296) can0 38F#1029E35302000000
(1786378272.336742) can0 38E#8023007613000100
(1786378272.346238) can0 38E#0E24007613000100
(1786378272.356162) can0 38F#F72AE35302000000
(1786378272.356445) can0 38E#5325007613000100
(1786378272.366529) can0 38E#B426007613000100
(1786378272.376210) can0 38F#AA2BE35302000000
(1786378272.376599) can0 38E#E927007613000100
(1786378272.386161) can0 38E#B528007613000100
(1786378272.396134) can0 38F#242CE35302000000
(1786378272.396547) can0 38E#E829007613000100
(1786378272.406132) can0 38E#0F2A007613000100
(1786378272.416189) can0 38F#792DE35302000000
(1786378272.416505) can0 38E#522B007613000100
(1786378272.426224) can0 38E#DC2C007613000100
(1786378272.436186) can0 38F#9E2EE35302000000
(1786378272.436630) can0 38E#812D007613000100
(1786378272.446214) can0 38E#662E007613000100
(1786378272.456142) can0 38F#C32FE35302000000
(1786378272.456444) can0 38E#3B2F007613000100
(1786378272.466260) can0 38E#6720007613000100
(1786378272.476107) can0 38F#9F20E35302000000
(1786378272.476456) can0 38E#3A21007613000100
(1786378272.486184) can0 38E#DD22007613000100
(1786378272.496167) can0 38F#C221E35302000000
(1786378272.496431) can0 38E#8023007613000100
(1786378272.506127) can0 38E#0E24007613000100
(1786378272.516098) can0 38F#2522E35302000000
(1786378272.516468) can0 38E#5325007613000100
(1786378272.526180) can0 38E#B426007613000100
(1786378272.536152) can0 38F#7823E35302000000
(1786378272.536486) can0 38E#E927007613000100
(1786378272.546234) can0 38E#B528007613000100
(1786378272.556094) can0 38F#F624E35302000000
(1786378272.556526) can0 38E#E829007613000100
(1786378272.566247) can0 38E#0F2A007613000100
(1786378272.576220) can0 38F#AB25E35302000000
(1786378272.576524) can0 38E#522B007613000100
(1786378272.586220) can0 38E#DC2C007613000100
(1786378272.596118) can0 38F#4C26E35302000000
(1786378272.596473) can0 38E#812D007613000100
(1786378272.606145) can0 38E#662E007613000100
(1786378272.616120) can0 38F#1127E35302000000
(1786378272.616404) can0 38E#3B2F007613000100
(1786378272.626257) can0 38E#6720007613000100
(1786378272.636158) can0 38F#4D28E35302000000
(1786378272.636583) can0 38E#3A21007613000100
(1786378272.646283) can0 38E#DD22007613000100
(1786378272.656104) can0 38F#1029E35302000000
(1786378272.656402) can0 38E#8023007613000100
(1786378272.666168) can0 38E#0E24007613000100
(1786378272.676129) can0 38F#F72AE35302000000
(1786378272.676381) can0 38E#5325007613000100
(1786378272.686109) can0 38E#B426007613000100
(1786378272.696181) can0 38F#AA2BE35302000000
(1786378272.696488) can0 38E#E927007613000100
(1786378272.706139) can0 38E#B528007613000100
(1786378272.716162) can0 38F#242CE35302000000
(1786378272.716403) can0 38E#E829007613000100
(1786378272.726081) can0 38E#0F2A007613000100
(1786378272.736107) can0 38F#792DE35302000000
(1786378272.736449) can0 38E#522B007613000100
(1786378272.746115) can0 38E#DC2C007613000100
(1786378272.756305) can0 38F#9E2EE35302000000
(1786378272.756689) can0 38E#812D007613000100
(1786378272.766191) can0 38E#662E007613000100
(1786378272.776159) can0 38F#C32FE35302000000
(1786378272.776429) can0 38E#3B2F007613000100
(1786378272.786164) can0 38E#6720007613000100
(1786378272.796524) can0 38F#9F20E35302000000
(1786378272.796852) can0 38E#3A21007613000100
(1786378272.806197) can0 38E#DD22007613000100
(1786378272.816118) can0 38F#C221E35302000000
(1786378272.816419) can0 38E#8023007613000100
(1786378272.826191) can0 38E#0E24007613000100
(1786378272.836150) can0 38F#2522E35302000000
(1786378272.836697) can0 38E#5325007613000100
(1786378272.846234) can0 38E#B426007613000100
(1786378272.856176) can0 38F#7823E35302000000
(1786378272.856514) can0 38E#E927007613000100
(1786378272.866222) can0 38E#B528007613000100
(1786378272.876138) can0 38F#F624E35302000000
(1786378272.876451) can0 38E#E829007613000100
(1786378272.886218) can0 38E#0F2A007613000100
(1786378272.896239) can0 38F#AB25E35302000000
(1786378272.896628) can0 38E#522B007613000100
(1786378272.906186) can0 38E#DC2C007613000100
(1786378272.916133) can0 38F#4C26E35302000000
(1786378272.916417) can0 38E#812D007613000100
(1786378272.926223) can0 38E#662E007613000100
(1786378272.936178) can0 38F#1127E35302000000
(1786378272.936782) can0 38E#3B2F007613000100
(1786378272.946198) can0 38E#6720007613000100
(1786378272.956212) can0 38F#4D28E35302000000
(1786378272.956526) can0 38E#3A21007613000100
(1786378272.966131) can0 38E#DD22007613000100
(1786378272.976175) can0 38F#1029E35302000000
(1786378272.976438) can0 38E#8023007613000100
(1786378272.986234) can0 38E#0E24007613000100
(1786378272.996127) can0 38F#F72AE35302000000
(1786378272.996396) can0 38E#5325007613000100
(1786378273.006456) can0 38E#B426007613000100
(1786378273.016253) can0 38F#AA2BE35302000000
(1786378273.016703) can0 38E#E927007613000100
(1786378273.026152) can0 38E#B528007613000100
(1786378273.036146) can0 38F#242CE35302000000
(1786378273.036440) can0 38E#E829007613000100
(1786378273.046141) can0 38E#0F2A007613000100
(1786378273.056131) can0 38F#792DE35302000000
(1786378273.056386) can0 38E#522B007613000100
(1786378273.066116) can0 38E#DC2C007613000100
(1786378273.076119) can0 38F#9E2EE35302000000
(1786378273.076386) can0 38E#812D007613000100
(1786378273.086184) can0 38E#662E007613000100
(1786378273.096174) can0 38F#C32FE35302000000
(1786378273.096455) can0 38E#3B2F007613000100
(1786378273.106092) can0 38E#6720007613000100
(1786378273.116120) can0 38F#9F20E35302000000
(1786378273.116347) can0 38E#3A21007613000100
(1786378273.126098) can0 38E#DD22007613000100
(1786378273.136202) can0 38F#C221E35302000000
(1786378273.136522) can0 38E#8023007613000100
(1786378273.146447) can0 38E#0E24007613000100
(1786378273.156063) can0 38F#2522E35302000000
(1786378273.156353) can0 38E#5325007613000100
(1786378273.166041) can0 38E#B426007613000100
(1786378273.176229) can0 38F#7823E35302000000
(1786378273.176586) can0 38E#E927007613000100
(1786378273.186193) can0 38E#B528007613000100
(1786378273.196178) can0 38F#F624E35302000000
(1786378273.196738) can0 38E#E829007613000100
(1786378273.206186) can0 38E#0F2A007613000100
(1786378273.216140) can0 38F#AB25E35302000000
(1786378273.216443) can0 38E#522B007613000100
(1786378273.226584) can0 38E#DC2C007613000100
(1786378273.236187) can0 38F#4C26E35302000000
(1786378273.236713) can0 38E#812D007613000100
(1786378273.246142) can0 38E#662E007613000100
(1786378273.256184) can0 38F#1127E35302000000
(1786378273.256509) can0 38E#3B2F007613000100
(1786378273.266208) can0 38E#6720007613000100
(1786378273.276207) can0 38F#4D28E35302000000
(1786378273.276493) can0 38E#3A21007613000100
(1786378273.286213) can0 38E#DD22007613000100
(1786378273.296351) can0 38F#1029E35302000000
(1786378273.296795) can0 38E#8023007613000100
(1786378273.306153) can0 38E#0E24007613000100
(1786378273.316188) can0 38F#F72AE35302000000
(1786378273.316594) can0 38E#5325007613000100
(1786378273.326610) can0 38E#B426007613000100
(1786378273.336206) can0 38F#AA2BE35302000000
(1786378273.336612) can0 38E#E927007613000100
(1786378273.346121) can0 38E#B528007613000100
(1786378273.356134) can0 38F#242CE35302000000
(1786378273.356406) can0 38E#E829007613000100
(1786378273.366122) can0 38E#0F2A007613000100
(1786378273.376217) can0 38F#792DE35302000000
(1786378273.376686) can0 38E#522B007613000100
(1786378273.386312) can0 38E#DC2C007613000100
(1786378273.396172) can0 38F#9E2EE35302000000
(1786378273.396824) can0 38E#812D007613000100
(1786378273.406479) can0 38E#662E007613000100
(1786378273.416201) can0 38F#C32FE35302000000
(1786378273.416653) can0 38E#3B2F007613000100
(1786378273.426249) can0 38E#6720007613000100
(1786378273.436308) can0 38F#9F20E35302000000
(1786378273.436777) can0 38E#3A21007613000100
(1786378273.446249) can0 38E#DD22007613000100
(1786378273.456185) can0 38F#C221E35302000000
(1786378273.456569) can0 38E#8023007613000100
(1786378273.466229) can0 38E#0E24007613000100
(1786378273.476104) can0 38F#2522E35302000000
(1786378273.476443) can0 38E#5325007613000100
(1786378273.486239) can0 38E#B426007613000100
(1786378273.496310) can0 38F#7823E35302000000
(1786378273.496662) can0 38E#E927007613000100
(1786378273.506218) can0 38E#B528007613000100
(1786378273.516215) can0 38F#F624E35302000000
(1786378273.516621) can0 38E#E829007613000100
(1786378273.526189) can0 38E#0F2A007613000100
(1786378273.536238) can0 38F#AB25E35302000000
(1786378273.536528) can0 38E#522B007613000100
(1786378273.546110) can0 38E#DC2C007613000100
(1786378273.556122) can0 38F#4C26E35302000000
(1786378273.556449) can0 38E#812D007613000100
(1786378273.566112) can0 38E#662E007613000100
(1786378273.576174) can0 38F#1127E35302000000
(1786378273.576459) can0 38E#3B2F007613000100
(1786378273.586113) can0 38E#6720007613000100
(1786378273.596251) can0 38F#4D28E35302000000
(1786378273.596690) can0 38E#3A21007613000100
(1786378273.606219) can0 38E#DD22007613000100
(1786378273.616098) can0 38F#1029E35302000000
(1786378273.616370) can0 38E#8023007613000100
(1786378273.626223) can0 38E#0E24007613000100
(1786378273.636217) can0 38F#F72AE35302000000
(1786378273.636629) can0 38E#5325007613000100
(1786378273.646193) can0 38E#B426007613000100
(1786378273.656442) can0 38F#AA2BE35302000000
(1786378273.656715) can0 38E#E927007613000100
(1786378273.666114) can0 38E#B528007613000100
(1786378273.676113) can0 38F#242CE35302000000
(1786378273.676461) can0 38E#E829007613000100
(1786378273.686169) can0 38E#0F2A007613000100
(1786378273.696339) can0 38F#792DE35302000000
(1786378273.696717) can0 38E#522B007613000100
(1786378273.748764) can0 38E#DC2C007613000100
(1786378273.761980) can0 38F#9E2EE35302000000
(1786378273.762435) can0 38E#812D007613000100
(1786378273.762823) can0 38E#662E007613000100
(1786378273.763088) can0 38F#C32FE35302000000
(1786378273.763338) can0 38E#3B2F007613000100
(1786378273.763608) can0 38E#6720007613000100
(1786378273.763889) can0 38F#9F20E35302000000
(1786378273.764147) can0 38E#3A21007613000100
(1786378273.766062) can0 38E#DD22007613000100
(1786378273.776163) can0 38F#C221E35302000000
(1786378273.776472) can0 38E#8023007613000100
(1786378273.786161) can0 38E#0E24007613000100
(1786378273.796085) can0 38F#2522E35302000000
(1786378273.796405) can0 38E#5325007613000100
(1786378273.806871) can0 38E#B426007613000100
(1786378273.816128) can0 38F#7823E35302000000
(1786378273.816470) can0 38E#E927007613000100
(1786378273.826216) can0 38E#B528007613000100
(1786378273.836230) can0 38F#F624E35302000000
(1786378273.836581) can0 38E#E829007613000100
(1786378273.846170) can0 38E#0F2A007613000100
(1786378273.856143) can0 38F#AB25E35302000000
(1786378273.856565) can0 38E#522B007613000100
(1786378273.866515) can0 38E#DC2C007613000100
(1786378273.876090) can0 38F#4C26E35302000000
(1786378273.876389) can0 38E#812D007613000100
(1786378273.886177) can0 38E#662E007613000100
(1786378273.896239) can0 38F#1127E35302000000
(1786378273.896559) can0 38E#3B2F007613000100
(1786378273.906127) can0 38E#6720007613000100
(1786378273.916191) can0 38F#4D28E35302000000
(1786378273.916585) can0 38E#3A21007613000100
(1786378273.926220) can0 38E#DD22007613000100
(1786378273.936155) can0 38F#1029E35302000000
(1786378273.936582) can0 38E#8023007613000100
(1786378273.946121) can0 38E#0E24007613000100
(1786378273.956124) can0 38F#F72AE35302000000
(1786378273.956496) can0 38E#5325007613000100
(1786378273.966185) can0 38E#B426007613000100
(1786378273.976166) can0 38F#AA2BE35302000000
(1786378273.976514) can0 38E#E927007613000100
(1786378273.986239) can0 38E#B528007613000100
(1786378273.996250) can0 38F#242CE35302000000
(1786378273.996580) can0 38E#E829007613000100
(1786378274.006222) can0 38E#0F2A007613000100
(1786378274.016097) can0 38F#792DE35302000000
(1786378274.016414) can0 38E#522B007613000100
(1786378274.026141) can0 38E#DC2C007613000100
(1786378274.036194) can0 38F#9E2EE35302000000
(1786378274.036578) can0 38E#812D007613000100
(1786378274.046158) can0 38E#662E007613000100
(1786378274.056140) can0 38F#C32FE35302000000
(1786378274.056409) can0 38E#3B2F007613000100
(1786378274.066118) can0 38E#6720007613000100
(1786378274.076144) can0 38F#9F20E35302000000
(1786378274.076530) can0 38E#3A21007613000100
(1786378274.086525) can0 38E#DD22007613000100
(1786378274.096431) can0 38F#C221E35302000000
(1786378274.096867) can0 38E#8023007613000100
(1786378274.106189) can0 38E#0E24007613000100
(1786378274.116102) can0 38F#2522E35302000000
(1786378274.116479) can0 38E#5325007613000100
(1786378274.126166) can0 38E#B426007613000100
(1786378274.136203) can0 38F#7823E35302000000
(1786378274.136543) can0 38E#E927007613000100
(1786378274.146125) can0 38E#B528007613000100
(1786378274.156152) can0 38F#F624E35302000000
(1786378274.156409) can0 38E#E829007613000100
(1786378274.166234) can0 38E#0F2A007613000100
(1786378274.176209) can0 38F#AB25E35302000000
(1786378274.176581) can0 38E#522B007613000100
(1786378274.186189) can0 38E#DC2C007613000100
(1786378274.196194) can0 38F#4C26E35302000000
(1786378274.196700) can0 38E#812D007613000100
(1786378274.206176) can0 38E#662E007613000100
(1786378274.216112) can0 38F#1127E35302000000
(1786378274.216409) can0 38E#3B2F007613000100
(1786378274.226115) can0 38E#6720007613000100
(1786378274.236053) can0 38F#4D28E35302000000
(1786378274.236385) can0 38E#3A21007613000100
(1786378274.246481) can0 38E#DD22007613000100
(1786378274.256130) can0 38F#1029E35302000000
(1786378274.256427) can0 38E#8023007613000100
(1786378274.266112) can0 38E#0E24007613000100
(1786378274.276059) can0 38F#F72AE35302000000
(1786378274.276298) can0 38E#5325007613000100
(1786378274.286090) can0 38E#B426007613000100
(1786378274.296445) can0 38F#AA2BE35302000000
(1786378274.296703) can0 38E#E927007613000100
(1786378274.306122) can0 38E#B528007613000100
(1786378274.316072) can0 38F#242CE35302000000
(1786378274.316383) can0 38E#E829007613000100
(1786378274.326203) can0 38E#0F2A007613000100
(1786378274.336297) can0 38F#792DE35302000000
(1786378274.336682) can0 38E#522B007613000100
(1786378274.346075) can0 38E#DC2C007613000100
(1786378274.356117) can0 38F#9E2EE35302000000
(1786378274.356375) can0 38E#812D007613000100
(1786378274.366242) can0 38E#662E007613000100
(1786378274.376128) can0 38F#C32FE35302000000
(1786378274.376441) can0 38E#3B2F007613000100
(1786378274.386216) can0 38E#6720007613000100
(1786378274.396272) can0 38F#9F20E35302000000
(1786378274.396689) can0 38E#3A21007613000100
(1786378274.406141) can0 38E#DD22007613000100
(1786378274.416158) can0 38F#C221E35302000000
(1786378274.416515) can0 38E#8023007613000100
(1786378274.426232) can0 38E#0E24007613000100
(1786378274.436242) can0 38F#2522E35302000000
(1786378274.436652) can0 38E#5325007613000100
(1786378274.446085) can0 38E#B426007613000100
(1786378274.456119) can0 38F#7823E35302000000
(1786378274.456484) can0 38E#E927007613000100
(1786378274.466191) can0 38E#B528007613000100
(1786378274.476144) can0 38F#F624E35302000000
(1786378274.476444) can0 38E#E829007613000100
(1786378274.486104) can0 38E#0F2A007613000100
(1786378274.496144) can0 38F#AB25E35302000000
(1786378274.496589) can0 38E#522B007613000100
(1786378274.506187) can0 38E#DC2C007613000100
(1786378274.516461) can0 38F#4C26E35302000000
(1786378274.516877) can0 38E#812D007613000100
(1786378274.526226) can0 38E#662E007613000100
(1786378274.536205) can0 38F#1127E35302000000
(1786378274.536620) can0 38E#3B2F007613000100
(1786378274.546217) can0 38E#6720007613000100
(1786378274.556073) can0 38F#4D28E35302000000
(1786378274.556393) can0 38E#3A21007613000100
(1786378274.566188) can0 38E#DD22007613000100
(1786378274.576195) can0 38F#1029E35302000000
(1786378274.576550) can0 38E#8023007613000100
(1786378274.586251) can0 38E#0E24007613000100
(1786378274.596172) can0 38F#F72AE35302000000
(1786378274.596516) can0 38E#5325007613000100
(1786378274.606214) can0 38E#B426007613000100
(1786378274.616203) can0 38F#AA2BE35302000000
(1786378274.616596) can0 38E#E927007613000100
(1786378274.626245) can0 38E#B528007613000100
(1786378274.636150) can0 38F#242CE35302000000
(1786378274.636641) can0 38E#E829007613000100
(1786378274.646126) can0 38E#0F2A007613000100
(1786378274.656041) can0 38F#792DE35302000000
(1786378274.656315) can0 38E#522B007613000100
(1786378274.666137) can0 38E#DC2C007613000100
(1786378274.676402) can0 38F#9E2EE35302000000
(1786378274.676824) can0 38E#812D007613000100
(1786378274.686169) can0 38E#662E007613000100
(1786378274.696641) can0 38F#C32FE35302000000
(1786378274.696990) can0 38E#3B2F007613000100
(1786378274.706127) can0 38E#6720007613000100
(1786378274.716064) can0 38F#9F20E35302000000
(1786378274.716363) can0 38E#3A21007613000100
(1786378274.726494) can0 38E#DD22007613000100
(1786378274.736255) can0 38F#C221E35302000000
(1786378274.736600) can0 38E#8023007613000100
(1786378274.746179) can0 38E#0E24007613000100
(1786378274.756105) can0 38F#2522E35302000000
(1786378274.756555) can0 38E#5325007613000100
(1786378274.766110) can0 38E#B426007613000100
(1786378274.776128) can0 38F#7823E35302000000
(1786378274.776463) can0 38E#E927007613000100
(1786378274.786245) can0 38E#B528007613000100
(1786378274.796324) can0 38F#F624E35302000000
(1786378274.796716) can0 38E#E829007613000100
