(1786374658.985019) can0 39D#B70E0801
(1786374658.986087) can0 39D#AA010801
(1786374659.078731) can0 39D#AB020801
(1786374659.118793) can0 33D#0000FFFFFFFFFFFF
(1786374659.138892) can0 39D#AC030801
(1786374659.158716) can0 39D#AD040801
(1786374659.198686) can0 39D#AE050801
(1786374659.298690) can0 33D#0000FFFFFFFFFFFF
(1786374659.300369) can0 39D#AF060801
(1786374659.300744) can0 39D#B0070801
(1786374659.330386) can0 33D#0000FFFFFFFFFFFF
(1786374659.339236) can0 39D#B1080801
(1786374659.358847) can0 39D#B2090801
(1786374659.398834) can0 39D#B30A0801
(1786374659.438877) can0 33D#0000FFFFFFFFFFFF
(1786374659.439292) can0 39D#B40B0801
(1786374659.478604) can0 39D#B50C0801
(1786374659.518709) can0 33D#0000FFFFFFFFFFFF
(1786374659.538882) can0 39D#B60D0801
(1786374659.558757) can0 39D#B70E0801
(1786374659.598666) can0 39D#B80F0801
(1786374659.638802) can0 33D#0000FFFFFFFFFFFF
(1786374659.639142) can0 39D#A9000801
(1786374659.678830) can0 39D#AA010801
(1786374659.718902) can0 33D#0000FFFFFFFFFFFF
(1786374659.739000) can0 39D#AB020801
(1786374659.758817) can0 39D#AC030801
(1786374659.798754) can0 39D#AD040801
(1786374659.838768) can0 33D#0000FFFFFFFFFFFF
(1786374659.839146) can0 39D#AE050801
(1786374659.878903) can0 39D#AF060801
(1786374659.918629) can0 35D#0555555555555555
(1786374659.918855) can0 32D#1405000060FCB070
(1786374659.919036) can0 33D#0000FFFFFFFFFFFF
(1786374659.938851) can0 39D#B0070801
(1786374659.958680) can0 39D#B1080801
(1786374659.998686) can0 39D#B2090801
(1786374660.038775) can0 33D#0000FFFFFFFFFFFF
(1786374660.039093) can0 39D#B30A0801
(1786374660.078921) can0 39D#B40B0801
(1786374660.119103) can0 33D#0000FFFFFFFFFFFF
(1786374660.138952) can0 39D#B50C0801
(1786374660.158734) can0 39D#B60D0801
(1786374660.198764) can0 39D#B70E0801
(1786374660.238771) can0 33D#0000FFFFFFFFFFFF
(1786374660.239113) can0 39D#B80F0801
(1786374660.278772) can0 39D#A9000801
(1786374660.318897) can0 33D#0000FFFFFFFFFFFF
(1786374660.338972) can0 39D#AA010801
(1786374660.358815) can0 39D#AB020801
(1786374660.398882) can0 39D#AC030801
(1786374660.438770) can0 33D#0000FFFFFFFFFFFF
(1786374660.439229) can0 39D#AD040801
(1786374660.478952) can0 39D#AE050801
(1786374660.518745) can0 33D#0000FFFFFFFFFFFF
(1786374660.539008) can0 39D#AF060801
(1786374660.558620) can0 39D#B0070801
(1786374660.598920) can0 39D#B1080801
(1786374660.638822) can0 33D#0000FFFFFFFFFFFF
(1786374660.639180) can0 39D#B2090801
(1786374660.678944) can0 39D#B30A0801
(1786374660.718822) can0 33D#0000FFFFFFFFFFFF
(1786374660.738919) can0 39D#B40B0801
(1786374660.758765) can0 39D#B50C0801
(1786374660.798796) can0 39D#B60D0801
(1786374660.838787) can0 33D#0000FFFFFFFFFFFF
(1786374660.839171) can0 39D#B70E0801
(1786374660.878809) can0 39D#B80F0801
(1786374660.918811) can0 35D#0655555555555559
(1786374660.919304) can0 33D#0000FFFFFFFFFFFF
(1786374660.938918) can0 39D#A9000801
(1786374660.958800) can0 39D#AA010801
(1786374660.998704) can0 39D#AB020801
(1786374661.038812) can0 33D#0000FFFFFFFFFFFF
(1786374661.039202) can0 39D#AC030801
(1786374661.078747) can0 39D#AD040801
(1786374661.118930) can0 33D#0000FFFFFFFFFFFF
(1786374661.139031) can0 39D#AE050801
(1786374661.158720) can0 39D#AF060801
(1786374661.198813) can0 39D#B0070801
(1786374661.238872) can0 33D#0000FFFFFFFFFFFF
(1786374661.239221) can0 39D#B1080801
(1786374661.278888) can0 39D#B2090801
(1786374661.318700) can0 33D#0000FFFFFFFFFFFF
(1786374661.338961) can0 39D#B30A0801
(1786374661.358727) can0 39D#B40B0801
(1786374661.398687) can0 39D#B50C0801
(1786374661.438813) can0 33D#0000FFFFFFFFFFFF
(1786374661.439176) can0 39D#B60D0801
(1786374661.478911) can0 39D#B70E0801
(1786374661.518765) can0 33D#0000FFFFFFFFFFFF
(1786374661.538957) can0 39D#B80F0801
(1786374661.558900) can0 39D#A9000801
(1786374661.598703) can0 39D#AA010801
(1786374661.638651) can0 33D#0000FFFFFFFFFFFF
(1786374661.638929) can0 39D#AB020801
(1786374661.678626) can0 39D#AC030801
(1786374661.718913) can0 33D#0000FFFFFFFFFFFF
(1786374661.738955) can0 39D#AD040801
(1786374661.758748) can0 39D#AE050801
(1786374661.798891) can0 39D#AF060801
(1786374661.838878) can0 33D#0000FFFFFFFFFFFF
(1786374661.839346) can0 39D#B0070801
(1786374661.878812) can0 39D#B1080801
(1786374661.919031) can0 35D#0755556555150000
(1786374661.919604) can0 32D#16000000E4ACA32F
(1786374661.920213) can0 33D#0000FFFFFFFFFFFF
(1786374661.938906) can0 39D#B2090801
(1786374661.958712) can0 39D#B30A0801
(1786374661.998790) can0 39D#B40B0801
(1786374662.038852) can0 33D#0000FFFFFFFFFFFF
(1786374662.039228) can0 39D#B50C0801
(1786374662.078757) can0 39D#B60D0801
(1786374662.118784) can0 33D#0000FFFFFFFFFFFF
(1786374662.138969) can0 39D#B70E0801
(1786374662.158815) can0 39D#B80F0801
(1786374662.198917) can0 39D#A9000801
(1786374662.238760) can0 33D#0000FFFFFFFFFFFF
(1786374662.239265) can0 39D#AA010801
(1786374662.278727) can0 39D#AB020801
(1786374662.318916) can0 33D#0000FFFFFFFFFFFF
(1786374662.338910) can0 39D#AC030801
(1786374662.358901) can0 39D#AD040801
(1786374662.398884) can0 39D#AE050801
(1786374662.438728) can0 33D#0000FFFFFFFFFFFF
(1786374662.439127) can0 39D#AF060801
(1786374662.478757) can0 39D#B0070801
(1786374662.518739) can0 33D#0000FFFFFFFFFFFF
(1786374662.538877) can0 39D#B1080801
(1786374662.558770) can0 39D#B2090801
(1786374662.598736) can0 39D#B30A0801
(1786374662.638686) can0 33D#0000FFFFFFFFFFFF
(1786374662.638950) can0 39D#B40B0801
(1786374662.678686) can0 39D#B50C0801
(1786374662.718657) can0 33D#0000FFFFFFFFFFFF
(1786374662.738932) can0 39D#B60D0801
(1786374662.758664) can0 39D#B70E0801
(1786374662.798689) can0 39D#B80F0801
(1786374662.838777) can0 33D#0000FFFFFFFFFFFF
(1786374662.839113) can0 39D#A9000801
(1786374662.878722) can0 39D#AA010801
(1786374662.918639) can0 35D#0055555555555555
(1786374662.918965) can0 33D#0000FFFFFFFFFFFF
(1786374662.938877) can0 39D#AB020801
(1786374662.958681) can0 39D#AC030801
(1786374662.998699) can0 39D#AD040801
(1786374663.038659) can0 33D#0000FFFFFFFFFFFF
(1786374663.038969) can0 39D#AE050801
(1786374663.078649) can0 39D#AF060801
(1786374663.118702) can0 33D#0000FFFFFFFFFFFF
(1786374663.138844) can0 39D#B0070801
(1786374663.158701) can0 39D#B1080801
(1786374663.198950) can0 39D#B2090801
(1786374663.238769) can0 33D#0000FFFFFFFFFFFF
(1786374663.239189) can0 39D#B30A0801
(1786374663.278780) can0 39D#B40B0801
(1786374663.318879) can0 33D#0000FFFFFFFFFFFF
(1786374663.338925) can0 39D#B50C0801
(1786374663.358679) can0 39D#C60D1801
(1786374663.398696) can0 39D#D70E2801
(1786374663.438801) can0 33D#0000FFFFFFFFFFFF
(1786374663.439215) can0 39D#680FB801
(1786374663.478807) can0 39D#7A00D802
(1786374663.519177) can0 33D#0000FFFFFFFFFFFF
(1786374663.539376) can0 39D#5D01B804
(1786374663.559238) can0 39D#9002E806
(1786374663.599213) can0 39D#9303E808
(1786374663.639246) can0 33D#0000FFFFFFFFFFFF
(1786374663.639543) can0 39D#2604780A
(1786374663.678827) can0 39D#D905280C
(1786374663.718801) can0 33D#0000FFFFFFFFFFFF
(1786374663.739376) can0 39D#BC06080E
(1786374663.759178) can0 39D#FF074810
(1786374663.799182) can0 39D#B208F812
(1786374663.839133) can0 33D#0000FFFFFFFFFFFF
(1786374663.839402) can0 39D#8609C815
(1786374663.879100) can0 39D#5A0A9818
(1786374663.919153) can0 35D#0155555555555555
(1786374663.919417) can0 32D#0A01000000007000
(1786374663.919673) can0 33D#0000FFFFFFFFFFFF
(1786374663.939319) can0 39D#DE0B181B
(1786374663.958847) can0 39D#410C781D
(1786374663.998814) can0 39D#640D981F
(1786374664.039157) can0 33D#0000FFFFFFFFFFFF
(1786374664.039469) can0 39D#570E8821
(1786374664.079098) can0 39D#4A0F7823
(1786374664.119372) can0 33D#0000FFFFFFFFFFFF
(1786374664.139367) can0 39D#2D006825
(1786374664.158823) can0 39D#20015827
(1786374664.199165) can0 39D#03023829
(1786374664.239152) can0 33D#0000FFFFFFFFFFFF
(1786374664.239416) can0 39D#6503982A
(1786374664.279209) can0 39D#1704482B
(1786374664.318833) can0 33D#0000FFFFFFFFFFFF
(1786374664.339236) can0 39D#0805382B
(1786374664.358736) can0 39D#4806782A
(1786374664.399136) can0 39D#A707D828
(1786374664.438824) can0 33D#0000FFFFFFFFFFFF
(1786374664.439251) can0 39D#A608D826
(1786374664.478791) can0 39D#C409F823
(1786374664.518810) can0 33D#0000FFFFFFFFFFFF
(1786374664.539266) can0 39D#C20AF820
(1786374664.559150) can0 39D#D10B081E
(1786374664.599387) can0 39D#BE0CF81A
(1786374664.638795) can0 33D#0000FFFFFFFFFFFF
(1786374664.639190) can0 39D#BC0DF817
(1786374664.679169) can0 39D#8A0EC814
(1786374664.718847) can0 33D#0000FFFFFFFFFFFF
(1786374664.739325) can0 39D#780FB811
(1786374664.758853) can0 39D#1600680E
(1786374664.798805) can0 39D#C401180B
(1786374664.877350) can0 33D#0000FFFFFFFFFFFF
(1786374664.877991) can0 39D#F2024808
(1786374664.879326) can0 39D#5003A805
(1786374664.919206) can0 35D#0256555555555555
(1786374664.919539) can0 33D#0000FFFFFFFFFFFF
(1786374664.939307) can0 39D#4F04A803
(1786374664.958796) can0 39D#0F056802
(1786374664.998831) can0 39D#B0060802
(1786374665.038820) can0 33D#0000FFFFFFFFFFFF
(1786374665.039245) can0 39D#8007D801
(1786374665.078808) can0 39D#5108A801
(1786374665.118763) can0 33D#0000FFFFFFFFFFFF
(1786374665.139346) can0 39D#E3093802
(1786374665.158752) can0 39D#840AD802
(1786374665.198827) can0 39D#260B7803
(1786374665.238827) can0 33D#0000FFFFFFFFFFFF
(1786374665.239217) can0 39D#C80C1804
(1786374665.279173) can0 39D#6A0DB805
(1786374665.319165) can0 33D#0000FFFFFFFFFFFF
(1786374665.339304) can0 39D#0E0E5808
(1786374665.359177) can0 39D#B10FF80A
(1786374665.398801) can0 39D#7500C80D
(1786374665.438795) can0 33D#0000FFFFFFFFFFFF
(1786374665.439252) can0 39D#8901D810
(1786374665.479083) can0 39D#DE022814
(1786374665.519235) can0 33D#0000FFFFFFFFFFFF
(1786374665.539311) can0 39D#6203A817
(1786374665.558825) can0 39D#9604D81A
(1786374665.599080) can0 39D#6A05A81D
(1786374665.639122) can0 33D#0000FFFFFFFFFFFF
(1786374665.639348) can0 39D#CE060820
(1786374665.678809) can0 39D#F1072822
(1786374665.718783) can0 33D#0000FFFFFFFFFFFF
(1786374665.739307) can0 39D#24085824
(1786374665.759127) can0 39D#27095826
(1786374665.799087) can0 39D#1A0A4828
(1786374665.839165) can0 33D#0000FFFFFFFFFFFF
(1786374665.839473) can0 39D#ED0B182A
(1786374665.878767) can0 39D#9F0CC82B
(1786374665.919105) can0 35D#0355555555555555
(1786374665.919370) can0 32D#0B00020101000000
(1786374665.919564) can0 33D#0000FFFFFFFFFFFF
(1786374665.939293) can0 39D#320D582D
(1786374665.958811) can0 39D#B40ED82E
(1786374665.999140) can0 39D#270F4830
(1786374666.039166) can0 33D#0000FFFFFFFFFFFF
(1786374666.039432) can0 39D#7900A831
(1786374666.078799) can0 39D#EC011833
(1786374666.119258) can0 33D#0000FFFFFFFFFFFF
(1786374666.139299) can0 39D#3C026634
(1786374666.158766) can0 3AD#BA01001804200010
(1786374666.189293) can0 39D#8E03B635
(1786374666.199184) can0 39D#C004E636
(1786374666.238810) can0 33D#0000FFFFFFFFFFFF
(1786374666.239235) can0 5BD#CF40010000000000
(1786374666.258675) can0 39D#10053635
(1786374666.278776) can0 39D#9006B634
(1786374666.319194) can0 33D#0000FFFFFFFFFFFF
(1786374666.339392) can0 39D#02072635
(1786374666.358756) can0 39D#8208A634
(1786374666.399140) can0 39D#04092635
(1786374666.439151) can0 33D#0000FFFFFFFFFFFF
(1786374666.439413) can0 39D#840AA634
(1786374666.478768) can0 39D#F60B1635
(1786374666.518790) can0 33D#0000FFFFFFFFFFFF
(1786374666.539212) can0 39D#A60CC634
(1786374666.559103) can0 39D#D70DF634
(1786374666.599058) can0 39D#D80EF634
(1786374666.639202) can0 33D#0000FFFFFFFFFFFF
(1786374666.639523) can0 39D#B90FD634
(1786374666.678843) can0 39D#DB000635
(1786374666.718861) can0 33D#0000FFFFFFFFFFFF
(1786374666.739268) can0 39D#8B01B634
(1786374666.758776) can0 39D#CC02F634
(1786374666.798731) can0 39D#AD03D634
(1786374666.838777) can0 33D#0000FFFFFFFFFFFF
(1786374666.839181) can0 39D#8E04B634
(1786374666.878762) can0 39D#8F05B634
(1786374666.918748) can0 35D#0455555555555555
(1786374666.919005) can0 33D#0000FFFFFFFFFFFF
(1786374666.939215) can0 39D#CF06F633
(1786374666.958809) can0 39D#BF07E632
(1786374666.999162) can0 39D#EE081630
(1786374667.039145) can0 33D#0000FFFFFFFFFFFF
(1786374667.039415) can0 3AD#C301002004200010
(1786374667.069323) can0 39D#9D09C82C
(1786374667.079133) can0 39D#8B0AB829
(1786374667.118778) can0 33D#0000FFFFFFFFFFFF
(1786374667.139317) can0 39D#990BC826
(1786374667.158787) can0 39D#970CC823
(1786374667.199159) can0 39D#950DC820
(1786374667.239117) can0 33D#0000FFFFFFFFFFFF
(1786374667.239345) can0 39D#930EC81D
(1786374667.278782) can0 39D#910FC81A
(1786374667.318776) can0 33D#0000FFFFFFFFFFFF
(1786374667.376605) can0 39D#6F00B817
(1786374667.382224) can0 39D#6D01B814
(1786374667.398792) can0 39D#5B02A811
(1786374667.438967) can0 33D#0000FFFFFFFFFFFF
(1786374667.439398) can0 39D#4903980E
(1786374667.478821) can0 39D#4704980B
(1786374667.518856) can0 33D#0000FFFFFFFFFFFF
(1786374667.539251) can0 39D#6505B808
(1786374667.559206) can0 39D#C4061806
(1786374667.598802) can0 39D#A207F803
(1786374667.639171) can0 33D#0000FFFFFFFFFFFF
(1786374667.639595) can0 39D#32088802
(1786374667.678872) can0 39D#A209F801
(1786374667.719260) can0 33D#0000FFFFFFFFFFFF
(1786374667.739358) can0 39D#830AD801
(1786374667.758811) can0 39D#440B9801
(1786374667.798966) can0 39D#F50C4801
(1786374667.838915) can0 33D#0000FFFFFFFFFFFF
(1786374667.839339) can0 39D#B60D0801
(1786374667.878742) can0 39D#B70E0801
(1786374667.918790) can0 35D#0555555555555555
(1786374667.919147) can0 32D#0D0000008D792021
(1786374667.919404) can0 33D#0000FFFFFFFFFFFF
(1786374667.939285) can0 39D#B80F0801
(1786374667.958826) can0 39D#A9000801
(1786374667.998932) can0 39D#AA010801
(1786374668.038853) can0 33D#0000FFFFFFFFFFFF
(1786374668.039294) can0 39D#AB020801
(1786374668.078734) can0 39D#AC030801
(1786374668.118986) can0 33D#0000FFFFFFFFFFFF
(1786374668.139381) can0 39D#AD040801
(1786374668.158813) can0 39D#AE050801
(1786374668.198934) can0 39D#3F069801
(1786374668.238843) can0 33D#0000FFFFFFFFFFFF
(1786374668.239282) can0 39D#9107E802
(1786374668.279244) can0 39D#D5082805
(1786374668.318878) can0 33D#0000FFFFFFFFFFFF
(1786374668.339242) can0 39D#B9090808
(1786374668.359118) can0 39D#6C0AB80A
(1786374668.398815) can0 39D#400B880D
(1786374668.438891) can0 33D#0000FFFFFFFFFFFF
(1786374668.439348) can0 39D#540C9810
(1786374668.478852) can0 39D#C90D0814
(1786374668.519120) can0 33D#0000FFFFFFFFFFFF
(1786374668.539288) can0 39D#5D0E9817
(1786374668.558713) can0 39D#B10FE81A
(1786374668.599069) can0 39D#8500C81D
(1786374668.638785) can0 33D#0000FFFFFFFFFFFF
(1786374668.639209) can0 39D#09014820
(1786374668.679150) can0 39D#4C028822
(1786374668.719201) can0 33D#0000FFFFFFFFFFFF
(1786374668.739311) can0 39D#7F03B824
(1786374668.759139) can0 39D#7204A826
(1786374668.799168) can0 39D#65059828
(1786374668.838772) can0 33D#0000FFFFFFFFFFFF
(1786374668.839183) can0 39D#2806582A
(1786374668.878826) can0 39D#DB07082C
(1786374668.919193) can0 35D#0655555555555559
(1786374668.919518) can0 33D#0000FFFFFFFFFFFF
(1786374668.939287) can0 39D#6D08982D
(1786374668.959173) can0 39D#F009182F
(1786374668.998768) can0 39D#520A7830
(1786374669.038805) can0 33D#0000FFFFFFFFFFFF
(1786374669.039255) can0 39D#D40BF831
(1786374669.078997) can0 39D#370C5833
(1786374669.118889) can0 33D#0000FFFFFFFFFFFF
(1786374669.139379) can0 39D#870DA634
(1786374669.158751) can0 3AD#D801001804200010
(1786374669.169432) can0 39D#D90EF635
(1786374669.198864) can0 39D#DB0FF636
(1786374669.238869) can0 33D#0000FFFFFFFFFFFF
(1786374669.239264) can0 39D#FB002635
(1786374669.279121) can0 39D#7B01A634
(1786374669.318753) can0 33D#0000FFFFFFFFFFFF
(1786374669.339309) can0 39D#FD022635
(1786374669.358862) can0 39D#7D03A634
(1786374669.398811) can0 39D#CE04F634
(1786374669.439181) can0 33D#0000FFFFFFFFFFFF
(1786374669.439632) can0 39D#CF05F634
(1786374669.478897) can0 39D#B006D634
(1786374669.518936) can0 33D#0000FFFFFFFFFFFF
(1786374669.539307) can0 39D#F2071635
(1786374669.558855) can0 39D#A208C634
(1786374669.598873) can0 39D#04092635
(1786374669.638954) can0 33D#0000FFFFFFFFFFFF
(1786374669.639270) can0 39D#940AB634
(1786374669.678883) can0 39D#F60B1635
(1786374669.719046) can0 33D#0000FFFFFFFFFFFF
(1786374669.739303) can0 39D#960CB634
(1786374669.759221) can0 39D#B70DD634
(1786374669.798779) can0 39D#C80EE634
(1786374669.839140) can0 33D#0000FFFFFFFFFFFF
(1786374669.839555) can0 39D#690F8634
(1786374669.878860) can0 39D#9900C633
(1786374669.919009) can0 35D#075555A555150000
(1786374669.919495) can0 32D#1405000060FCB070
(1786374669.920017) can0 33D#0000FFFFFFFFFFFF
(1786374669.939361) can0 39D#48017631
(1786374669.959051) can0 39D#1802482E
(1786374669.999175) can0 3AD#E101002004200010
(1786374670.009354) can0 39D#F603282B
(1786374670.039158) can0 33D#0000FFFFFFFFFFFF
(1786374670.039610) can0 39D#04043828
(1786374670.079201) can0 39D#02053825
(1786374670.118934) can0 33D#0000FFFFFFFFFFFF
(1786374670.139313) can0 39D#F0062822
(1786374670.158840) can0 39D#FE07381F
(1786374670.199155) can0 39D#0C08481C
(1786374670.238882) can0 33D#0000FFFFFFFFFFFF
(1786374670.239259) can0 39D#FA093819
(1786374670.278817) can0 39D#F80A3816
(1786374670.318859) can0 33D#0000FFFFFFFFFFFF
(1786374670.339405) can0 39D#E60B2813
(1786374670.358791) can0 39D#E40C2810
(1786374670.399161) can0 39D#D20D180D
(1786374670.439224) can0 33D#0000FFFFFFFFFFFF
(1786374670.439546) can0 39D#E00E280A
(1786374670.479223) can0 39D#1E0F6807
(1786374670.519302) can0 33D#0000FFFFFFFFFFFF
(1786374670.539402) can0 39D#9C00F804
(1786374670.558768) can0 39D#BC011803
(1786374670.598816) can0 39D#CC022802
(1786374670.639115) can0 33D#0000FFFFFFFFFFFF
(1786374670.639509) can0 39D#8C03E801
(1786374670.679138) can0 39D#5D04B801
(1786374670.718790) can0 33D#0000FFFFFFFFFFFF
(1786374670.739363) can0 39D#0E056801
(1786374670.758811) can0 39D#CF062801
(1786374670.799049) can0 39D#C0071801
(1786374670.838891) can0 33D#0000FFFFFFFFFFFF
(1786374670.839311) can0 39D#C1081801
(1786374670.878835) can0 39D#C2091801
(1786374670.918990) can0 35D#0055555555555555
(1786374670.919416) can0 33D#0000FFFFFFFFFFFF
(1786374670.939395) can0 39D#130A6801
(1786374670.958843) can0 39D#C50B1802
(1786374670.999388) can0 39D#560CA802
(1786374671.038848) can0 33D#0000FFFFFFFFFFFF
(1786374671.039311) can0 39D#090D5804
(1786374671.079212) can0 39D#8C0ED806
(1786374671.118919) can0 33D#0000FFFFFFFFFFFF
(1786374671.139294) can0 39D#300F7809
(1786374671.159188) can0 39D#9300E80B
(1786374671.199182) can0 39D#4701980E
(1786374671.238781) can0 33D#0000FFFFFFFFFFFF
(1786374671.239242) can0 39D#4B029811
(1786374671.278871) can0 39D#8F03D814
(1786374671.318793) can0 33D#0000FFFFFFFFFFFF
(1786374671.339362) can0 39D#E4042818
(1786374671.358830) can0 39D#C805081B
(1786374671.398787) can0 39D#4B06881D
(1786374671.439202) can0 33D#0000FFFFFFFFFFFF
(1786374671.439533) can0 39D#2E07681F
(1786374671.479307) can0 39D#9008C820
(1786374671.518846) can0 33D#0000FFFFFFFFFFFF
(1786374671.539455) can0 39D#B209E821
(1786374671.559100) can0 39D#B40AE822
(1786374671.599172) can0 39D#460B7823
(1786374671.639203) can0 33D#0000FFFFFFFFFFFF
(1786374671.639581) can0 39D#170C4823
(1786374671.678810) can0 39D#260D5821
(1786374671.719152) can0 33D#0000FFFFFFFFFFFF
(1786374671.739271) can0 39D#630E981D
(1786374671.758787) can0 39D#310F681A
(1786374671.799199) can0 39D#1F006817
(1786374671.838794) can0 33D#0000FFFFFFFFFFFF
(1786374671.839243) can0 39D#1D016814
(1786374671.878757) can0 39D#1B026811
(1786374671.918875) can0 35D#0155555555555555
(1786374671.919372) can0 32D#16000000E4ACA32F
(1786374671.919874) can0 33D#0000FFFFFFFFFFFF
(1786374671.939422) can0 39D#F903480E
(1786374671.958879) can0 39D#F704480B
(1786374671.998763) can0 39D#15056808
(1786374672.038808) can0 33D#0000FFFFFFFFFFFF
(1786374672.039257) can0 39D#8306D805
(1786374672.078739) can0 39D#6207B803
(1786374672.119142) can0 33D#0000FFFFFFFFFFFF
(1786374672.139360) can0 39D#22087802
(1786374672.159188) can0 39D#A209F801
(1786374672.199319) can0 39D#730AC801
(1786374672.239168) can0 33D#0000FFFFFFFFFFFF
(1786374672.239525) can0 39D#340B8801
(1786374672.278913) can0 39D#F50C4801
(1786374672.318738) can0 33D#0000FFFFFFFFFFFF
(1786374672.339229) can0 39D#C60D1801
(1786374672.358780) can0 39D#C70E1801
(1786374672.399195) can0 39D#C80F1801
(1786374672.438890) can0 33D#0000FFFFFFFFFFFF
(1786374672.439264) can0 39D#B9001801
(1786374672.478832) can0 39D#7A01D801
(1786374672.518864) can0 33D#0000FFFFFFFFFFFF
(1786374672.539354) can0 39D#6B02C801
(1786374672.558825) can0 39D#BD031802
(1786374672.598879) can0 39D#BF041803
(1786374672.638962) can0 33D#0000FFFFFFFFFFFF
(1786374672.639415) can0 39D#7105C804
(1786374672.679054) can0 39D#A406F806
(1786374672.719456) can0 33D#0000FFFFFFFFFFFF
(1786374672.739421) can0 39D#E8073809
(1786374672.758874) can0 39D#0B08580B
(1786374672.799374) can0 39D#5E09A80D
(1786374672.839162) can0 33D#0000FFFFFFFFFFFF
(1786374672.839542) can0 39D#F20A3810
(1786374672.879344) can0 39D#D60B1813
(1786374672.919130) can0 35D#0256555555555555
(1786374672.919736) can0 33D#0000FFFFFFFFFFFF
(1786374672.939348) can0 39D#DA0C1816
(1786374672.958905) can0 39D#BD0DF818
(1786374672.999254) can0 39D#510E881B
(1786374673.038954) can0 33D#0000FFFFFFFFFFFF
(1786374673.039393) can0 39D#A40FD81D
(1786374673.078995) can0 39D#B700F81F
(1786374673.119004) can0 33D#0000FFFFFFFFFFFF
(1786374673.139282) can0 39D#AA01E821
(1786374673.159291) can0 39D#9D02D823
(1786374673.199344) can0 39D#9003C825
(1786374673.238861) can0 33D#0000FFFFFFFFFFFF
(1786374673.239309) can0 39D#7304A827
(1786374673.279108) can0 39D#46057829
(1786374673.318932) can0 33D#0000FFFFFFFFFFFF
(1786374673.339285) can0 39D#6806982A
(1786374673.358872) can0 39D#DA07082B
(1786374673.398859) can0 39D#2B08582B
(1786374673.439144) can0 33D#0000FFFFFFFFFFFF
(1786374673.439556) can0 39D#CB09F82A
(1786374673.478868) can0 39D#2B0A5829
(1786374673.518815) can0 33D#0000FFFFFFFFFFFF
(1786374673.539332) can0 39D#A90BD826
(1786374673.558730) can0 39D#570C8823
(1786374673.598996) can0 39D#550D8820
(1786374673.638798) can0 33D#0000FFFFFFFFFFFF
(1786374673.639216) can0 39D#630E981D
(1786374673.679029) can0 39D#610F981A
(1786374673.718954) can0 33D#0000FFFFFFFFFFFF
(1786374673.739413) can0 39D#0F005817
(1786374673.758853) can0 39D#BD010814
(1786374673.799003) can0 39D#BB020811
(1786374673.839164) can0 33D#0000FFFFFFFFFFFF
(1786374673.839529) can0 39D#A803F80D
(1786374673.879116) can0 39D#A604F80A
(1786374673.919180) can0 35D#0355555555555555
(1786374673.919587) can0 32D#0A01000000007000
(1786374673.919816) can0 33D#0000FFFFFFFFFFFF
(1786374673.939298) can0 39D#D5052808
(1786374673.959333) can0 39D#33068805
(1786374673.999014) can0 39D#32078803
(1786374674.038860) can0 33D#0000FFFFFFFFFFFF
(1786374674.039243) can0 39D#02085802
(1786374674.079034) can0 39D#A209F801
(1786374674.119320) can0 33D#0000FFFFFFFFFFFF
(1786374674.139341) can0 39D#730AC801
(1786374674.158794) can0 39D#240B7801
(1786374674.199007) can0 39D#E50C3801
(1786374674.239160) can0 33D#0000FFFFFFFFFFFF
(1786374674.239488) can0 39D#C60D1801
(1786374674.278890) can0 39D#C70E1801
(1786374674.318885) can0 33D#0000FFFFFFFFFFFF
(1786374674.339309) can0 39D#B80F0801
(1786374674.358888) can0 39D#A9000801
(1786374674.399010) can0 39D#AA010801
(1786374674.439178) can0 33D#0000FFFFFFFFFFFF
(1786374674.439552) can0 39D#AB020801
(1786374674.478844) can0 39D#AC030801
(1786374674.519066) can0 33D#0000FFFFFFFFFFFF
(1786374674.538995) can0 39D#AD040801
(1786374674.558835) can0 39D#AE050801
(1786374674.599393) can0 39D#AF060801
(1786374674.638938) can0 33D#0000FFFFFFFFFFFF
(1786374674.639380) can0 39D#B0070801
(1786374674.678831) can0 39D#C1081801
(1786374674.718907) can0 33D#0000FFFFFFFFFFFF
(1786374674.739341) can0 39D#C2091801
(1786374674.758789) can0 39D#C30A1801
(1786374674.798982) can0 3AD#11020020041F0010
(1786374674.828988) can0 39D#C40B1801
(1786374674.838779) can0 33D#0000FFFFFFFFFFFF
(1786374674.839207) can0 39D#B50C0801
(1786374674.878804) can0 39D#C60D1801
(1786374674.918818) can0 35D#0455555555555555
(1786374674.919258) can0 33D#0000FFFFFFFFFFFF
(1786374674.938952) can0 39D#C70E1801
(1786374674.958603) can0 39D#280F7801
(1786374674.999236) can0 39D#2A008802
(1786374675.039181) can0 33D#0000FFFFFFFFFFFF
(1786374675.039613) can0 39D#0D016804
(1786374675.078910) can0 39D#9002E806
(1786374675.118985) can0 33D#0000FFFFFFFFFFFF
(1786374675.139365) can0 39D#14036809
(1786374675.159252) can0 39D#5704A80B
(1786374675.199407) can0 39D#BB05080E
(1786374675.239232) can0 33D#0000FFFFFFFFFFFF
(1786374675.239624) can0 39D#7E06C810
(1786374675.278779) can0 39D#8207C813
(1786374675.318957) can0 33D#0000FFFFFFFFFFFF
(1786374675.339350) can0 39D#8608C816
(1786374675.358848) can0 39D#6A09A819
(1786374675.398986) can0 39D#DE0A181C
(1786374675.438942) can0 33D#0000FFFFFFFFFFFF
(1786374675.439315) can0 39D#110B481E
(1786374675.478859) can0 39D#040C3820
(1786374675.518750) can0 33D#0000FFFFFFFFFFFF
(1786374675.539372) can0 39D#E70D1822
(1786374675.559069) can0 39D#EA0E1824
(1786374675.599416) can0 39D#ED0F1826
(1786374675.639265) can0 33D#0000FFFFFFFFFFFF
(1786374675.639718) can0 39D#E0001828
(1786374675.679159) can0 39D#B201E829
(1786374675.719019) can0 33D#0000FFFFFFFFFFFF
(1786374675.739379) can0 39D#7502A82B
(1786374675.758863) can0 39D#0803382D
(1786374675.799415) can0 39D#9A04C82E
(1786374675.839247) can0 33D#0000FFFFFFFFFFFF
(1786374675.839584) can0 39D#0D053830
(1786374675.878860) can0 39D#7F06A831
(1786374675.919028) can0 35D#0555555555555555
(1786374675.919406) can0 32D#0B00020101000000
(1786374675.919830) can0 33D#0000FFFFFFFFFFFF
(1786374675.939366) can0 39D#E2070833
(1786374675.959164) can0 39D#42086634
(1786374675.998984) can0 3AD#1D020018041F0010
(1786374676.029496) can0 39D#9409B635
(1786374676.038903) can0 33D#0000FFFFFFFFFFFF
(1786374676.039269) can0 39D#C60AE636
(1786374676.079058) can0 39D#360B5635
(1786374676.118990) can0 33D#0000FFFFFFFFFFFF
(1786374676.139362) can0 39D#960CB634
(1786374676.159188) can0 39D#080D2635
(1786374676.199108) can0 39D#980EB634
(1786374676.239166) can0 33D#0000FFFFFFFFFFFF
(1786374676.239489) can0 39D#C90FE634
(1786374676.279220) can0 39D#CA00F634
(1786374676.319543) can0 33D#0000FFFFFFFFFFFF
(1786374676.339297) can0 39D#9B01C634
(1786374676.358849) can0 39D#DD020635
(1786374676.398863) can0 39D#8D03B634
(1786374676.438926) can0 33D#0000FFFFFFFFFFFF
(1786374676.439283) can0 39D#7E04A634
(1786374676.479002) can0 39D#8F05B634
(1786374676.518879) can0 33D#0000FFFFFFFFFFFF
(1786374676.539355) can0 39D#4F067633
(1786374676.558723) can0 39D#8E07B631
(1786374676.599294) can0 39D#AE08D82E
(1786374676.639289) can0 33D#0000FFFFFFFFFFFF
(1786374676.639664) can0 3AD#23020020041F0010
(1786374676.649363) can0 39D#3C09682B
(1786374676.678815) can0 39D#3A0A6828
(1786374676.719406) can0 33D#0000FFFFFFFFFFFF
(1786374676.739306) can0 39D#380B6825
(1786374676.758848) can0 39D#260C5822
(1786374676.799204) can0 39D#340D681F
(1786374676.838874) can0 33D#0000FFFFFFFFFFFF
(1786374676.839291) can0 39D#320E681C
(1786374676.879211) can0 39D#200F5819
(1786374676.918998) can0 35D#0655555555555559
(1786374676.919424) can0 33D#0000FFFFFFFFFFFF
(1786374676.939332) can0 39D#0E005816
(1786374676.959130) can0 39D#0C015813
(1786374676.998919) can0 39D#FA024810
(1786374677.038921) can0 33D#0000FFFFFFFFFFFF
(1786374677.039313) can0 39D#F803480D
(1786374677.078903) can0 39D#0604580A
(1786374677.118888) can0 33D#0000FFFFFFFFFFFF
(1786374677.139358) can0 39D#34058807
(1786374677.158912) can0 39D#B3060805
(1786374677.198995) can0 39D#E2073803
(1786374677.238946) can0 33D#0000FFFFFFFFFFFF
(1786374677.239308) can0 39D#E2083802
(1786374677.279021) can0 39D#9209E801
(1786374677.318891) can0 33D#0000FFFFFFFFFFFF
(1786374677.339311) can0 39D#630AB801
(1786374677.358929) can0 39D#140B6801
(1786374677.399396) can0 39D#D50C2801
(1786374677.438925) can0 33D#0000FFFFFFFFFFFF
(1786374677.439306) can0 39D#C60D1801
(1786374677.478842) can0 39D#C70E1801
(1786374677.518952) can0 33D#0000FFFFFFFFFFFF
(1786374677.539329) can0 39D#B80F0801
(1786374677.559194) can0 39D#A9000801
(1786374677.598975) can0 39D#AA010801
(1786374677.638851) can0 33D#0000FFFFFFFFFFFF
(1786374677.639291) can0 39D#AB020801
(1786374677.678972) can0 39D#AC030801
(1786374677.718992) can0 33D#0000FFFFFFFFFFFF
(1786374677.739269) can0 39D#AD040801
(1786374677.758825) can0 39D#AE050801
(1786374677.798824) can0 39D#AF060801
(1786374677.838892) can0 33D#0000FFFFFFFFFFFF
(1786374677.839265) can0 39D#B0070801
(1786374677.878957) can0 39D#B1080801
(1786374677.918891) can0 35D#075555A555150000
(1786374677.919389) can0 32D#0D0000008D792021
(1786374677.919788) can0 33D#0000FFFFFFFFFFFF
(1786374677.939234) can0 39D#D2092801
(1786374677.958816) can0 39D#230A7801
(1786374677.999417) can0 39D#250B7802
(1786374678.039173) can0 33D#0000FFFFFFFFFFFF
(1786374678.039649) can0 39D#C80C1804
(1786374678.078886) can0 39D#1B0D6806
(1786374678.119003) can0 33D#0000FFFFFFFFFFFF
(1786374678.139367) can0 39D#7E0EC808
(1786374678.158890) can0 39D#710FB80A
(1786374678.198927) can0 39D#5400A80C
(1786374678.238949) can0 33D#0000FFFFFFFFFFFF
(1786374678.239353) can0 39D#8701D80E
(1786374678.278834) can0 39D#1B026811
(1786374678.319196) can0 33D#0000FFFFFFFFFFFF
(1786374678.339281) can0 39D#0F035814
(1786374678.359223) can0 39D#13045817
(1786374678.398896) can0 39D#D705181A
(1786374678.439309) can0 33D#0000FFFFFFFFFFFF
(1786374678.439701) can0 39D#4A06881C
(1786374678.479311) can0 39D#7D07B81E
(1786374678.519296) can0 33D#0000FFFFFFFFFFFF
(1786374678.539381) can0 39D#7008A820
(1786374678.558822) can0 39D#53098822
(1786374678.599354) can0 39D#160A4824
(1786374678.639222) can0 33D#0000FFFFFFFFFFFF
(1786374678.639588) can0 39D#E90B1826
(1786374678.679319) can0 39D#5B0C8827
(1786374678.718991) can0 33D#0000FFFFFFFFFFFF
(1786374678.739372) can0 39D#CC0DF827
(1786374678.758916) can0 39D#0E0E3828
(1786374678.798925) can0 39D#6E0F9827
(1786374678.838893) can0 33D#0000FFFFFFFFFFFF
(1786374678.839262) can0 39D#3E007826
(1786374678.878764) can0 39D#FD013824
(1786374678.918812) can0 35D#0055555555555555
(1786374678.919130) can0 33D#0000FFFFFFFFFFFF
(1786374678.939299) can0 39D#8A02C820
(1786374678.958812) can0 39D#7803B81D
(1786374678.999146) can0 39D#D704181B
(1786374679.039184) can0 33D#0000FFFFFFFFFFFF
(1786374679.039545) can0 39D#D5051818
(1786374679.079235) can0 39D#D3061815
(1786374679.119291) can0 33D#0000FFFFFFFFFFFF
(1786374679.139310) can0 39D#6007A811
(1786374679.158801) can0 39D#3E08880E
(1786374679.199006) can0 39D#2C09780B
(1786374679.239180) can0 33D#0000FFFFFFFFFFFF
(1786374679.239579) can0 39D#4A0A9808
(1786374679.279141) can0 39D#A80BF805
(1786374679.318986) can0 33D#0000FFFFFFFFFFFF
(1786374679.339306) can0 39D#970CE803
(1786374679.358836) can0 39D#470D9802
(1786374679.398910) can0 39D#C80E1802
(1786374679.438844) can0 33D#0000FFFFFFFFFFFF
(1786374679.439252) can0 39D#A80FF801
(1786374679.478790) can0 39D#1A007802
(1786374679.518995) can0 33D#0000FFFFFFFFFFFF
(1786374679.539336) can0 39D#FC015803
(1786374679.558871) can0 39D#1D027803
(1786374679.599397) can0 39D#DF033804
(1786374679.638971) can0 33D#0000FFFFFFFFFFFF
(1786374679.639410) can0 39D#7004C804
(1786374679.678828) can0 39D#5205A805
(1786374679.719017) can0 33D#0000FFFFFFFFFFFF
(1786374679.739344) can0 39D#7406C806
(1786374679.759230) can0 39D#D7072808
(1786374679.799137) can0 39D#29087809
(1786374679.838809) can0 33D#0000FFFFFFFFFFFF
(1786374679.839240) can0 39D#7B09C80A
(1786374679.878871) can0 39D#2E0A780C
(1786374679.918966) can0 35D#0155555555555555
(1786374679.919433) can0 32D#1405000060FCB070
(1786374679.919796) can0 33D#0000FFFFFFFFFFFF
(1786374679.939362) can0 39D#310B780E
(1786374679.958825) can0 39D#840CC810
(1786374679.998998) can0 39D#E80D2813
(1786374680.039167) can0 33D#0000FFFFFFFFFFFF
(1786374680.039568) can0 39D#4B0E8815
(1786374680.079200) can0 39D#AE0FE817
(1786374680.118938) can0 33D#0000FFFFFFFFFFFF
(1786374680.139424) can0 39D#C200081A
(1786374680.159149) can0 39D#A401E81B
(1786374680.199344) can0 39D#6702A81D
(1786374680.239184) can0 33D#0000FFFFFFFFFFFF
(1786374680.239556) can0 39D#0A03481F
(1786374680.278771) can0 39D#8C04C820
(1786374680.319382) can0 33D#0000FFFFFFFFFFFF
(1786374680.339336) can0 39D#1F055822
(1786374680.358797) can0 39D#C106F823
(1786374680.399400) can0 39D#7407A825
(1786374680.438901) can0 33D#0000FFFFFFFFFFFF
(1786374680.439328) can0 39D#17084827
(1786374680.478849) can0 39D#9909C828
(1786374680.518998) can0 33D#0000FFFFFFFFFFFF
(1786374680.539352) can0 39D#0C0A382A
(1786374680.558818) can0 39D#7E0BA82B
(1786374680.598867) can0 39D#E10C082D
(1786374680.638924) can0 33D#0000FFFFFFFFFFFF
(1786374680.639305) can0 39D#430D682E
(1786374680.678826) can0 39D#950EB82F
(1786374680.719350) can0 33D#0000FFFFFFFFFFFF
(1786374680.739365) can0 39D#F80F1831
(1786374680.759213) can0 39D#3A006832
(1786374680.799329) can0 39D#8A01B633
(1786374680.839239) can0 33D#0000FFFFFFFFFFFF
(1786374680.839595) can0 3AD#4D020018041F0010
(1786374680.849334) can0 39D#CC02F634
(1786374680.878998) can0 39D#DF030636
(1786374680.919097) can0 35D#0256555555555555
(1786374680.919614) can0 33D#0000FFFFFFFFFFFF
(1786374680.939413) can0 39D#6E049634
(1786374680.958865) can0 39D#E0050635
(1786374680.999354) can0 39D#A006C634
(1786374681.038881) can0 33D#0000FFFFFFFFFFFF
(1786374681.039255) can0 39D#A107C634
(1786374681.078857) can0 39D#23084635
(1786374681.119012) can0 33D#0000FFFFFFFFFFFF
(1786374681.139322) can0 39D#23094634
(1786374681.158801) can0 39D#650A8635
(1786374681.198981) can0 39D#C50BE634
(1786374681.238923) can0 33D#0000FFFFFFFFFFFF
(1786374681.239334) can0 39D#460C6634
(1786374681.279000) can0 39D#F90D1636
(1786374681.319380) can0 33D#0000FFFFFFFFFFFF
(1786374681.339265) can0 39D#190E3635
(1786374681.358840) can0 39D#590F7634
(1786374681.399337) can0 39D#BB00E635
(1786374681.438888) can0 33D#0000FFFFFFFFFFFF
(1786374681.439272) can0 39D#EC011635
(1786374681.479195) can0 39D#3C026634
(1786374681.518871) can0 33D#0000FFFFFFFFFFFF
(1786374681.539284) can0 39D#AE03D635
(1786374681.558748) can0 39D#8E04B634
(1786374681.599149) can0 39D#7F05A634
(1786374681.638905) can0 33D#0000FFFFFFFFFFFF
(1786374681.639301) can0 39D#10063634
(1786374681.678818) can0 39D#CF07F632
(1786374681.718800) can0 33D#0000FFFFFFFFFFFF
(1786374681.739272) can0 39D#2E085630
(1786374681.758939) can0 3AD#56020020041F0010
(1786374681.789351) can0 39D#DE09082D
(1786374681.799104) can0 39D#CB0AF829
(1786374681.838770) can0 33D#0000FFFFFFFFFFFF
(1786374681.839179) can0 39D#DA0B0827
(1786374681.879030) can0 39D#D80C0824
(1786374681.919305) can0 35D#0355555555555555
(1786374681.919710) can0 32D#16000000E4ACA32F
(1786374681.920067) can0 33D#0000FFFFFFFFFFFF
(1786374681.939389) can0 39D#D60D0821
(1786374681.958791) can0 39D#D40E081E
(1786374681.998886) can0 39D#D20F081B
(1786374682.039152) can0 33D#0000FFFFFFFFFFFF
(1786374682.039468) can0 39D#C0000818
(1786374682.079206) can0 39D#BE010815
(1786374682.119210) can0 33D#0000FFFFFFFFFFFF
(1786374682.139249) can0 39D#AB02F811
(1786374682.158793) can0 39D#9903E80E
(1786374682.198961) can0 39D#9704E80B
(1786374682.238890) can0 33D#0000FFFFFFFFFFFF
(1786374682.239317) can0 39D#B6050809
(1786374682.278708) can0 39D#14066806
(1786374682.318747) can0 33D#0000FFFFFFFFFFFF
(1786374682.339356) can0 39D#D3072804
(1786374682.358761) can0 39D#5208A802
(1786374682.398870) can0 39D#B3090802
(1786374682.438895) can0 33D#0000FFFFFFFFFFFF
(1786374682.439383) can0 39D#930AE801
(1786374682.479107) can0 39D#540BA801
(1786374682.519341) can0 33D#0000FFFFFFFFFFFF
(1786374682.539301) can0 39D#050C5801
(1786374682.559127) can0 39D#C60D1801
(1786374682.598863) can0 39D#C70E1801
(1786374682.638812) can0 33D#0000FFFFFFFFFFFF
(1786374682.639238) can0 39D#C80F1801
(1786374682.678824) can0 39D#B9001801
(1786374682.719284) can0 33D#0000FFFFFFFFFFFF
(1786374682.739337) can0 39D#BA011801
(1786374682.758748) can0 39D#BB021801
(1786374682.798825) can0 39D#AC030801
(1786374682.838833) can0 33D#0000FFFFFFFFFFFF
(1786374682.839234) can0 39D#AD040801
(1786374682.878796) can0 39D#AE050801
(1786374682.918853) can0 35D#0455555555555555
(1786374682.919318) can0 33D#0000FFFFFFFFFFFF
(1786374682.938867) can0 39D#AF060801
(1786374682.958709) can0 3AD#62020020041B0010
(1786374682.968769) can0 39D#B0070801
(1786374682.998728) can0 39D#B1080801
(1786374683.038814) can0 33D#0000FFFFFFFFFFFF
(1786374683.039207) can0 39D#B2090801
(1786374683.078680) can0 39D#C30A1801
(1786374683.118843) can0 33D#0000FFFFFFFFFFFF
(1786374683.138903) can0 39D#B40B0801
(1786374683.158687) can0 39D#B50C0801
(1786374683.198844) can0 39D#B60D0801
(1786374683.238806) can0 33D#0000FFFFFFFFFFFF
(1786374683.239179) can0 39D#C70E1801
(1786374683.278589) can0 39D#B80F0801
(1786374683.318730) can0 33D#0000FFFFFFFFFFFF
(1786374683.338928) can0 39D#A9000801
(1786374683.358655) can0 31D#6602500000040005
(1786374683.368792) can0 33D#2200000057545955
(1786374683.388937) can0 39D#BA011801
(1786374683.398787) can0 34D#EB00280805267400
(1786374683.408913) can0 36D#E1080000006AA1CD
(1786374683.428856) can0 39D#BB021801
(1786374683.438707) can0 33D#0000FFFFFFFFFFFF
(1786374683.439057) can0 37D#F10100000058D912
(1786374683.448863) can0 38D#0000000070A91500
(1786374683.469317) can0 39D#AC030801
(1786374683.478670) can0 39D#BD041801
(1786374683.518738) can0 33D#0000FFFFFFFFFFFF
(1786374683.538911) can0 39D#BE051801
(1786374683.558613) can0 39D#1F067801
(1786374683.599268) can0 39D#31078802
(1786374683.638862) can0 33D#0000FFFFFFFFFFFF
(1786374683.639279) can0 39D#A308F803
(1786374683.678841) can0 39D#B6090805
(1786374683.718865) can0 33D#0000FFFFFFFFFFFF
(1786374683.739272) can0 39D#070A5805
(1786374683.758874) can0 39D#F80B4805
(1786374683.798813) can0 39D#E90C3805
(1786374683.839083) can0 33D#0000FFFFFFFFFFFF
(1786374683.839375) can0 39D#EB0D3806
(1786374683.878809) can0 39D#DE0E2808
(1786374683.918756) can0 35D#0555555555555555
(1786374683.919036) can0 32D#0A01000000007000
(1786374683.919315) can0 33D#0000FFFFFFFFFFFF
(1786374683.939240) can0 39D#B00FF809
(1786374683.958747) can0 39D#8200D80A
(1786374683.998802) can0 39D#A201F809
(1786374684.038724) can0 33D#0000FFFFFFFFFFFF
(1786374684.039151) can0 39D#F3024809
(1786374684.078732) can0 39D#8303D808
(1786374684.118976) can0 33D#0000FFFFFFFFFFFF
(1786374684.139296) can0 39D#34048808
(1786374684.159071) can0 39D#25057808
(1786374684.199175) can0 39D#16066808
(1786374684.239133) can0 33D#0000FFFFFFFFFFFF
(1786374684.239517) can0 39D#17076808
(1786374684.279097) can0 39D#18086808
(1786374684.318987) can0 33D#0000FFFFFFFFFFFF
(1786374684.339402) can0 39D#19096808
(1786374684.358727) can0 39D#1A0A6808
(1786374684.398891) can0 39D#1B0B6808
(1786374684.439182) can0 33D#0000FFFFFFFFFFFF
(1786374684.439565) can0 39D#1C0C6808
(1786374684.478775) can0 39D#1D0D6808
(1786374684.518783) can0 33D#0000FFFFFFFFFFFF
(1786374684.539247) can0 39D#1E0E6808
(1786374684.558817) can0 39D#1F0F6808
(1786374684.598747) can0 39D#10006808
(1786374684.638751) can0 33D#0000FFFFFFFFFFFF
(1786374684.639170) can0 39D#11016808
(1786374684.678804) can0 39D#32028808
(1786374684.718956) can0 33D#0000FFFFFFFFFFFF
(1786374684.739268) can0 39D#5303A808
(1786374684.759171) can0 39D#C5041809
(1786374684.799285) can0 39D#8605D809
(1786374684.839231) can0 33D#0000FFFFFFFFFFFF
(1786374684.839545) can0 39D#B906080B
(1786374684.878888) can0 39D#6B07B80C
(1786374684.919543) can0 35D#0655555555555559
(1786374684.920105) can0 33D#0000FFFFFFFFFFFF
(1786374684.939328) can0 39D#8E08D80E
(1786374684.958870) can0 39D#02094811
(1786374684.998972) can0 39D#B50AF813
(1786374685.039202) can0 33D#0000FFFFFFFFFFFF
(1786374685.039602) can0 39D#880BC815
(1786374685.078831) can0 39D#AA0CE816
(1786374685.119017) can0 33D#0000FFFFFFFFFFFF
(1786374685.139408) can0 39D#EC0D2817
(1786374685.158844) can0 39D#FD0E3817
(1786374685.198995) can0 39D#4E0F8817
(1786374685.239222) can0 33D#0000FFFFFFFFFFFF
(1786374685.239644) can0 39D#E0002818
(1786374685.278828) can0 39D#D2011819
(1786374685.319353) can0 33D#0000FFFFFFFFFFFF
(1786374685.339351) can0 39D#C402081A
(1786374685.359091) can0 39D#2503681A
(1786374685.399050) can0 39D#2604681A
(1786374685.438852) can0 33D#0000FFFFFFFFFFFF
(1786374685.439289) can0 39D#2705681A
(1786374685.479001) can0 39D#2806681A
(1786374685.518929) can0 33D#0000FFFFFFFFFFFF
(1786374685.539325) can0 39D#2907681A
(1786374685.558871) can0 39D#2A08681A
(1786374685.598866) can0 39D#2B09681A
(1786374685.638845) can0 33D#0000FFFFFFFFFFFF
(1786374685.639209) can0 39D#2C0A681A
(1786374685.678949) can0 39D#2D0B681A
(1786374685.718819) can0 33D#0000FFFFFFFFFFFF
(1786374685.739320) can0 39D#2E0C681A
(1786374685.758829) can0 39D#2F0D681A
(1786374685.798877) can0 39D#300E681A
(1786374685.838810) can0 33D#0000FFFFFFFFFFFF
(1786374685.839207) can0 39D#410F781A
(1786374685.878853) can0 39D#5200981A
(1786374685.919201) can0 35D#075555A555150000
(1786374685.919640) can0 32D#0B00020101000000
(1786374685.920075) can0 33D#0000FFFFFFFFFFFF
(1786374685.939337) can0 39D#C401081B
(1786374685.959125) can0 39D#A502E81B
(1786374685.999258) can0 39D#C803081D
(1786374686.038890) can0 33D#0000FFFFFFFFFFFF
(1786374686.039341) can0 39D#EA04281E
(1786374686.078866) can0 39D#FC05381F
(1786374686.119444) can0 33D#0000FFFFFFFFFFFF
(1786374686.139334) can0 39D#FE063820
(1786374686.159117) can0 39D#20075821
(1786374686.198906) can0 39D#52088822
(1786374686.238863) can0 33D#0000FFFFFFFFFFFF
(1786374686.239253) can0 39D#9409C823
(1786374686.279394) can0 39D#560A8824
(1786374686.319005) can0 33D#0000FFFFFFFFFFFF
(1786374686.339386) can0 39D#F80B2825
(1786374686.358803) can0 39D#990CC825
(1786374686.399294) can0 39D#6B0D9826
(1786374686.439204) can0 33D#0000FFFFFFFFFFFF
(1786374686.439620) can0 39D#6D0E9827
(1786374686.479294) can0 39D#CE0FF827
(1786374686.519033) can0 33D#0000FFFFFFFFFFFF
(1786374686.539301) can0 39D#AF00E827
(1786374686.558850) can0 39D#60019827
(1786374686.599156) can0 39D#31026827
(1786374686.639200) can0 33D#0000FFFFFFFFFFFF
(1786374686.639647) can0 39D#42037827
(1786374686.678944) can0 39D#33046827
(1786374686.718864) can0 33D#0000FFFFFFFFFFFF
(1786374686.739349) can0 39D#44057827
(1786374686.758815) can0 39D#15064827
(1786374686.798791) can0 39D#06073827
(1786374686.839159) can0 33D#0000FFFFFFFFFFFF
(1786374686.839575) can0 39D#F7082827
(1786374686.878899) can0 39D#F8092827
(1786374686.918923) can0 35D#0055555555555555
(1786374686.919364) can0 33D#0000FFFFFFFFFFFF
(1786374686.939254) can0 39D#E90A1827
(1786374686.959310) can0 39D#DA0B0827
(1786374686.998849) can0 39D#DB0C0827
(1786374687.039165) can0 33D#0000FFFFFFFFFFFF
(1786374687.039580) can0 39D#FC0D2827
(1786374687.078854) can0 39D#6D0E9827
(1786374687.118925) can0 33D#0000FFFFFFFFFFFF
(1786374687.139371) can0 39D#2F0F5828
(1786374687.158900) can0 39D#41007829
(1786374687.199154) can0 39D#4301782A
(1786374687.238862) can0 33D#0000FFFFFFFFFFFF
(1786374687.239327) can0 39D#4502782B
(1786374687.279136) can0 39D#4703782C
(1786374687.319007) can0 33D#0000FFFFFFFFFFFF
(1786374687.339340) can0 39D#5904882D
(1786374687.358810) can0 39D#6B05982E
(1786374687.399026) can0 39D#BD06E82F
(1786374687.438853) can0 33D#0000FFFFFFFFFFFF
(1786374687.439275) can0 39D#20074831
(1786374687.478808) can0 39D#52087832
(1786374687.518981) can0 33D#0000FFFFFFFFFFFF
(1786374687.539376) can0 3AD#90020018041B0010
(1786374687.549591) can0 39D#9209B633
(1786374687.558781) can0 39D#E50A0635
(1786374687.599273) can0 39D#860BA635
(1786374687.639179) can0 33D#0000FFFFFFFFFFFF
(1786374687.639637) can0 39D#960CB634
(1786374687.679193) can0 39D#A70DC634
(1786374687.719387) can0 33D#0000FFFFFFFFFFFF
(1786374687.739241) can0 39D#590E7635
(1786374687.758799) can0 39D#190F3634
(1786374687.799019) can0 39D#2B005635
(1786374687.839145) can0 33D#0000FFFFFFFFFFFF
(1786374687.839601) can0 39D#6C019635
(1786374687.879289) can0 39D#1C024634
(1786374687.918965) can0 35D#0155555555555555
(1786374687.919424) can0 32D#0D0000008D792021
(1786374687.919790) can0 33D#0000FFFFFFFFFFFF
(1786374687.939275) can0 39D#5E038635
(1786374687.958765) can0 39D#CE04F634
(1786374687.999211) can0 39D#4F057634
(1786374688.038876) can0 33D#0000FFFFFFFFFFFF
(1786374688.039298) can0 39D#10063634
(1786374688.078845) can0 39D#F1071634
(1786374688.119117) can0 33D#0000FFFFFFFFFFFF
(1786374688.139412) can0 39D#21084633
(1786374688.158892) can0 39D#F0091631
(1786374688.199212) can0 39D#AF0AD82D
(1786374688.238887) can0 33D#0000FFFFFFFFFFFF
(1786374688.239299) can0 3AD#97020020041B0010
(1786374688.249551) can0 39D#7D0BA82A
(1786374688.279321) can0 39D#8B0CB827
(1786374688.318998) can0 33D#0000FFFFFFFFFFFF
(1786374688.339277) can0 39D#890DB824
(1786374688.359125) can0 39D#870EB821
(1786374688.398888) can0 39D#850FB81E
(1786374688.438800) can0 33D#0000FFFFFFFFFFFF
(1786374688.439216) can0 39D#8300C81B
(1786374688.479000) can0 39D#8101C818
(1786374688.518966) can0 33D#0000FFFFFFFFFFFF
(1786374688.539345) can0 39D#6F02B815
(1786374688.558925) can0 39D#6D03B812
(1786374688.598906) can0 39D#5B04A80F
(1786374688.639192) can0 33D#0000FFFFFFFFFFFF
(1786374688.639605) can0 39D#5905A80C
(1786374688.679211) can0 39D#6706B809
(1786374688.718985) can0 33D#0000FFFFFFFFFFFF
(1786374688.739345) can0 39D#A507F806
(1786374688.759106) can0 39D#5408A804
(1786374688.799290) can0 39D#A309F802
(1786374688.838887) can0 33D#0000FFFFFFFFFFFF
(1786374688.839288) can0 39D#D40A2802
(1786374688.878857) can0 39D#A40BF801
(1786374688.919049) can0 35D#0256555555555555
(1786374688.919430) can0 33D#0000FFFFFFFFFFFF
(1786374688.939245) can0 39D#650CB801
(1786374688.958824) can0 39D#160D6801
(1786374688.998882) can0 39D#D70E2801
(1786374689.038782) can0 33D#0000FFFFFFFFFFFF
(1786374689.039217) can0 39D#B80F0801
(1786374689.078875) can0 39D#A9000801
(1786374689.118997) can0 33D#0000FFFFFFFFFFFF
(1786374689.139338) can0 39D#AA010801
(1786374689.158827) can0 39D#AB020801
(1786374689.199034) can0 39D#AC030801
(1786374689.238853) can0 33D#0000FFFFFFFFFFFF
(1786374689.239264) can0 39D#AD040801
(1786374689.278810) can0 39D#AE050801
(1786374689.318904) can0 33D#0000FFFFFFFFFFFF
(1786374689.339321) can0 39D#AF060801
(1786374689.358810) can0 39D#B0070801
(1786374689.399319) can0 39D#B1080801
(1786374689.439216) can0 33D#0000FFFFFFFFFFFF
(1786374689.439612) can0 39D#B2090801
(1786374689.478796) can0 39D#B30A0801
(1786374689.518982) can0 33D#0000FFFFFFFFFFFF
(1786374689.539359) can0 39D#B40B0801
(1786374689.558784) can0 39D#B50C0801
(1786374689.598912) can0 3AD#A502002004200010
(1786374689.608930) can0 39D#B60D0801
(1786374689.638718) can0 33D#0000FFFFFFFFFFFF
(1786374689.639156) can0 39D#B70E0801
(1786374689.678802) can0 39D#B80F0801
(1786374689.718899) can0 33D#0000FFFFFFFFFFFF
(1786374689.738904) can0 39D#A9000801
(1786374689.758693) can0 39D#AA010801
(1786374689.798791) can0 31D#A702300000030005
(1786374689.808863) can0 33D#2B00000056515952
(1786374689.828889) can0 39D#AB020801
(1786374689.838734) can0 33D#0000FFFFFFFFFFFF
(1786374689.839099) can0 34D#2A00280109285400
(1786374689.849143) can0 36D#E106000000AAB1A1
(1786374689.869315) can0 39D#AC030801
(1786374689.878688) can0 37D#990001000058D805
(1786374689.888892) can0 38D#0000000070211500
(1786374689.908886) can0 39D#AD040801
(1786374689.918782) can0 35D#0355555555555555
(1786374689.919142) can0 32D#1405000060FCB070
(1786374689.919645) can0 33D#0000FFFFFFFFFFFF
(1786374689.938915) can0 39D#AE050801
(1786374689.958705) can0 39D#AF060801
(1786374689.998727) can0 39D#B0070801
(1786374690.038766) can0 33D#0000FFFFFFFFFFFF
(1786374690.039185) can0 39D#B1080801
(1786374690.078808) can0 39D#B2090801
(1786374690.118712) can0 33D#0000FFFFFFFFFFFF
(1786374690.138912) can0 39D#B30A0801
(1786374690.158612) can0 39D#B40B0801
(1786374690.198863) can0 39D#B50C0801
(1786374690.238673) can0 33D#0000FFFFFFFFFFFF
(1786374690.239074) can0 39D#B60D0801
(1786374690.278839) can0 39D#B70E0801
(1786374690.318799) can0 33D#0000FFFFFFFFFFFF
(1786374690.338941) can0 39D#B80F0801
(1786374690.358706) can0 39D#A9000801
(1786374690.398897) can0 39D#AA010801
(1786374690.438686) can0 33D#0000FFFFFFFFFFFF
(1786374690.439148) can0 39D#AB020801
(1786374690.478811) can0 39D#AC030801
(1786374690.518768) can0 33D#0000FFFFFFFFFFFF
(1786374690.538915) can0 39D#AD040801
(1786374690.558688) can0 39D#AE050801
(1786374690.598808) can0 39D#AF060801
(1786374690.638748) can0 33D#0000FFFFFFFFFFFF
(1786374690.639132) can0 39D#B0070801
(1786374690.678768) can0 39D#B1080801
(1786374690.718743) can0 33D#0000FFFFFFFFFFFF
(1786374690.738886) can0 39D#B2090801
(1786374690.758631) can0 39D#B30A0801
(1786374690.798755) can0 39D#B40B0801
(1786374690.838743) can0 33D#0000FFFFFFFFFFFF
(1786374690.839136) can0 39D#B50C0801
(1786374690.878724) can0 39D#B60D0801
(1786374690.918742) can0 35D#0455555555555555
(1786374690.919149) can0 33D#0000FFFFFFFFFFFF
(1786374690.938951) can0 39D#B70E0801
(1786374690.958649) can0 39D#B80F0801
(1786374690.998710) can0 39D#A9000801
(1786374691.038747) can0 33D#0000FFFFFFFFFFFF
(1786374691.039124) can0 39D#AA010801
(1786374691.078817) can0 39D#AB020801
(1786374691.118859) can0 33D#0000FFFFFFFFFFFF
(1786374691.138897) can0 39D#AC030801
(1786374691.158823) can0 39D#AD040801
(1786374691.198840) can0 39D#AE050801
(1786374691.238713) can0 33D#0000FFFFFFFFFFFF
(1786374691.239087) can0 39D#AF060801
(1786374691.278773) can0 39D#B0070801
(1786374691.318976) can0 33D#0000FFFFFFFFFFFF
(1786374691.338934) can0 39D#B1080801
(1786374691.358721) can0 39D#B2090801
(1786374691.398867) can0 39D#B30A0801
(1786374691.438850) can0 33D#0000FFFFFFFFFFFF
(1786374691.439291) can0 39D#B40B0801
(1786374691.478694) can0 39D#B50C0801
(1786374691.518821) can0 33D#0000FFFFFFFFFFFF
(1786374691.538961) can0 39D#B60D0801
(1786374691.558629) can0 39D#B70E0801
(1786374691.598673) can0 39D#B80F0801
(1786374691.638754) can0 33D#0000FFFFFFFFFFFF
(1786374691.639123) can0 39D#A9000801
(1786374691.678696) can0 39D#AA010801
(1786374691.718960) can0 33D#0000FFFFFFFFFFFF
(1786374691.738868) can0 39D#AB020801
(1786374691.758732) can0 39D#AC030801
(1786374691.798970) can0 39D#AD040801
(1786374691.838732) can0 33D#0000FFFFFFFFFFFF
(1786374691.839144) can0 39D#AE050801
(1786374691.878854) can0 39D#AF060801
(1786374691.918823) can0 35D#0555555555555555
(1786374691.919325) can0 32D#16000000E4ACA32F
(1786374691.919745) can0 33D#0000FFFFFFFFFFFF
(1786374691.938954) can0 39D#B0070801
(1786374691.958707) can0 39D#B1080801
(1786374691.998659) can0 39D#B2090801
(1786374692.038705) can0 33D#0000FFFFFFFFFFFF
(1786374692.039140) can0 39D#B30A0801
(1786374692.078720) can0 39D#B40B0801
(1786374692.118814) can0 33D#0000FFFFFFFFFFFF
(1786374692.138865) can0 39D#B50C0801
(1786374692.158641) can0 39D#B60D0801
(1786374692.198965) can0 39D#B70E0801
(1786374692.238778) can0 33D#0000FFFFFFFFFFFF
(1786374692.239177) can0 39D#B80F0801
(1786374692.278711) can0 39D#A9000801
(1786374692.318885) can0 33D#0000FFFFFFFFFFFF
(1786374692.338850) can0 39D#AA010801
(1786374692.358672) can0 39D#AB020801
(1786374692.398798) can0 39D#AC030801
(1786374692.438771) can0 33D#0000FFFFFFFFFFFF
(1786374692.439104) can0 39D#AD040801
(1786374692.478767) can0 39D#AE050801
(1786374692.518920) can0 33D#0000FFFFFFFFFFFF
(1786374692.538913) can0 39D#AF060801
(1786374692.558680) can0 39D#B0070801
(1786374692.598764) can0 39D#B1080801
(1786374692.638786) can0 33D#0000FFFFFFFFFFFF
(1786374692.639171) can0 39D#B2090801
(1786374692.678680) can0 39D#B30A0801
(1786374692.718865) can0 33D#0000FFFFFFFFFFFF
(1786374692.738874) can0 39D#B40B0801
(1786374692.758683) can0 39D#B50C0801
(1786374692.798761) can0 39D#B60D0801
(1786374692.838784) can0 33D#0000FFFFFFFFFFFF
(1786374692.839180) can0 39D#B70E0801
(1786374692.878840) can0 39D#B80F0801
(1786374692.918771) can0 35D#0655555555555559
(1786374692.919198) can0 33D#0000FFFFFFFFFFFF
(1786374692.938920) can0 39D#A9000801
(1786374692.958683) can0 39D#AA010801
(1786374692.998787) can0 39D#AB020801
(1786374693.038744) can0 33D#0000FFFFFFFFFFFF
(1786374693.039198) can0 39D#AC030801
(1786374693.078742) can0 39D#AD040801
(1786374693.118633) can0 33D#0000FFFFFFFFFFFF
(1786374693.138914) can0 39D#AE050801
(1786374693.158643) can0 39D#AF060801
(1786374693.198626) can0 39D#B0070801
(1786374693.238682) can0 33D#0000FFFFFFFFFFFF
(1786374693.238998) can0 39D#B1080801
(1786374693.278678) can0 39D#B2090801
(1786374693.318894) can0 33D#0000FFFFFFFFFFFF
(1786374693.338914) can0 39D#B30A0801
(1786374693.358708) can0 39D#C40B1801
(1786374693.399017) can0 39D#150C6801
(1786374693.439184) can0 33D#0000FFFFFFFFFFFF
(1786374693.439548) can0 39D#F70D4802
(1786374693.479298) can0 39D#A80EF802
(1786374693.519380) can0 33D#0000FFFFFFFFFFFF
(1786374693.539315) can0 39D#AA0FF803
(1786374693.558814) can0 39D#1D007805
(1786374693.598947) can0 39D#00015807
(1786374693.639142) can0 33D#0000FFFFFFFFFFFF
(1786374693.639493) can0 39D#9202E808
(1786374693.678955) can0 39D#B503080A
(1786374693.718987) can0 33D#0000FFFFFFFFFFFF
(1786374693.739395) can0 39D#C704180B
(1786374693.758781) can0 39D#F905480C
(1786374693.798876) can0 39D#6B06B80D
(1786374693.839167) can0 33D#0000FFFFFFFFFFFF
(1786374693.839502) can0 39D#2E07780F
(1786374693.878788) can0 39D#31087811
(1786374693.919268) can0 35D#075555A555150000
(1786374693.919735) can0 32D#0A01000000007000
(1786374693.920146) can0 33D#0000FFFFFFFFFFFF
(1786374693.939266) can0 39D#44098813
(1786374693.958804) can0 39D#E60A2814
(1786374693.999078) can0 39D#860BC813
(1786374694.038857) can0 33D#0000FFFFFFFFFFFF
(1786374694.039235) can0 39D#470C8813
(1786374694.079195) can0 39D#F80D3813
(1786374694.119015) can0 33D#0000FFFFFFFFFFFF
(1786374694.139262) can0 39D#B80EF812
(1786374694.159123) can0 39D#690FA812
(1786374694.198885) can0 39D#0A005812
(1786374694.238869) can0 33D#0000FFFFFFFFFFFF
(1786374694.239265) can0 39D#BB010812
(1786374694.278787) can0 39D#5B02A811
(1786374694.319076) can0 33D#0000FFFFFFFFFFFF
(1786374694.339331) can0 39D#FC034811
(1786374694.358792) can0 39D#7C04C810
(1786374694.398892) can0 39D#ED053810
(1786374694.438863) can0 33D#0000FFFFFFFFFFFF
(1786374694.439318) can0 39D#4D06980F
(1786374694.479199) can0 39D#8D07D80E
(1786374694.519375) can0 33D#0000FFFFFFFFFFFF
(1786374694.539256) can0 39D#AD08F80D
(1786374694.559116) can0 39D#AD09F80C
(1786374694.599273) can0 39D#7D0AC80B
(1786374694.638830) can0 33D#0000FFFFFFFFFFFF
(1786374694.639174) can0 39D#2D0B780A
(1786374694.678821) can0 39D#DD0C2809
(1786374694.719474) can0 33D#0000FFFFFFFFFFFF
(1786374694.739206) can0 39D#8C0DD807
(1786374694.759082) can0 39D#6C0EB806
(1786374694.798839) can0 39D#AC0FF805
(1786374694.838801) can0 33D#0000FFFFFFFFFFFF
(1786374694.839238) can0 39D#0D006805
(1786374694.878895) can0 39D#8D01E804
(1786374694.918767) can0 35D#0055555555555555
(1786374694.919096) can0 33D#0000FFFFFFFFFFFF
(1786374694.939325) can0 39D#2E028804
(1786374694.958719) can0 39D#EF034804
(1786374694.998794) can0 39D#B0040804
(1786374695.038798) can0 33D#0000FFFFFFFFFFFF
(1786374695.039248) can0 39D#6005B803
(1786374695.078893) can0 39D#01065803
(1786374695.118945) can0 33D#0000FFFFFFFFFFFF
(1786374695.139313) can0 39D#A107F802
(1786374695.158836) can0 39D#F2084802
(1786374695.198873) can0 39D#A109F800
(1786374695.239150) can0 33D#0000FFFFFFFFFFFF
(1786374695.239520) can0 39D#A20AF800
(1786374695.278741) can0 39D#A30BF800
(1786374695.318718) can0 33D#0000FFFFFFFFFFFF
(1786374695.339228) can0 39D#A40CF800
(1786374695.358740) can0 39D#A50DF800
(1786374695.398792) can0 39D#A60EF800
(1786374695.438801) can0 33D#0000FFFFFFFFFFFF
(1786374695.439232) can0 39D#A70FF800
(1786374695.478764) can0 39D#9800F800
(1786374695.518830) can0 33D#0000FFFFFFFFFFFF
(1786374695.539198) can0 39D#9901F800
(1786374695.558737) can0 39D#9A02F800
(1786374695.598657) can0 39D#9B03F800
(1786374695.638683) can0 33D#0000FFFFFFFFFFFF
(1786374695.639100) can0 3AD#E102002004200010
(1786374695.648816) can0 39D#9C04F800
(1786374695.678649) can0 39D#9D05F800
(1786374695.718751) can0 33D#0000FFFFFFFFFFFF
(1786374695.738899) can0 39D#9E06F800
(1786374695.758748) can0 39D#9F07F800
(1786374695.798770) can0 39D#A008F800
(1786374695.838713) can0 33D#0000FFFFFFFFFFFF
(1786374695.839008) can0 39D#A109F800
(1786374695.878685) can0 39D#A20AF800
(1786374695.918715) can0 35D#0155555555555555
(1786374695.919077) can0 32D#0B00020101000000
(1786374695.919416) can0 33D#0000FFFFFFFFFFFF
(1786374695.938936) can0 39D#A30BF800
(1786374695.958760) can0 31D#E402100000030203
(1786374695.988958) can0 39D#A40CF800
(1786374695.998733) can0 33D#06000000554D564C
(1786374696.008905) can0 34D#0000280614280000
(1786374696.028833) can0 39D#A50DF800
(1786374696.038583) can0 33D#0000FFFFFFFFFFFF
(1786374696.038873) can0 36D#610200000090D485
(1786374696.049177) can0 37D#3F000000005C5800
(1786374696.069133) can0 39D#A60EF800
(1786374696.078670) can0 38D#00000000709D0700
(1786374696.088887) can0 39D#A70FF800
(1786374696.118722) can0 33D#0000FFFFFFFFFFFF
(1786374696.138851) can0 39D#9800F800
(1786374696.158662) can0 39D#9901F800
(1786374696.198768) can0 39D#9A02F800
(1786374696.238773) can0 33D#0000FFFFFFFFFFFF
(1786374696.239138) can0 39D#9B03F800
(1786374696.278644) can0 39D#9C04F800
(1786374696.318712) can0 33D#0000FFFFFFFFFFFF
(1786374696.338920) can0 39D#9D05F800
(1786374696.358615) can0 39D#9E06F800
(1786374696.398683) can0 39D#9F07F800
(1786374696.438782) can0 33D#0000FFFFFFFFFFFF
(1786374696.439144) can0 39D#A008F800
(1786374696.478718) can0 39D#A109F800
(1786374696.518896) can0 33D#0000FFFFFFFFFFFF
(1786374696.538922) can0 39D#A20AF800
(1786374696.558618) can0 39D#A30BF800
(1786374696.598741) can0 39D#A40CF800
(1786374696.638721) can0 33D#0000FFFFFFFFFFFF
(1786374696.639035) can0 39D#A50DF800
(1786374696.678695) can0 39D#A60EF800
(1786374696.718780) can0 33D#0000FFFFFFFFFFFF
(1786374696.738920) can0 39D#A70FF800
(1786374696.758653) can0 39D#9800F800
(1786374696.798647) can0 39D#9901F800
(1786374696.838766) can0 33D#0000FFFFFFFFFFFF
(1786374696.839153) can0 39D#9A02F800
(1786374696.878839) can0 39D#9B03F800
(1786374696.918674) can0 35D#0256555555555555
(1786374696.918956) can0 33D#0000FFFFFFFFFFFF
(1786374696.938799) can0 39D#9C04F800
(1786374696.958681) can0 39D#9D05F800
(1786374696.998682) can0 39D#9E06F800
(1786374697.038600) can0 33D#0000FFFFFFFFFFFF
(1786374697.038858) can0 39D#9F07F800
(1786374697.078674) can0 39D#A008F800
(1786374697.118598) can0 33D#0000FFFFFFFFFFFF
(1786374697.138903) can0 39D#A109F800
(1786374697.158677) can0 39D#A20AF800
(1786374697.198746) can0 39D#A30BF800
(1786374697.238800) can0 33D#0000FFFFFFFFFFFF
(1786374697.239152) can0 39D#A40CF800
(1786374697.278685) can0 39D#A50DF800
(1786374697.318555) can0 33D#0000FFFFFFFFFFFF
(1786374697.338962) can0 39D#A60EF800
(1786374697.358784) can0 39D#A70FF800
(1786374697.398773) can0 39D#9800F800
(1786374697.438821) can0 33D#0000FFFFFFFFFFFF
(1786374697.439192) can0 39D#9901F800
(1786374697.478610) can0 39D#9A02F800
(1786374697.518658) can0 33D#0000FFFFFFFFFFFF
(1786374697.538790) can0 39D#9B03F800
(1786374697.558791) can0 39D#9C04F800
(1786374697.598768) can0 39D#9D05F800
(1786374697.638720) can0 33D#0000FFFFFFFFFFFF
(1786374697.639190) can0 39D#9E06F800
(1786374697.678654) can0 39D#9F07F800
(1786374697.718613) can0 33D#0000FFFFFFFFFFFF
(1786374697.739228) can0 39D#F1084801
(1786374697.758737) can0 39D#E3093802
(1786374697.798787) can0 39D#050A5803
(1786374697.838812) can0 33D#0000FFFFFFFFFFFF
(1786374697.839233) can0 39D#D80B2805
(1786374697.878779) can0 39D#3B0C8807
(1786374697.919053) can0 35D#0355555555555555
(1786374697.919406) can0 32D#0D0000008D792021
(1786374697.919709) can0 33D#0000FFFFFFFFFFFF
(1786374697.939259) can0 39D#5E0DA809
(1786374697.959113) can0 39D#E10E280B
(1786374697.999087) can0 39D#020F480B
(1786374698.039164) can0 33D#0000FFFFFFFFFFFF
(1786374698.039553) can0 39D#7200C80A
(1786374698.078818) can0 39D#F301480A
(1786374698.118712) can0 33D#0000FFFFFFFFFFFF
(1786374698.139255) can0 39D#6302B809
(1786374698.159085) can0 39D#C4031809
(1786374698.199143) can0 39D#24047808
(1786374698.238748) can0 33D#0000FFFFFFFFFFFF
(1786374698.239195) can0 39D#7405C807
(1786374698.278767) can0 39D#D5062807
(1786374698.318845) can0 33D#0000FFFFFFFFFFFF
(1786374698.339262) can0 39D#7507C806
(1786374698.358694) can0 39D#46089806
(1786374698.398853) can0 39D#17096806
(1786374698.439126) can0 33D#0000FFFFFFFFFFFF
(1786374698.439443) can0 39D#080A5806
(1786374698.479178) can0 39D#F90B4806
(1786374698.519237) can0 33D#0000FFFFFFFFFFFF
(1786374698.539339) can0 39D#FA0C4806
(1786374698.558783) can0 39D#EB0D3806
(1786374698.599169) can0 39D#EC0E3806
(1786374698.639153) can0 33D#0000FFFFFFFFFFFF
(1786374698.639607) can0 39D#DD0F2806
(1786374698.679096) can0 39D#CE002806
(1786374698.718875) can0 33D#0000FFFFFFFFFFFF
(1786374698.739275) can0 39D#BF011806
(1786374698.758775) can0 39D#C0021806
(1786374698.799185) can0 39D#C1031806
(1786374698.838741) can0 33D#0000FFFFFFFFFFFF
(1786374698.839190) can0 39D#C2041806
(1786374698.878729) can0 39D#C3051806
(1786374698.918700) can0 35D#0455555555555555
(1786374698.918945) can0 33D#0000FFFFFFFFFFFF
(1786374698.939234) can0 39D#C4061806
(1786374698.958802) can0 39D#E5073806
(1786374698.999134) can0 39D#26087806
(1786374699.038785) can0 33D#0000FFFFFFFFFFFF
(1786374699.039163) can0 39D#8709D806
(1786374699.079157) can0 39D#E90A3807
(1786374699.119187) can0 33D#0000FFFFFFFFFFFF
(1786374699.139321) can0 39D#2A0B7807
(1786374699.158810) can0 39D#5B0CA807
(1786374699.199105) can0 39D#6C0DB807
(1786374699.239132) can0 33D#0000FFFFFFFFFFFF
(1786374699.239448) can0 39D#8D0ED807
(1786374699.279051) can0 39D#8E0FD807
(1786374699.319067) can0 33D#0000FFFFFFFFFFFF
(1786374699.339261) can0 39D#8F00E807
(1786374699.358880) can0 39D#9001E807
(1786374699.399170) can0 39D#A102F807
(1786374699.438855) can0 33D#0000FFFFFFFFFFFF
(1786374699.439252) can0 39D#A203F807
(1786374699.478841) can0 39D#A304F807
(1786374699.518728) can0 33D#0000FFFFFFFFFFFF
(1786374699.539255) can0 39D#B5050808
(1786374699.558715) can0 39D#B6060808
(1786374699.598724) can0 39D#B7070808
(1786374699.638809) can0 33D#0000FFFFFFFFFFFF
(1786374699.639230) can0 39D#B8080808
(1786374699.679060) can0 39D#B9090808
(1786374699.718936) can0 33D#0000FFFFFFFFFFFF
(1786374699.739277) can0 39D#BA0A0808
(1786374699.759069) can0 39D#CB0B1808
(1786374699.798706) can0 39D#CC0C1808
(1786374699.838807) can0 33D#0000FFFFFFFFFFFF
(1786374699.839285) can0 39D#CD0D1808
(1786374699.878807) can0 39D#CE0E1808
(1786374699.919128) can0 35D#0555555555555555
(1786374699.919491) can0 32D#1405000060FCB070
(1786374699.919854) can0 33D#0000FFFFFFFFFFFF
(1786374699.939321) can0 39D#CF0F1808
(1786374699.958829) can0 39D#C0001808
(1786374699.998795) can0 39D#C1011808
(1786374700.038841) can0 33D#0000FFFFFFFFFFFF
(1786374700.039275) can0 39D#B2020808
(1786374700.078821) can0 39D#C3031808
(1786374700.118815) can0 33D#0000FFFFFFFFFFFF
(1786374700.139232) can0 39D#C4041808
(1786374700.158845) can0 39D#C5051808
(1786374700.198923) can0 39D#C6061808
(1786374700.238855) can0 33D#0000FFFFFFFFFFFF
(1786374700.239227) can0 39D#C7071808
(1786374700.278799) can0 39D#C8081808
(1786374700.318865) can0 33D#0000FFFFFFFFFFFF
(1786374700.339253) can0 39D#C9091808
(1786374700.358797) can0 39D#CA0A1808
(1786374700.399152) can0 39D#CB0B1808
(1786374700.438823) can0 33D#0000FFFFFFFFFFFF
(1786374700.439226) can0 39D#CC0C1808
(1786374700.478736) can0 39D#CD0D1808
(1786374700.518745) can0 33D#0000FFFFFFFFFFFF
(1786374700.539243) can0 39D#CE0E1808
(1786374700.558769) can0 39D#CF0F1808
(1786374700.598809) can0 39D#C0001808
(1786374700.638742) can0 33D#0000FFFFFFFFFFFF
(1786374700.639151) can0 39D#C1011808
(1786374700.678761) can0 39D#C2021808
(1786374700.719099) can0 33D#0000FFFFFFFFFFFF
(1786374700.739253) can0 39D#C3031808
(1786374700.758748) can0 39D#C4041808
(1786374700.799046) can0 39D#C5051808
(1786374700.838789) can0 33D#0000FFFFFFFFFFFF
(1786374700.839254) can0 39D#C6061808
(1786374700.878732) can0 39D#C7071808
(1786374700.918826) can0 35D#0655555555555559
(1786374700.919188) can0 33D#0000FFFFFFFFFFFF
(1786374700.939345) can0 39D#C8081808
(1786374700.958781) can0 39D#C9091808
(1786374700.998754) can0 39D#CA0A1808
(1786374701.039068) can0 33D#0000FFFFFFFFFFFF
(1786374701.039325) can0 39D#CB0B1808
(1786374701.078829) can0 39D#CC0C1808
(1786374701.118795) can0 33D#0000FFFFFFFFFFFF
(1786374701.139255) can0 39D#CD0D1808
(1786374701.158821) can0 39D#CE0E1808
(1786374701.198812) can0 39D#CF0F1808
(1786374701.238824) can0 33D#0000FFFFFFFFFFFF
(1786374701.239162) can0 39D#C0001808
(1786374701.278743) can0 39D#C1011808
(1786374701.318749) can0 33D#0000FFFFFFFFFFFF
(1786374701.339159) can0 39D#C2021808
(1786374701.358748) can0 39D#C3031808
(1786374701.399093) can0 39D#B4040808
(1786374701.439096) can0 33D#0000FFFFFFFFFFFF
(1786374701.439418) can0 39D#C5051808
(1786374701.479092) can0 39D#C6061808
(1786374701.518833) can0 33D#0000FFFFFFFFFFFF
(1786374701.539369) can0 39D#C7071808
(1786374701.558805) can0 39D#C8081808
(1786374701.599137) can0 39D#C9091808
(1786374701.639064) can0 33D#0000FFFFFFFFFFFF
(1786374701.639329) can0 39D#CA0A1808
(1786374701.678826) can0 39D#CB0B1808
(1786374701.718983) can0 33D#0000FFFFFFFFFFFF
(1786374701.739293) can0 39D#CC0C1808
(1786374701.758840) can0 39D#CD0D1808
(1786374701.798839) can0 39D#BE0E0808
(1786374701.838848) can0 33D#0000FFFFFFFFFFFF
(1786374701.839154) can0 39D#5E0FA807
(1786374701.878804) can0 39D#CF002807
(1786374701.918812) can0 35D#075555A555150000
(1786374701.919184) can0 32D#16000000E4ACA32F
(1786374701.919461) can0 33D#0000FFFFFFFFFFFF
(1786374701.939226) can0 39D#4F01A806
(1786374701.959067) can0 39D#00025806
(1786374701.998986) can0 39D#B1030806
(1786374702.039132) can0 33D#0000FFFFFFFFFFFF
(1786374702.039449) can0 39D#7104C805
(1786374702.078785) can0 39D#32058805
(1786374702.119265) can0 33D#0000FFFFFFFFFFFF
(1786374702.139370) can0 39D#F3064805
(1786374702.158811) can0 39D#C4071805
(1786374702.198778) can0 39D#9408E804
(1786374702.239092) can0 33D#0000FFFFFFFFFFFF
(1786374702.239473) can0 39D#6509B804
(1786374702.278811) can0 39D#360A8804
(1786374702.318841) can0 33D#0000FFFFFFFFFFFF
(1786374702.339291) can0 39D#170B6804
(1786374702.358843) can0 39D#180C6804
(1786374702.398759) can0 39D#590DA804
(1786374702.439072) can0 33D#0000FFFFFFFFFFFF
(1786374702.439314) can0 39D#CB0E1805
(1786374702.478792) can0 39D#6C0FB805
(1786374702.519133) can0 33D#0000FFFFFFFFFFFF
(1786374702.539286) can0 39D#0E006806
(1786374702.558804) can0 39D#B0010807
(1786374702.599102) can0 39D#11026807
(1786374702.638856) can0 33D#0000FFFFFFFFFFFF
(1786374702.639268) can0 39D#42039807
(1786374702.679199) can0 39D#5304A807
(1786374702.718902) can0 33D#0000FFFFFFFFFFFF
(1786374702.739266) can0 39D#7405C807
(1786374702.759076) can0 39D#9506E807
(1786374702.798796) can0 39D#B7070808
(1786374702.839171) can0 33D#0000FFFFFFFFFFFF
(1786374702.839492) can0 39D#E8083808
(1786374702.878868) can0 39D#09095808
(1786374702.918838) can0 35D#0055555555555555
(1786374702.919196) can0 33D#0000FFFFFFFFFFFF
(1786374702.939280) can0 39D#3A0A8808
(1786374702.958813) can0 39D#5B0BA808
(1786374702.998850) can0 39D#7C0CC808
(1786374703.038852) can0 33D#0000FFFFFFFFFFFF
(1786374703.039224) can0 39D#AD0DF808
(1786374703.078796) can0 39D#CF0E1809
(1786374703.119208) can0 33D#0000FFFFFFFFFFFF
(1786374703.139223) can0 39D#F00F3809
(1786374703.159125) can0 39D#01005809
(1786374703.199248) can0 39D#22017809
(1786374703.238795) can0 33D#0000FFFFFFFFFFFF
(1786374703.239261) can0 39D#43029809
(1786374703.278827) can0 39D#7403C809
(1786374703.319309) can0 33D#0000FFFFFFFFFFFF
(1786374703.339265) can0 39D#9504E809
(1786374703.359075) can0 39D#C705180A
(1786374703.399025) can0 39D#0806580A
(1786374703.438817) can0 33D#0000FFFFFFFFFFFF
(1786374703.439301) can0 39D#3907880A
(1786374703.479047) can0 39D#7A08C80A
(1786374703.518896) can0 33D#0000FFFFFFFFFFFF
(1786374703.539331) can0 39D#BC09080B
(1786374703.558818) can0 39D#ED0A380B
(1786374703.599132) can0 39D#BE0B080B
(1786374703.639211) can0 33D#0000FFFFFFFFFFFF
(1786374703.639646) can0 39D#8E0CD80A
(1786374703.679111) can0 39D#5F0DA80A
(1786374703.718834) can0 33D#0000FFFFFFFFFFFF
(1786374703.739262) can0 39D#200E680A
(1786374703.758888) can0 39D#D10F180A
(1786374703.799131) can0 39D#8100D809
(1786374703.839172) can0 33D#0000FFFFFFFFFFFF
(1786374703.839530) can0 39D#42019809
(1786374703.878792) can0 39D#F3024809
(1786374703.918773) can0 35D#0155555555555555
(1786374703.919059) can0 32D#0A01000000007000
(1786374703.919367) can0 33D#0000FFFFFFFFFFFF
(1786374703.939357) can0 39D#A303F808
(1786374703.958898) can0 39D#6404B808
(1786374703.998891) can0 39D#15056808
(1786374704.038856) can0 33D#0000FFFFFFFFFFFF
(1786374704.039223) can0 39D#D6062808
(1786374704.078773) can0 39D#C7071808
(1786374704.118880) can0 33D#0000FFFFFFFFFFFF
(1786374704.139280) can0 39D#B8080808
(1786374704.158845) can0 39D#C9091808
(1786374704.198786) can0 39D#CA0A1808
(1786374704.238971) can0 33D#0000FFFFFFFFFFFF
(1786374704.239343) can0 39D#CB0B1808
(1786374704.278901) can0 39D#DC0C2808
(1786374704.318805) can0 33D#0000FFFFFFFFFFFF
(1786374704.339290) can0 39D#ED0D3808
(1786374704.358781) can0 39D#EE0E3808
(1786374704.399258) can0 39D#FF0F4808
(1786374704.439146) can0 33D#0000FFFFFFFFFFFF
(1786374704.439505) can0 39D#00005808
(1786374704.479079) can0 39D#01015808
(1786374704.518785) can0 33D#0000FFFFFFFFFFFF
(1786374704.539290) can0 39D#12026808
(1786374704.558834) can0 39D#13036808
(1786374704.598836) can0 39D#24047808
(1786374704.638821) can0 33D#0000FFFFFFFFFFFF
(1786374704.639147) can0 39D#35058808
(1786374704.678732) can0 39D#36068808
(1786374704.718970) can0 33D#0000FFFFFFFFFFFF
(1786374704.739325) can0 39D#37078808
(1786374704.758735) can0 39D#48089808
(1786374704.799138) can0 39D#49099808
(1786374704.839215) can0 33D#0000FFFFFFFFFFFF
(1786374704.839533) can0 39D#5A0AA808
(1786374704.879090) can0 39D#5B0BA808
(1786374704.919142) can0 35D#0256555555555555
(1786374704.919587) can0 33D#0000FFFFFFFFFFFF
(1786374704.939227) can0 39D#6C0CB808
(1786374704.958744) can0 39D#6D0DB808
(1786374704.998717) can0 39D#7E0EC808
(1786374705.039072) can0 33D#0000FFFFFFFFFFFF
(1786374705.039375) can0 39D#7F0FC808
(1786374705.079058) can0 39D#7000C808
(1786374705.118853) can0 33D#0000FFFFFFFFFFFF
(1786374705.139307) can0 39D#8101D808
(1786374705.158866) can0 39D#8202D808
(1786374705.199124) can0 39D#9303E808
(1786374705.238894) can0 33D#0000FFFFFFFFFFFF
(1786374705.239249) can0 39D#9404E808
(1786374705.278690) can0 39D#A505F808
(1786374705.319430) can0 33D#0000FFFFFFFFFFFF
(1786374705.339371) can0 39D#A606F808
(1786374705.359099) can0 39D#B8070809
(1786374705.399255) can0 39D#B9080809
(1786374705.438913) can0 33D#0000FFFFFFFFFFFF
(1786374705.439284) can0 39D#CA091809
(1786374705.479143) can0 39D#CB0A1809
(1786374705.519092) can0 33D#0000FFFFFFFFFFFF
(1786374705.539316) can0 39D#CC0B1809
(1786374705.559144) can0 39D#DD0C2809
(1786374705.598830) can0 39D#DE0D2809
(1786374705.638790) can0 33D#0000FFFFFFFFFFFF
(1786374705.639207) can0 39D#EF0E3809
(1786374705.679175) can0 39D#000F4809
(1786374705.718991) can0 33D#0000FFFFFFFFFFFF
(1786374705.739375) can0 39D#01005809
(1786374705.758869) can0 39D#12016809
(1786374705.799005) can0 39D#33028809
(1786374705.839149) can0 33D#0000FFFFFFFFFFFF
(1786374705.839561) can0 39D#6403B809
(1786374705.879212) can0 39D#9504E809
(1786374705.918792) can0 35D#0355555555555555
(1786374705.919202) can0 32D#0B00020101000000
(1786374705.919554) can0 33D#0000FFFFFFFFFFFF
(1786374705.939325) can0 39D#C705180A
(1786374705.959141) can0 39D#0806580A
(1786374705.999312) can0 39D#4907980A
(1786374706.038935) can0 33D#0000FFFFFFFFFFFF
(1786374706.039280) can0 39D#9A08E80A
(1786374706.078806) can0 39D#EC09380B
(1786374706.119217) can0 33D#0000FFFFFFFFFFFF
(1786374706.139316) can0 39D#4D0A980B
(1786374706.159159) can0 39D#BF0B080C
(1786374706.199176) can0 39D#600CA80C
(1786374706.238865) can0 33D#0000FFFFFFFFFFFF
(1786374706.239242) can0 39D#B10DF80C
(1786374706.278817) can0 39D#A20EE80C
(1786374706.318973) can0 33D#0000FFFFFFFFFFFF
(1786374706.339322) can0 39D#830FC80C
(1786374706.358875) can0 39D#6400B80C
(1786374706.398838) can0 39D#5501A80C
(1786374706.438827) can0 33D#0000FFFFFFFFFFFF
(1786374706.439221) can0 39D#3602880C
(1786374706.478798) can0 39D#2703780C
(1786374706.519372) can0 33D#0000FFFFFFFFFFFF
(1786374706.539329) can0 39D#0804580C
(1786374706.559171) can0 39D#F905480C
(1786374706.599274) can0 39D#EA06380C
(1786374706.639204) can0 33D#0000FFFFFFFFFFFF
(1786374706.639574) can0 39D#CB07180C
(1786374706.678870) can0 39D#AB08F80B
(1786374706.719077) can0 33D#0000FFFFFFFFFFFF
(1786374706.739384) can0 39D#8C09D80B
(1786374706.759152) can0 39D#6D0AB80B
(1786374706.799344) can0 39D#4E0B980B
(1786374706.839155) can0 33D#0000FFFFFFFFFFFF
(1786374706.839562) can0 39D#1F0C680B
(1786374706.878812) can0 39D#F00D380B
(1786374706.919533) can0 35D#0455555555555555
(1786374706.920101) can0 33D#0000FFFFFFFFFFFF
(1786374706.939345) can0 39D#C10E080B
(1786374706.958839) can0 39D#810FC80A
(1786374706.998971) can0 39D#4200980A
(1786374707.039172) can0 33D#0000FFFFFFFFFFFF
(1786374707.039529) can0 39D#0301580A
(1786374707.079275) can0 39D#B402080A
(1786374707.119331) can0 33D#0000FFFFFFFFFFFF
(1786374707.139297) can0 39D#7403C809
(1786374707.158820) can0 39D#25047809
(1786374707.199232) can0 39D#E6053809
(1786374707.239145) can0 33D#0000FFFFFFFFFFFF
(1786374707.239516) can0 39D#9606E808
(1786374707.279263) can0 39D#47079808
(1786374707.318981) can0 33D#0000FFFFFFFFFFFF
(1786374707.339304) can0 39D#F8084808
(1786374707.358925) can0 39D#A809F807
(1786374707.399199) can0 39D#590AA807
(1786374707.438821) can0 33D#0000FFFFFFFFFFFF
(1786374707.439270) can0 39D#0A0B5807
(1786374707.478882) can0 39D#CB0C1807
(1786374707.518945) can0 33D#0000FFFFFFFFFFFF
(1786374707.539351) can0 39D#9B0DE806
(1786374707.558882) can0 39D#6C0EB806
(1786374707.599282) can0 39D#4D0F9806
(1786374707.638864) can0 33D#0000FFFFFFFFFFFF
(1786374707.639304) can0 39D#CE002806
(1786374707.679194) can0 39D#0E016805
(1786374707.719006) can0 33D#0000FFFFFFFFFFFF
(1786374707.739301) can0 39D#2E028804
(1786374707.758898) can0 39D#AF030804
(1786374707.798932) can0 39D#5F04B803
(1786374707.839325) can0 33D#0000FFFFFFFFFFFF
(1786374707.839682) can0 39D#D0052803
(1786374707.878886) can0 39D#6006B802
(1786374707.919097) can0 35D#0555555555555555
(1786374707.919677) can0 32D#0D0000008D792021
(1786374707.920212) can0 33D#0000FFFFFFFFFFFF
(1786374707.939325) can0 39D#01075802
(1786374707.958797) can0 39D#31088801
(1786374707.998823) can0 39D#B2090801
(1786374708.038862) can0 33D#0000FFFFFFFFFFFF
(1786374708.039274) can0 39D#B30A0801
(1786374708.078830) can0 39D#B40B0801
(1786374708.119028) can0 33D#0000FFFFFFFFFFFF
(1786374708.139367) can0 39D#B50C0801
(1786374708.158776) can0 39D#B60D0801
(1786374708.198842) can0 39D#A60EF800
(1786374708.238899) can0 33D#0000FFFFFFFFFFFF
(1786374708.239308) can0 39D#A70FF800
(1786374708.279252) can0 39D#9800F800
(1786374708.319066) can0 33D#0000FFFFFFFFFFFF
(1786374708.339236) can0 39D#9901F800
(1786374708.359087) can0 39D#9A02F800
(1786374708.398799) can0 39D#9B03F800
(1786374708.438755) can0 33D#0000FFFFFFFFFFFF
(1786374708.439163) can0 3AD#6103002004200010
(1786374708.469119) can0 39D#9C04F800
(1786374708.478832) can0 39D#9D05F800
(1786374708.518916) can0 33D#0000FFFFFFFFFFFF
(1786374708.538940) can0 39D#9E06F800
(1786374708.558813) can0 39D#9F07F800
(1786374708.598741) can0 39D#A008F800
(1786374708.638749) can0 33D#0000FFFFFFFFFFFF
(1786374708.639150) can0 39D#A109F800
(1786374708.678675) can0 39D#A20AF800
(1786374708.718677) can0 33D#0000FFFFFFFFFFFF
(1786374708.738988) can0 39D#A30BF800
(1786374708.758631) can0 31D#6403400000030203
(1786374708.789214) can0 39D#A40CF800
(1786374708.798697) can0 33D#06000000514F514E
(1786374708.808840) can0 34D#0100A8070C280000
(1786374708.828929) can0 39D#A50DF800
(1786374708.838756) can0 33D#0000FFFFFFFFFFFF
(1786374708.839163) can0 36D#E10C00000009D48D
(1786374708.849023) can0 37D#13010000005CD801
(1786374708.868883) can0 39D#A60EF800
(1786374708.878717) can0 38D#00000000709D0400
(1786374708.888973) can0 39D#C80F1801
(1786374708.918865) can0 35D#0655555555555559
(1786374708.919267) can0 33D#0000FFFFFFFFFFFF
(1786374708.939285) can0 39D#6900C801
(1786374708.958852) can0 39D#FC015803
(1786374708.999313) can0 39D#3F029805
(1786374709.039129) can0 33D#0000FFFFFFFFFFFF
(1786374709.039556) can0 39D#C3031808
(1786374709.078793) can0 39D#F604480A
(1786374709.118975) can0 33D#0000FFFFFFFFFFFF
(1786374709.139356) can0 39D#4805980B
(1786374709.158779) can0 39D#CA06180C
(1786374709.198943) can0 39D#BB07080C
(1786374709.238865) can0 33D#0000FFFFFFFFFFFF
(1786374709.239273) can0 39D#BC08080C
(1786374709.279181) can0 39D#BD09080C
(1786374709.319086) can0 33D#0000FFFFFFFFFFFF
(1786374709.339359) can0 39D#BE0A080C
(1786374709.358687) can0 39D#BF0B080C
(1786374709.399175) can0 39D#5F0CA80B
(1786374709.439115) can0 33D#0000FFFFFFFFFFFF
(1786374709.439493) can0 39D#6F0DB80A
(1786374709.478754) can0 39D#EF0E3809
(1786374709.518842) can0 33D#0000FFFFFFFFFFFF
(1786374709.539295) can0 39D#DE0F2807
(1786374709.558808) can0 39D#FD005805
(1786374709.598750) can0 39D#FD015804
(1786374709.639099) can0 33D#0000FFFFFFFFFFFF
(1786374709.639403) can0 39D#CE022804
(1786374709.678800) can0 39D#5E03B803
(1786374709.718948) can0 33D#0000FFFFFFFFFFFF
(1786374709.739308) can0 39D#BF041803
(1786374709.758827) can0 39D#DF053802
(1786374709.798900) can0 39D#4F06A801
(1786374709.838816) can0 33D#0000FFFFFFFFFFFF
(1786374709.839268) can0 39D#B0070801
(1786374709.878720) can0 39D#B1080801
(1786374709.918831) can0 35D#075555A555150000
(1786374709.919215) can0 32D#1405000060FCB070
(1786374709.919520) can0 33D#0000FFFFFFFFFFFF
(1786374709.939297) can0 39D#B2090801
(1786374709.958790) can0 39D#B30A0801
(1786374709.999289) can0 39D#B40B0801
(1786374710.039172) can0 33D#0000FFFFFFFFFFFF
(1786374710.039547) can0 39D#A40CF800
(1786374710.078818) can0 39D#A50DF800
(1786374710.118871) can0 33D#0000FFFFFFFFFFFF
(1786374710.139303) can0 39D#A60EF800
(1786374710.158786) can0 39D#A70FF800
(1786374710.198985) can0 39D#9800F800
(1786374710.239173) can0 33D#0000FFFFFFFFFFFF
(1786374710.239527) can0 39D#9901F800
(1786374710.278767) can0 39D#9A02F800
(1786374710.318939) can0 33D#0000FFFFFFFFFFFF
(1786374710.339213) can0 39D#9B03F800
(1786374710.358759) can0 3AD#7403002004200010
(1786374710.368976) can0 39D#9C04F800
(1786374710.398858) can0 39D#9D05F800
(1786374710.438687) can0 33D#0000FFFFFFFFFFFF
(1786374710.439083) can0 39D#9E06F800
(1786374710.478736) can0 39D#9F07F800
(1786374710.518790) can0 33D#0000FFFFFFFFFFFF
(1786374710.538859) can0 39D#A008F800
(1786374710.558738) can0 39D#A109F800
(1786374710.598929) can0 39D#A20AF800
(1786374710.638780) can0 33D#0000FFFFFFFFFFFF
(1786374710.639184) can0 31D#7703100000040201
(1786374710.648910) can0 33D#06000000514F534E
(1786374710.669210) can0 39D#A30BF800
(1786374710.678668) can0 34D#0000280B172A0000
(1786374710.688959) can0 36D#210100000089B28D
(1786374710.708829) can0 39D#A40CF800
(1786374710.718905) can0 37D#2A000000005C5800
(1786374710.728987) can0 33D#0000FFFFFFFFFFFF
(1786374710.738905) can0 38D#00000000709D0400
(1786374710.749032) can0 39D#A50DF800
(1786374710.758720) can0 39D#A60EF800
(1786374710.798916) can0 39D#A70FF800
(1786374710.838723) can0 33D#0000FFFFFFFFFFFF
(1786374710.839126) can0 39D#9800F800
(1786374710.878638) can0 39D#9901F800
(1786374710.918854) can0 35D#0055555555555555
(1786374710.919301) can0 33D#0000FFFFFFFFFFFF
(1786374710.938961) can0 39D#9A02F800
(1786374710.958648) can0 39D#9B03F800
(1786374710.998974) can0 39D#9C04F800
(1786374711.038776) can0 33D#0000FFFFFFFFFFFF
(1786374711.039177) can0 39D#9D05F800
(1786374711.078732) can0 39D#9E06F800
(1786374711.118785) can0 33D#0000FFFFFFFFFFFF
(1786374711.138868) can0 39D#9F07F800
(1786374711.158699) can0 39D#A008F800
(1786374711.198732) can0 39D#A109F800
(1786374711.238684) can0 33D#0000FFFFFFFFFFFF
(1786374711.239093) can0 39D#A20AF800
(1786374711.278732) can0 39D#A30BF800
(1786374711.318909) can0 33D#0000FFFFFFFFFFFF
(1786374711.338886) can0 39D#A40CF800
(1786374711.358718) can0 39D#A50DF800
(1786374711.398731) can0 39D#A60EF800
(1786374711.438742) can0 33D#0000FFFFFFFFFFFF
(1786374711.439138) can0 39D#A70FF800
(1786374711.478829) can0 39D#9800F800
(1786374711.518779) can0 33D#0000FFFFFFFFFFFF
(1786374711.538918) can0 39D#9901F800
(1786374711.558629) can0 39D#9A02F800
(1786374711.598733) can0 39D#9B03F800
(1786374711.638690) can0 33D#0000FFFFFFFFFFFF
(1786374711.639122) can0 39D#9C04F800
(1786374711.678703) can0 39D#9D05F800
(1786374711.718955) can0 33D#0000FFFFFFFFFFFF
(1786374711.738842) can0 39D#9E06F800
(1786374711.758744) can0 39D#9F07F800
(1786374711.798835) can0 39D#A008F800
(1786374711.838755) can0 33D#0000FFFFFFFFFFFF
(1786374711.839157) can0 39D#A109F800
(1786374711.878691) can0 39D#A20AF800
(1786374711.918853) can0 35D#0155555555555555
(1786374711.919303) can0 32D#16000000E4ACA32F
(1786374711.919742) can0 33D#0000FFFFFFFFFFFF
(1786374711.938872) can0 39D#A30BF800
(1786374711.958776) can0 39D#A40CF800
(1786374711.998724) can0 39D#A50DF800
(1786374712.038685) can0 33D#0000FFFFFFFFFFFF
(1786374712.039141) can0 39D#A60EF800
(1786374712.078743) can0 39D#A70FF800
(1786374712.118711) can0 33D#0000FFFFFFFFFFFF
(1786374712.138890) can0 39D#9800F800
(1786374712.158632) can0 39D#9901F800
(1786374712.198832) can0 39D#9A02F800
(1786374712.238691) can0 33D#0000FFFFFFFFFFFF
(1786374712.239092) can0 39D#9B03F800
(1786374712.278751) can0 39D#9C04F800
(1786374712.318845) can0 33D#0000FFFFFFFFFFFF
(1786374712.338842) can0 39D#9D05F800
(1786374712.358710) can0 39D#9E06F800
(1786374712.398737) can0 39D#9F07F800
(1786374712.438804) can0 33D#0000FFFFFFFFFFFF
(1786374712.439215) can0 39D#A008F800
(1786374712.478770) can0 39D#A109F800
(1786374712.518801) can0 33D#0000FFFFFFFFFFFF
(1786374712.538950) can0 39D#A20AF800
(1786374712.558686) can0 39D#A30BF800
(1786374712.598717) can0 39D#A40CF800
(1786374712.638711) can0 33D#0000FFFFFFFFFFFF
(1786374712.639138) can0 39D#A50DF800
(1786374712.678684) can0 39D#A60EF800
(1786374712.718798) can0 33D#0000FFFFFFFFFFFF
(1786374712.738846) can0 39D#A70FF800
(1786374712.758722) can0 39D#9800F800
(1786374712.798788) can0 39D#9901F800
(1786374712.838770) can0 33D#0000FFFFFFFFFFFF
(1786374712.839181) can0 39D#9A02F800
(1786374712.878791) can0 39D#9B03F800
(1786374712.919076) can0 35D#0256555555555555
(1786374712.919628) can0 33D#0000FFFFFFFFFFFF
(1786374712.938899) can0 39D#9C04F800
(1786374712.958694) can0 39D#9D05F800
(1786374712.998782) can0 39D#9E06F800
(1786374713.038732) can0 33D#0000FFFFFFFFFFFF
(1786374713.039157) can0 39D#9F07F800
(1786374713.078760) can0 39D#A008F800
(1786374713.118857) can0 33D#0000FFFFFFFFFFFF
(1786374713.138884) can0 39D#A109F800
(1786374713.158666) can0 39D#A20AF800
(1786374713.198897) can0 39D#A30BF800
(1786374713.238751) can0 33D#0000FFFFFFFFFFFF
(1786374713.239175) can0 39D#A40CF800
(1786374713.278799) can0 39D#A50DF800
(1786374713.318817) can0 33D#0000FFFFFFFFFFFF
(1786374713.338940) can0 39D#A60EF800
(1786374713.358687) can0 39D#A70FF800
(1786374713.398743) can0 39D#9800F800
(1786374713.438785) can0 33D#0000FFFFFFFFFFFF
(1786374713.439206) can0 39D#9901F800
(1786374713.478727) can0 39D#9A02F800
(1786374713.518867) can0 33D#0000FFFFFFFFFFFF
(1786374713.538842) can0 39D#9B03F800
(1786374713.558661) can0 39D#9C04F800
(1786374713.598804) can0 39D#9D05F800
(1786374713.638729) can0 33D#0000FFFFFFFFFFFF
(1786374713.639136) can0 39D#9E06F800
(1786374713.678746) can0 39D#9F07F800
(1786374713.718800) can0 33D#0000FFFFFFFFFFFF
(1786374713.738949) can0 39D#A008F800
(1786374713.758771) can0 39D#A109F800
(1786374713.798841) can0 39D#A20AF800
(1786374713.838739) can0 33D#0000FFFFFFFFFFFF
(1786374713.839133) can0 39D#A30BF800
(1786374713.878779) can0 39D#A40CF800
(1786374713.918872) can0 35D#0355555555555555
(1786374713.919292) can0 32D#0A01000000007000
(1786374713.919780) can0 33D#0000FFFFFFFFFFFF
(1786374713.938921) can0 39D#A50DF800
(1786374713.958638) can0 39D#A60EF800
(1786374713.998815) can0 39D#A70FF800
(1786374714.038725) can0 33D#0000FFFFFFFFFFFF
(1786374714.039126) can0 39D#9800F800
(1786374714.078809) can0 39D#9901F800
(1786374714.118818) can0 33D#0000FFFFFFFFFFFF
(1786374714.138918) can0 39D#9A02F800
(1786374714.158710) can0 39D#9B03F800
(1786374714.198722) can0 39D#9C04F800
(1786374714.238717) can0 33D#0000FFFFFFFFFFFF
(1786374714.239115) can0 39D#9D05F800
(1786374714.278754) can0 39D#9E06F800
(1786374714.318782) can0 33D#0000FFFFFFFFFFFF
(1786374714.338913) can0 39D#9F07F800
(1786374714.358630) can0 39D#A008F800
(1786374714.398894) can0 39D#A109F800
(1786374714.438749) can0 33D#0000FFFFFFFFFFFF
(1786374714.439200) can0 39D#A20AF800
(1786374714.478873) can0 39D#A30BF800
(1786374714.518810) can0 33D#0000FFFFFFFFFFFF
(1786374714.538972) can0 39D#A40CF800
(1786374714.558772) can0 39D#A50DF800
(1786374714.598732) can0 39D#A60EF800
(1786374714.638712) can0 33D#0000FFFFFFFFFFFF
(1786374714.639003) can0 39D#A70FF800
(1786374714.678722) can0 39D#9800F800
(1786374714.718865) can0 33D#0000FFFFFFFFFFFF
(1786374714.738819) can0 39D#9901F800
(1786374714.758666) can0 39D#9A02F800
(1786374714.798795) can0 39D#9B03F800
(1786374714.838704) can0 33D#0000FFFFFFFFFFFF
(1786374714.839103) can0 39D#9C04F800
(1786374714.878691) can0 39D#9D05F800
(1786374714.918706) can0 35D#0455555555555555
(1786374714.919103) can0 33D#0000FFFFFFFFFFFF
(1786374714.938856) can0 39D#9E06F800
(1786374714.958577) can0 39D#9F07F800
(1786374714.998638) can0 39D#A008F800
(1786374715.038687) can0 33D#0000FFFFFFFFFFFF
(1786374715.038969) can0 39D#A109F800
(1786374715.078661) can0 39D#A20AF800
(1786374715.118643) can0 33D#0000FFFFFFFFFFFF
(1786374715.138786) can0 39D#A30BF800
(1786374715.158726) can0 39D#A40CF800
(1786374715.198668) can0 39D#A50DF800
(1786374715.238722) can0 33D#0000FFFFFFFFFFFF
(1786374715.239148) can0 39D#A60EF800
(1786374715.278736) can0 39D#A70FF800
(1786374715.318640) can0 33D#0000FFFFFFFFFFFF
(1786374715.338901) can0 39D#9800F800
(1786374715.358705) can0 39D#9901F800
(1786374715.398819) can0 39D#9A02F800
(1786374715.438756) can0 33D#0000FFFFFFFFFFFF
(1786374715.439179) can0 39D#9B03F800
(1786374715.478676) can0 39D#9C04F800
(1786374715.518716) can0 33D#0000FFFFFFFFFFFF
(1786374715.538901) can0 39D#9D05F800
(1786374715.558635) can0 39D#9E06F800
(1786374715.598649) can0 39D#9F07F800
(1786374715.638751) can0 33D#0000FFFFFFFFFFFF
(1786374715.639133) can0 39D#A008F800
(1786374715.678702) can0 39D#A109F800
(1786374715.718899) can0 33D#0000FFFFFFFFFFFF
(1786374715.738867) can0 39D#A20AF800
(1786374715.758667) can0 39D#A30BF800
(1786374715.798750) can0 39D#A40CF800
(1786374715.838714) can0 33D#0000FFFFFFFFFFFF
(1786374715.839149) can0 39D#A50DF800
(1786374715.878790) can0 39D#A60EF800
(1786374715.918727) can0 35D#0555555555555555
(1786374715.919043) can0 32D#0B00020101000000
(1786374715.919435) can0 33D#0000FFFFFFFFFFFF
(1786374715.938833) can0 39D#A70FF800
(1786374715.958606) can0 39D#9800F800
(1786374715.998876) can0 39D#9901F800
(1786374716.038649) can0 33D#0000FFFFFFFFFFFF
(1786374716.039048) can0 39D#9A02F800
(1786374716.078671) can0 39D#9B03F800
(1786374716.118775) can0 33D#0000FFFFFFFFFFFF
(1786374716.138868) can0 39D#9C04F800
(1786374716.158773) can0 39D#9D05F800
(1786374716.198822) can0 39D#9E06F800
(1786374716.238596) can0 33D#0000FFFFFFFFFFFF
(1786374716.238978) can0 39D#9F07F800
(1786374716.278679) can0 39D#A008F800
(1786374716.318889) can0 33D#0000FFFFFFFFFFFF
(1786374716.338864) can0 39D#A109F800
(1786374716.358721) can0 39D#A20AF800
(1786374716.398680) can0 39D#A30BF800
(1786374716.438669) can0 33D#0000FFFFFFFFFFFF
(1786374716.439021) can0 39D#A40CF800
(1786374716.478661) can0 39D#B60D0801
(1786374716.518893) can0 33D#0000FFFFFFFFFFFF
(1786374716.538927) can0 39D#B70E0801
(1786374716.558782) can0 39D#F80F4801
(1786374716.598837) can0 39D#9900F801
(1786374716.638875) can0 33D#0000FFFFFFFFFFFF
(1786374716.639296) can0 39D#BC011803
(1786374716.678847) can0 39D#7E02D804
(1786374716.718952) can0 33D#0000FFFFFFFFFFFF
(1786374716.739316) can0 39D#B2030807
(1786374716.758795) can0 39D#D5042809
(1786374716.798787) can0 39D#9705E80A
(1786374716.839153) can0 33D#0000FFFFFFFFFFFF
(1786374716.839489) can0 39D#7A06C80C
(1786374716.879166) can0 39D#9D07E80E
(1786374716.919281) can0 35D#0655555555555559
(1786374716.919601) can0 33D#0000FFFFFFFFFFFF
(1786374716.939274) can0 39D#21086811
(1786374716.959112) can0 39D#F5093814
(1786374716.998832) can0 39D#E90A2817
(1786374717.038871) can0 33D#0000FFFFFFFFFFFF
(1786374717.039261) can0 39D#9C0BD819
(1786374717.079211) can0 39D#F00C281C
(1786374717.119287) can0 33D#0000FFFFFFFFFFFF
(1786374717.139359) can0 39D#D30D081E
(1786374717.158807) can0 39D#950EC81F
(1786374717.198853) can0 39D#280F5821
(1786374717.239151) can0 33D#0000FFFFFFFFFFFF
(1786374717.239471) can0 39D#AA00E822
(1786374717.278856) can0 39D#1D015824
(1786374717.318864) can0 33D#0000FFFFFFFFFFFF
(1786374717.339306) can0 39D#9F02D825
(1786374717.358879) can0 39D#B103E826
(1786374717.399221) can0 39D#7304A827
(1786374717.439164) can0 33D#0000FFFFFFFFFFFF
(1786374717.439548) can0 39D#15054828
(1786374717.478828) can0 39D#A606D828
(1786374717.518857) can0 33D#0000FFFFFFFFFFFF
(1786374717.539254) can0 39D#28075829
(1786374717.558938) can0 39D#9908C829
(1786374717.599177) can0 39D#EB09182A
(1786374717.638789) can0 33D#0000FFFFFFFFFFFF
(1786374717.639214) can0 39D#FC0A282A
(1786374717.678801) can0 39D#FD0B282A
(1786374717.718700) can0 33D#0000FFFFFFFFFFFF
(1786374717.739289) can0 39D#FE0C282A
(1786374717.758768) can0 39D#FF0D282A
(1786374717.798744) can0 39D#000E282A
(1786374717.838744) can0 33D#0000FFFFFFFFFFFF
(1786374717.839125) can0 39D#010F282A
(1786374717.878903) can0 39D#F200282A
(1786374717.918940) can0 35D#075555A555150000
(1786374717.919370) can0 32D#0D0000008D792021
(1786374717.919863) can0 33D#0000FFFFFFFFFFFF
(1786374717.939262) can0 39D#F301282A
(1786374717.958814) can0 39D#F402282A
(1786374717.998957) can0 39D#F503282A
(1786374718.038753) can0 33D#0000FFFFFFFFFFFF
(1786374718.039137) can0 39D#F604282A
(1786374718.078727) can0 39D#F705282A
(1786374718.118949) can0 33D#0000FFFFFFFFFFFF
(1786374718.139259) can0 39D#F806282A
(1786374718.158737) can0 39D#F907282A
(1786374718.198883) can0 39D#FA08282A
(1786374718.238796) can0 33D#0000FFFFFFFFFFFF
(1786374718.239198) can0 39D#FB09282A
(1786374718.278771) can0 39D#FC0A282A
(1786374718.318744) can0 33D#0000FFFFFFFFFFFF
(1786374718.339258) can0 39D#FD0B282A
(1786374718.358699) can0 39D#FE0C282A
(1786374718.398730) can0 39D#FF0D282A
(1786374718.438850) can0 33D#0000FFFFFFFFFFFF
(1786374718.439189) can0 39D#000E282A
(1786374718.478830) can0 39D#010F282A
(1786374718.518895) can0 33D#0000FFFFFFFFFFFF
(1786374718.538885) can0 39D#F200282A
(1786374718.558781) can0 39D#F301282A
(1786374718.598796) can0 39D#F402282A
(1786374718.638859) can0 33D#0000FFFFFFFFFFFF
(1786374718.639264) can0 39D#F503282A
(1786374718.679132) can0 39D#F604282A
(1786374718.718941) can0 33D#0000FFFFFFFFFFFF
(1786374718.739259) can0 39D#F705282A
(1786374718.758763) can0 39D#F806282A
(1786374718.798862) can0 39D#F907282A
(1786374718.839221) can0 33D#0000FFFFFFFFFFFF
(1786374718.839585) can0 39D#FA08282A
(1786374718.878791) can0 39D#FB09282A
(1786374718.918890) can0 35D#0055555555555555
(1786374718.919261) can0 33D#0000FFFFFFFFFFFF
(1786374718.939274) can0 39D#FC0A282A
(1786374718.958842) can0 39D#FD0B282A
(1786374718.998795) can0 39D#FE0C282A
(1786374719.038743) can0 33D#0000FFFFFFFFFFFF
(1786374719.039157) can0 39D#FF0D282A
(1786374719.078818) can0 39D#000E282A
(1786374719.118810) can0 33D#0000FFFFFFFFFFFF
(1786374719.139230) can0 39D#010F282A
(1786374719.158874) can0 39D#F200282A
(1786374719.198838) can0 39D#F301282A
(1786374719.238848) can0 33D#0000FFFFFFFFFFFF
(1786374719.239277) can0 39D#F402282A
(1786374719.278780) can0 39D#F503282A
(1786374719.318956) can0 33D#0000FFFFFFFFFFFF
(1786374719.339204) can0 39D#F604282A
(1786374719.358717) can0 39D#F705282A
(1786374719.398752) can0 39D#F806282A
(1786374719.438783) can0 33D#0000FFFFFFFFFFFF
(1786374719.439239) can0 39D#F907282A
(1786374719.478805) can0 39D#FA08282A
(1786374719.518770) can0 33D#0000FFFFFFFFFFFF
(1786374719.539279) can0 39D#FB09282A
(1786374719.558819) can0 39D#FC0A282A
(1786374719.598741) can0 39D#FD0B282A
(1786374719.638870) can0 33D#0000FFFFFFFFFFFF
(1786374719.639240) can0 39D#FE0C282A
(1786374719.678750) can0 39D#FF0D282A
(1786374719.719022) can0 33D#0000FFFFFFFFFFFF
(1786374719.739231) can0 39D#000E282A
(1786374719.758783) can0 39D#010F282A
(1786374719.798809) can0 39D#F200282A
(1786374719.838792) can0 33D#0000FFFFFFFFFFFF
(1786374719.839297) can0 39D#F301282A
(1786374719.878874) can0 39D#F402282A
(1786374719.918806) can0 35D#0155555555555555
(1786374719.919180) can0 32D#1405000060FCB070
(1786374719.919536) can0 33D#0000FFFFFFFFFFFF
(1786374719.939277) can0 39D#F503282A
(1786374719.958818) can0 39D#F604282A
(1786374719.998800) can0 39D#F705282A
(1786374720.038803) can0 33D#0000FFFFFFFFFFFF
(1786374720.039176) can0 39D#F806282A
(1786374720.078788) can0 39D#F907282A
(1786374720.118734) can0 33D#0000FFFFFFFFFFFF
(1786374720.139268) can0 39D#FA08282A
(1786374720.158753) can0 39D#FB09282A
(1786374720.198708) can0 39D#FC0A282A
(1786374720.238775) can0 33D#0000FFFFFFFFFFFF
(1786374720.239245) can0 39D#FD0B282A
(1786374720.278796) can0 39D#FE0C282A
(1786374720.318938) can0 33D#0000FFFFFFFFFFFF
(1786374720.339169) can0 39D#FF0D282A
(1786374720.358787) can0 39D#000E282A
(1786374720.399102) can0 39D#010F282A
(1786374720.438742) can0 33D#0000FFFFFFFFFFFF
(1786374720.439148) can0 39D#F200282A
(1786374720.478790) can0 39D#F301282A
(1786374720.518786) can0 33D#0000FFFFFFFFFFFF
(1786374720.538932) can0 39D#F402282A
(1786374720.558772) can0 39D#F503282A
(1786374720.598839) can0 39D#F604282A
(1786374720.638835) can0 33D#0000FFFFFFFFFFFF
(1786374720.639236) can0 39D#F705282A
(1786374720.678735) can0 39D#F806282A
(1786374720.718930) can0 33D#0000FFFFFFFFFFFF
(1786374720.739217) can0 39D#F907282A
(1786374720.758702) can0 39D#FA08282A
(1786374720.798789) can0 39D#FB09282A
(1786374720.838809) can0 33D#0000FFFFFFFFFFFF
(1786374720.839220) can0 39D#FC0A282A
(1786374720.878768) can0 39D#FD0B282A
(1786374720.918761) can0 35D#0256555555555555
(1786374720.919125) can0 33D#0000FFFFFFFFFFFF
(1786374720.939218) can0 39D#FE0C282A
(1786374720.958787) can0 39D#FF0D282A
(1786374720.998844) can0 39D#F00E182A
(1786374721.038803) can0 33D#0000FFFFFFFFFFFF
(1786374721.039247) can0 39D#010F282A
(1786374721.078780) can0 39D#F200282A
(1786374721.118988) can0 33D#0000FFFFFFFFFFFF
(1786374721.139216) can0 39D#F301282A
(1786374721.158781) can0 39D#F402282A
(1786374721.198787) can0 39D#E503182A
(1786374721.238845) can0 33D#0000FFFFFFFFFFFF
(1786374721.239253) can0 39D#E604182A
(1786374721.278773) can0 39D#E705182A
(1786374721.318823) can0 33D#0000FFFFFFFFFFFF
(1786374721.339342) can0 39D#D806082A
(1786374721.358792) can0 39D#D907082A
(1786374721.398748) can0 39D#DA08082A
(1786374721.439108) can0 33D#0000FFFFFFFFFFFF
(1786374721.439449) can0 39D#DB09082A
(1786374721.478896) can0 39D#DC0A082A
(1786374721.518762) can0 33D#0000FFFFFFFFFFFF
(1786374721.539197) can0 39D#CC0BF829
(1786374721.558828) can0 39D#CD0CF829
(1786374721.598851) can0 39D#CE0DF829
(1786374721.638806) can0 33D#0000FFFFFFFFFFFF
(1786374721.639236) can0 39D#BF0EE829
(1786374721.678831) can0 39D#C00FE829
(1786374721.718896) can0 33D#0000FFFFFFFFFFFF
(1786374721.739260) can0 39D#B100E829
(1786374721.758751) can0 39D#B201E829
(1786374721.798787) can0 39D#B302E829
(1786374721.838770) can0 33D#0000FFFFFFFFFFFF
(1786374721.839252) can0 39D#B403E829
(1786374721.878789) can0 39D#B504E829
(1786374721.918869) can0 35D#0355555555555555
(1786374721.919201) can0 32D#16000000E4ACA32F
(1786374721.919542) can0 33D#0000FFFFFFFFFFFF
(1786374721.939266) can0 39D#B605E829
(1786374721.958794) can0 39D#B706E829
(1786374721.998815) can0 39D#B807E829
(1786374722.038800) can0 33D#0000FFFFFFFFFFFF
(1786374722.039184) can0 39D#B908E829
(1786374722.078824) can0 39D#BA09E829
(1786374722.118835) can0 33D#0000FFFFFFFFFFFF
(1786374722.139240) can0 39D#BB0AE829
(1786374722.158730) can0 39D#BC0BE829
(1786374722.198905) can0 39D#BD0CE829
(1786374722.238809) can0 33D#0000FFFFFFFFFFFF
(1786374722.239231) can0 39D#BE0DE829
(1786374722.278798) can0 39D#BF0EE829
(1786374722.318966) can0 33D#0000FFFFFFFFFFFF
(1786374722.339189) can0 39D#C00FE829
(1786374722.358718) can0 39D#B100E829
(1786374722.398816) can0 39D#B201E829
(1786374722.438804) can0 33D#0000FFFFFFFFFFFF
(1786374722.439148) can0 39D#B302E829
(1786374722.478826) can0 39D#B403E829
(1786374722.518800) can0 33D#0000FFFFFFFFFFFF
(1786374722.539205) can0 39D#B504E829
(1786374722.558920) can0 39D#B605E829
(1786374722.598820) can0 39D#B706E829
(1786374722.638843) can0 33D#0000FFFFFFFFFFFF
(1786374722.639254) can0 39D#B807E829
(1786374722.678853) can0 39D#B908E829
(1786374722.718963) can0 33D#0000FFFFFFFFFFFF
(1786374722.739197) can0 39D#BA09E829
(1786374722.759106) can0 39D#BB0AE829
(1786374722.798769) can0 39D#BC0BE829
(1786374722.838759) can0 33D#0000FFFFFFFFFFFF
(1786374722.839218) can0 39D#BD0CE829
(1786374722.878857) can0 39D#BE0DE829
(1786374722.918770) can0 35D#0455555555555555
(1786374722.919152) can0 33D#0000FFFFFFFFFFFF
(1786374722.939287) can0 39D#BF0EE829
(1786374722.958745) can0 39D#C00FE829
(1786374722.998751) can0 39D#A100D829
(1786374723.039174) can0 33D#0000FFFFFFFFFFFF
(1786374723.039541) can0 39D#A201D829
(1786374723.078825) can0 39D#9302C829
(1786374723.118968) can0 33D#0000FFFFFFFFFFFF
(1786374723.139274) can0 39D#8403B829
(1786374723.159149) can0 39D#8504B829
(1786374723.199130) can0 39D#7605A829
(1786374723.238823) can0 33D#0000FFFFFFFFFFFF
(1786374723.239234) can0 39D#7706A829
(1786374723.278776) can0 39D#7807A829
(1786374723.318927) can0 33D#0000FFFFFFFFFFFF
(1786374723.339242) can0 39D#7908A829
(1786374723.358862) can0 39D#7A09A829
(1786374723.398869) can0 39D#6B0A9829
(1786374723.438854) can0 33D#0000FFFFFFFFFFFF
(1786374723.439204) can0 39D#5C0B8829
(1786374723.478803) can0 39D#5D0C8829
(1786374723.518964) can0 33D#0000FFFFFFFFFFFF
(1786374723.539283) can0 39D#5E0D8829
(1786374723.558722) can0 39D#5F0E8829
(1786374723.598764) can0 39D#500F7829
(1786374723.638842) can0 33D#0000FFFFFFFFFFFF
(1786374723.639196) can0 39D#31006829
(1786374723.678821) can0 39D#22015829
(1786374723.719154) can0 33D#0000FFFFFFFFFFFF
(1786374723.739305) can0 39D#03023829
(1786374723.759116) can0 39D#F4032829
(1786374723.799146) can0 39D#E5041829
(1786374723.839233) can0 33D#0000FFFFFFFFFFFF
(1786374723.839610) can0 39D#B505E828
(1786374723.878845) can0 39D#8606B828
(1786374723.918860) can0 35D#0555555555555555
(1786374723.919283) can0 32D#0A01000000007000
(1786374723.919700) can0 33D#0000FFFFFFFFFFFF
(1786374723.939476) can0 39D#57078828
(1786374723.959167) can0 39D#18084828
(1786374723.999130) can0 39D#D9090828
(1786374724.038839) can0 33D#0000FFFFFFFFFFFF
(1786374724.039339) can0 39D#990AC827
(1786374724.078812) can0 39D#5A0B8827
(1786374724.119242) can0 33D#0000FFFFFFFFFFFF
(1786374724.139269) can0 39D#1B0C4827
(1786374724.158863) can0 39D#DC0D0827
(1786374724.198790) can0 39D#9C0EC826
(1786374724.238816) can0 33D#0000FFFFFFFFFFFF
(1786374724.239277) can0 39D#5D0F8826
(1786374724.278795) can0 39D#FE003826
(1786374724.319141) can0 33D#0000FFFFFFFFFFFF
(1786374724.339272) can0 39D#AE01E825
(1786374724.358853) can0 39D#6F02A825
(1786374724.399112) can0 39D#20035825
(1786374724.439219) can0 33D#0000FFFFFFFFFFFF
(1786374724.439530) can0 39D#D1040825
(1786374724.479303) can0 39D#8105B824
(1786374724.518749) can0 33D#0000FFFFFFFFFFFF
(1786374724.539289) can0 39D#32066824
(1786374724.558720) can0 39D#E3071824
(1786374724.599182) can0 39D#A308D823
(1786374724.638854) can0 33D#0000FFFFFFFFFFFF
(1786374724.639284) can0 39D#7409A823
(1786374724.678825) can0 39D#650A9823
(1786374724.718898) can0 33D#0000FFFFFFFFFFFF
(1786374724.739267) can0 39D#660B9823
(1786374724.758861) can0 39D#670C9823
(1786374724.799343) can0 39D#680D9823
(1786374724.838808) can0 33D#0000FFFFFFFFFFFF
(1786374724.839228) can0 39D#690E9823
(1786374724.878901) can0 39D#6A0F9823
(1786374724.919037) can0 35D#0655555555555559
(1786374724.919588) can0 33D#0000FFFFFFFFFFFF
(1786374724.939341) can0 39D#5B009823
(1786374724.958787) can0 39D#5C019823
(1786374724.998827) can0 39D#5D029823
(1786374725.039217) can0 33D#0000FFFFFFFFFFFF
(1786374725.039714) can0 39D#5E039823
(1786374725.078878) can0 39D#5F049823
(1786374725.119094) can0 33D#0000FFFFFFFFFFFF
(1786374725.139367) can0 39D#60059823
